# HZ S RI R 50
100000 0.5363762780101828 -0.7188446669213656
104903 0.5095850964778104 -0.7365525675615706
109806 0.48151327571878055 -0.750936618806138
114709 0.45028512584340585 -0.7672776788266974
119612 0.42521244505689165 -0.7789137793337728
124515 0.4004302586509766 -0.789579437755072
129418 0.37219878299176645 -0.8025396500893286
134321 0.34552380780334835 -0.8091486119120822
139224 0.31959221254976233 -0.82029000026796
144127 0.2939245114325699 -0.8306160324363018
149030 0.2672997549561986 -0.835162776772288
153933 0.2410280237077337 -0.8383748624462678
158836 0.2184871942885021 -0.8456507853644659
163739 0.194181680886536 -0.8489562324588972
168642 0.1697237284419835 -0.8491444582357153
173545 0.14721526800369802 -0.852726349195269
178448 0.1250495758049685 -0.8547589608287802
183351 0.10048389419437465 -0.8533017428546562
188254 0.07765632699051761 -0.8527643528281017
193157 0.05624035851305222 -0.8497537647085427
198060 0.03497704052302873 -0.8468513780064388
202963 0.016593660097197413 -0.8427020631752593
207866 0.001945305419463098 -0.832433436799996
212769 -0.007985317590800931 -0.8203494529265547
217672 -0.008048696695424814 -0.8173764689062742
222575 -0.008483559808216556 -0.8307202517859481
227478 -0.021847650585696935 -0.8447725788252171
232381 -0.04414523624915089 -0.8534413696211899
237284 -0.06396817125160978 -0.8551118917235208
242187 -0.08525247112435679 -0.8570039090965796
247090 -0.10096349444720625 -0.8543004904156519
251993 -0.11907934678325938 -0.8580991334065268
256896 -0.13406506453988168 -0.8534472032397683
261799 -0.15302281764667813 -0.8502047238351697
266702 -0.1674964070921468 -0.8522960939365489
271605 -0.18332621803850976 -0.8458235181859884
276508 -0.20125759218055253 -0.8456689185317885
281411 -0.21380329775367202 -0.8413126092791573
286314 -0.22702802890176205 -0.8388075841788416
291217 -0.2362402571068013 -0.8333072153870107
296120 -0.25126469539433377 -0.8313646386152987
301023 -0.2646156987178136 -0.8276732629531063
305926 -0.27655279230766744 -0.8214076596821206
310829 -0.2856461315132356 -0.8205501180663415
315732 -0.2971639054439964 -0.8162833534858889
320635 -0.3091924874360703 -0.8140822205544976
325538 -0.31832350162127826 -0.8056982470739888
330441 -0.3311046164381299 -0.8080029818472505
335344 -0.33911585819792334 -0.8004528038736838
340247 -0.3529451812022243 -0.7996895972534208
345150 -0.36013660126329783 -0.7955312561922593
350053 -0.37330128160555653 -0.7910195333993494
354956 -0.3799721343012868 -0.7863476475890728
359859 -0.3944314234999368 -0.7819731494753124
364762 -0.39795766385864506 -0.7798275285868674
369665 -0.40549986192114995 -0.7712113773102391
374568 -0.4163997683371052 -0.7703866718936856
379471 -0.4273000616015766 -0.7654610499478867
384374 -0.4315512734288655 -0.7663868363386895
389277 -0.43929640839601963 -0.7590244600532197
394180 -0.4511689329131449 -0.7541248675111536
399083 -0.4567612267518948 -0.7517795504975175
403986 -0.4635888099726997 -0.7451970856177864
408889 -0.47008207351006925 -0.7434439752825729
413792 -0.4775306562564808 -0.7372003569460122
418695 -0.48887702017376494 -0.7350779255756962
423598 -0.4924403991988618 -0.7284778790324502
428501 -0.5029644125063049 -0.7247538777522421
433404 -0.5054634988893315 -0.7232212544066619
438307 -0.5155558844875039 -0.7167511051569927
443210 -0.5166897049573126 -0.7166237531449922
448113 -0.5236595914169078 -0.7112817551338219
453016 -0.5292349777502356 -0.7056742863007486
457919 -0.5368435816283219 -0.701903523699405
462822 -0.5433051625016398 -0.7004077166514702
467725 -0.5504340169309329 -0.6941376475878049
472628 -0.554523955108587 -0.6933770610159837
477531 -0.5619066832509206 -0.6868231523081763
482434 -0.5661924507558977 -0.6799262834952189
487337 -0.5698870986287063 -0.6816682125762943
492240 -0.5743979724894388 -0.6756532132981489
497143 -0.5803728628064704 -0.6731036242722879
502046 -0.5834178742312819 -0.6680428875385417
506949 -0.5891034473061971 -0.6629370880448561
511852 -0.5919728544541015 -0.6640610305678233
516755 -0.5975236590742983 -0.6572977193853538
521658 -0.604470347820886 -0.6566589859317855
526561 -0.6045429708169117 -0.6492114493957137
531464 -0.6120939544503954 -0.6474557215221053
536367 -0.6167446152886836 -0.6439181432336845
541270 -0.6204733499417218 -0.6384382261063261
546173 -0.623755039147037 -0.6389337608162238
551076 -0.6285288820311405 -0.6308787363320789
555979 -0.6330984225350443 -0.6279271151564929
560882 -0.6360080130073059 -0.623466168133843
565785 -0.6394133986764446 -0.6207243588974088
570688 -0.645611312877713 -0.6129210077781426
575591 -0.6483324211099188 -0.6106890483140319
580494 -0.645073884231581 -0.6039236269093333
585397 -0.646933467563892 -0.6042005298493989
590300 -0.6487948370951002 -0.6013837754947058
595203 -0.653065245024484 -0.6030909878691657
600106 -0.6577443370420197 -0.602233310590723
605009 -0.6623345120755905 -0.6013113388573107
609912 -0.662551313128874 -0.5991837359218308
614815 -0.6684839906393301 -0.5959129353455408
619718 -0.6727328197502422 -0.5953193945635854
624621 -0.6738799446885977 -0.5924959047927797
629524 -0.6784314384963464 -0.5899190733982506
634427 -0.6850909724443344 -0.5867393671809493
639330 -0.6855384490287061 -0.5840617042397301
644233 -0.6919744048714662 -0.5774267183846207
649136 -0.6927515731504074 -0.5786254922954112
654039 -0.6963272106590903 -0.5729857233602776
658942 -0.7038115489790068 -0.571122812634986
663845 -0.7046839216185744 -0.570353084694334
668748 -0.7038212631315365 -0.5648278750168914
673651 -0.7059811999100775 -0.5604998562587856
678554 -0.7118767892237317 -0.5583664994135016
683457 -0.71246005359929 -0.5600589981942699
688360 -0.7154758158988851 -0.5523780179179537
693263 -0.7210814620449787 -0.5511371836772694
698166 -0.7228080064430762 -0.5491154570501128
703069 -0.7248066220970092 -0.5479743249929627
707972 -0.7268385287971855 -0.5454530830295059
712875 -0.7290384581024398 -0.5383704756254065
717778 -0.7328134165323172 -0.5385716499368298
722681 -0.7336168177395336 -0.5333250226285391
727584 -0.7364898567683139 -0.5342520771928595
732487 -0.7385534685984889 -0.5304855048834849
737390 -0.7420329820663825 -0.5262849624005108
742293 -0.7429157605921431 -0.5247822344760665
747196 -0.7466672248677383 -0.522382018893458
752099 -0.7479849263551707 -0.5186768893402055
757002 -0.7496311610930106 -0.5172618623937821
761905 -0.7513226848142966 -0.5154730259044035
766808 -0.7509154910150021 -0.5152270448490135
771711 -0.7523235362513144 -0.5101662075856237
776614 -0.7558590408412624 -0.5108779139111184
781517 -0.757189313633001 -0.5076111524850195
786420 -0.7640678757392809 -0.5012207982277364
791323 -0.764179919709848 -0.5049436301024323
796226 -0.7664410579720621 -0.4997324884174249
801129 -0.7661594487355223 -0.49917302460526447
806032 -0.7684048581295841 -0.4935938416067065
810935 -0.7717210438653147 -0.49276321095186076
815838 -0.7708297134271916 -0.49221928873413534
820741 -0.7716571819816483 -0.4916025075991943
825644 -0.7726840049491456 -0.48617955185490647
830547 -0.7755173121577859 -0.48771574677405777
835450 -0.7808958893676703 -0.48192743825364215
840353 -0.7756196925275259 -0.47933436908525373
845256 -0.7766423581248091 -0.4777258876469876
850159 -0.7840093829072129 -0.4771008137969221
855062 -0.7815907309436182 -0.47380274995738514
859965 -0.7848064690773036 -0.4731774432784436
864868 -0.7870173054360864 -0.470854918519959
869771 -0.790277447850033 -0.4688298042207839
874674 -0.7902865655622946 -0.4695634228747036
879577 -0.7886430564551452 -0.4643106232027391
884480 -0.7900149160630335 -0.46082396005625936
889383 -0.7964286644740987 -0.45660431135350693
894286 -0.7962642656683788 -0.46050953073805234
899189 -0.800513230384426 -0.455741954106533
904092 -0.7984020019446482 -0.4529997248463106
908995 -0.79993635343196 -0.4505781516533373
913898 -0.801862131701665 -0.45074733427344804
918801 -0.8006507377021366 -0.4463078288362792
923704 -0.7999824118656269 -0.4453708819417164
928607 -0.8053830556372916 -0.4444679052815598
933510 -0.8056736851095013 -0.44643884978756915
938413 -0.8059670346547478 -0.439869808998949
943316 -0.8044834120001524 -0.4393082501143306
948219 -0.8090901447884854 -0.437906399630723
953122 -0.8122656982942025 -0.43543875248831804
958025 -0.8067104890700134 -0.4321975629027136
962928 -0.8112467701599306 -0.4326399391899768
967831 -0.8117522767352292 -0.43292981519113033
972734 -0.8114913141840391 -0.42960504601542254
977637 -0.8097581678441713 -0.43076813321245794
982540 -0.8142174901251317 -0.42531380038386
987443 -0.817132785597297 -0.4268041599760408
992346 -0.8173927381113852 -0.4256424810284547
997249 -0.8172256984675641 -0.42593060500796326
1002152 -0.817954412712666 -0.42092826488270635
1007055 -0.8192744602168005 -0.42256530587712327
1011958 -0.8203940932604958 -0.4209627320496544
1016861 -0.8251092132383585 -0.41871963316370836
1021764 -0.825508051900194 -0.41820953540977973
1026667 -0.8245784208275152 -0.41384978729438027
1031570 -0.8301248461758085 -0.4146931863216818
1036473 -0.8260616473599686 -0.40955401462361174
1041376 -0.8310769654178186 -0.41063961889850026
1046279 -0.8270137957682462 -0.4095598690129415
1051182 -0.8317300394278588 -0.40914351585644754
1056085 -0.8334280520282464 -0.40782066329660116
1060988 -0.8333295183255552 -0.4049845333174166
1065891 -0.837013824835377 -0.403482200164073
1070794 -0.835886966088599 -0.40207456452655
1075697 -0.8344552505200449 -0.40011422641971733
1080600 -0.8372349384058211 -0.3988680433609207
1085503 -0.8366746625702094 -0.3961388706990218
1090406 -0.8395629027670334 -0.39630691122223105
1095309 -0.8412868484413801 -0.3936227381753127
1100212 -0.8427871403523013 -0.3961418010930495
1105115 -0.8396634968665447 -0.3883656875339533
1110018 -0.8407220462792068 -0.3904287088640728
1114921 -0.8427446012682531 -0.38532031052668786
1119824 -0.8449781042826284 -0.3897104475327372
1124727 -0.8430895049909342 -0.3862178009067076
1129630 -0.8434091257852563 -0.3830447065113725
1134533 -0.8481648028012576 -0.3828079736356569
1139436 -0.8487437314946957 -0.3838762781915491
1144339 -0.8467579913455179 -0.3811225426030185
1149242 -0.8487716828915104 -0.3799971103187484
1154145 -0.8527797769386771 -0.37765511337225577
1159048 -0.8492505914172508 -0.3802862204796961
1163951 -0.8521341458461067 -0.3751279638162968
1168854 -0.8491171418784498 -0.37622608154527765
1173757 -0.8537650724178399 -0.3738410044087775
1178660 -0.8518727586969053 -0.3691447366385814
1183563 -0.8520738020877758 -0.36858869220451546
1188466 -0.8513842816768615 -0.36959125743452226
1193369 -0.8556352947123724 -0.3730443452918114
1198272 -0.855512256337906 -0.3669251569041227
1203175 -0.8559120639245739 -0.3636770786116378
1208078 -0.8566740265692397 -0.3632165255422056
1212981 -0.8564054981353934 -0.3631034916407613
1217884 -0.8566577842830535 -0.3638824024998868
1222787 -0.860709472436124 -0.35988397422635693
1227690 -0.8591852642763697 -0.35816611492613787
1232593 -0.86128895341268 -0.35970994052983407
1237496 -0.8596507681176447 -0.3578428241767855
1242399 -0.8591379557398782 -0.35369240494770043
1247302 -0.8612126399202414 -0.359902258288979
1252205 -0.8623150652039383 -0.35438819273400457
1257108 -0.8659071504094668 -0.3521039269874633
1262011 -0.8657369798462493 -0.3511852559435439
1266914 -0.8644746692552316 -0.3515734968331092
1271817 -0.8642204052415827 -0.3517188014169119
1276720 -0.8679980567733369 -0.3448183445568106
1281623 -0.8652122361414002 -0.34728450524464666
1286526 -0.8631337151647528 -0.3459641474097598
1291429 -0.8663680262522655 -0.34625446050771747
1296332 -0.8710706247571014 -0.34109103587782696
1301235 -0.8657647013848714 -0.3426608386269663
1306138 -0.8694161285269594 -0.3430693234296338
1311041 -0.8680344554217865 -0.33771999131464797
1315944 -0.8654265688623616 -0.3374746907146378
1320847 -0.866962873666073 -0.34080376662231304
1325750 -0.8706573977211992 -0.33976342689573197
1330653 -0.8693014637254197 -0.33901310939975937
1335556 -0.8709189359295829 -0.33692829603334684
1340459 -0.8703657495817937 -0.3367726754220042
1345362 -0.8689030199915193 -0.3367318888585167
1350265 -0.8684706573204682 -0.3358133280961463
1355168 -0.8734518171677218 -0.33112442581649076
1360071 -0.8725308918852724 -0.3337865527971083
1364974 -0.8729624761684409 -0.33107445909112126
1369877 -0.876834385828601 -0.33089146251656104
1374780 -0.872556673073554 -0.3307806894121142
1379683 -0.8774336296940632 -0.3269015108334773
1384586 -0.8750713529891176 -0.324168113875072
1389489 -0.8778911664996092 -0.3243560828646517
1394392 -0.8764196551984563 -0.3266842005260108
1399295 -0.8771216687070763 -0.3253374105670013
1404198 -0.8806290598912697 -0.3233987778854168
1409101 -0.8782465958864715 -0.3230376432614898
1414004 -0.8823405370080392 -0.32161914765894006
1418907 -0.8782294106571428 -0.32092753221891673
1423810 -0.8817186698616997 -0.3189271405020082
1428713 -0.8810734196717953 -0.3202015612824003
1433616 -0.8816693695904377 -0.3194467609285285
1438519 -0.8806759632130827 -0.31824030931688285
1443422 -0.8822646960827141 -0.31502112565648305
1448325 -0.883045627201211 -0.3155368020013409
1453228 -0.8829544831211023 -0.31423091697976213
1458131 -0.8834135209942493 -0.3152204207391617
1463034 -0.8857515684153361 -0.312788491964307
1467937 -0.8805255328340187 -0.3128980325481883
1472840 -0.8869371637331832 -0.31358836497321724
1477743 -0.8844926776321681 -0.3101948146275565
1482646 -0.884333334138027 -0.3096650088702657
1487549 -0.8859317303278672 -0.3122464175812015
1492452 -0.8847085749856022 -0.3048053638145283
1497355 -0.8865483719001676 -0.3087591119973329
1502258 -0.889996265352599 -0.30508628568966134
1507161 -0.8870301562875986 -0.3063276592893427
1512064 -0.8904840144126722 -0.3042351431747553
1516967 -0.8886940330466676 -0.3045766429031861
1521870 -0.8852922995855969 -0.30277672854947413
1526773 -0.8872735514160226 -0.3035412125794143
1531676 -0.8877748689066031 -0.2987076927707723
1536579 -0.8909401470794777 -0.30095751770919443
1541482 -0.8889271408002095 -0.30100209380668025
1546385 -0.8920553298297377 -0.2980188313315688
1551288 -0.8925734365127 -0.2981718005763191
1556191 -0.8897083971301726 -0.296235926688902
1561094 -0.889064239593197 -0.29794887429073463
1565997 -0.8922446507626073 -0.2955192302805502
1570900 -0.8938634907905881 -0.29835855952044876
1575803 -0.8929005785821325 -0.29487331780355286
1580706 -0.8919992419767218 -0.29639407760413977
1585609 -0.8946452228813986 -0.296852117120947
1590512 -0.8922870042728667 -0.2914713632188307
1595415 -0.8941251506485269 -0.2916679092205321
1600318 -0.8922337135703289 -0.2893664198986479
1605221 -0.8957963223780853 -0.2897183070166974
1610124 -0.8959816897889783 -0.2881376556378642
1615027 -0.8928092882700068 -0.2884314554961427
1619930 -0.8911844514077811 -0.28838620450414687
1624833 -0.8943941893073483 -0.28671622573162553
1629736 -0.8978389794139235 -0.28653344850639156
1634639 -0.8956399456812834 -0.28568022813818245
1639542 -0.8983657924306552 -0.2865454726672424
1644445 -0.8982010281320396 -0.28582229750280835
1649348 -0.8952100060168718 -0.2855970159507973
1654251 -0.8985901985565801 -0.2822838325719276
1659154 -0.8983730959576481 -0.28078840939623456
1664057 -0.901376671715313 -0.2802338447950313
1668960 -0.8981743080248662 -0.27862793988657525
1673863 -0.896629080316762 -0.28332362554318563
1678766 -0.8965999009404323 -0.2841134717198113
1683669 -0.902285050088579 -0.2804572491306769
1688572 -0.9005151969894505 -0.27953355576007627
1693475 -0.9030518912273341 -0.27787586400847103
1698378 -0.8977361039224991 -0.2765390777976334
1703281 -0.9004721160150087 -0.2733742652163274
1708184 -0.9025584636078912 -0.27937218112207557
1713087 -0.9013777445771483 -0.27435807289232406
1717990 -0.9042468877607657 -0.2767286389018385
1722893 -0.9014662711702168 -0.27355549461919526
1727796 -0.900964221894113 -0.27201514484383377
1732699 -0.8988464364683942 -0.2713339494596235
1737602 -0.9056145237576413 -0.27332748145806807
1742505 -0.901589400989648 -0.27140714914523817
1747408 -0.9041760473042343 -0.2698509748398978
1752311 -0.9021130309865956 -0.27144888438295744
1757214 -0.9058595775987358 -0.27130783531797237
1762117 -0.9022322298647186 -0.2715884429989623
1767020 -0.9024999473801337 -0.2673266409930956
1771923 -0.9060940120246936 -0.26758975613804165
1776826 -0.9051727535608649 -0.2691531348814149
1781729 -0.9071874266043223 -0.2651812154704491
1786632 -0.9013889575483829 -0.26398702149941755
1791535 -0.9039749379555465 -0.265271715175282
1796438 -0.9040417391794618 -0.26658180728062814
1801341 -0.9052186506745742 -0.26559827670840985
1806244 -0.9049615201936184 -0.2608815182785181
1811147 -0.907886170272198 -0.25786525470575977
1816050 -0.9087070615077849 -0.25609071120482413
1820953 -0.9067952955507407 -0.2620559397828186
1825856 -0.9083678910277357 -0.2586831406870107
1830759 -0.9084462713116781 -0.2630017700300616
1835662 -0.9072388123721058 -0.2581255167253534
1840565 -0.9071252662657517 -0.2607108737686728
1845468 -0.908748354060885 -0.2571012766455292
1850371 -0.9091506355995251 -0.25755106172456754
1855274 -0.9086743221174806 -0.25988986740892905
1860177 -0.9053191575803443 -0.25949234528492854
1865080 -0.9085102976609195 -0.2545129141103047
1869983 -0.9056924339410521 -0.2607204877369442
1874886 -0.907442455780785 -0.25673884475035674
1879789 -0.9102267009896081 -0.2568639923390733
1884692 -0.9101179173249037 -0.2531049704344596
1889595 -0.9101565098375968 -0.25197354717135384
1894498 -0.908700434053049 -0.2517173707287466
1899401 -0.9118094763550736 -0.25354962925668445
1904304 -0.9111329192280944 -0.2536232112008427
1909207 -0.914380776694281 -0.25380489319165944
1914110 -0.9089974368708902 -0.25189823022194063
1919013 -0.9123602976153624 -0.24868313029631214
1923916 -0.9126554249836006 -0.2494777821885257
1928819 -0.9125058946371465 -0.246971917751311
1933722 -0.9125175485509941 -0.24663434340057377
1938625 -0.9142871749036567 -0.24619970999049806
1943528 -0.9120182430973793 -0.2489851466485583
1948431 -0.9111586844625261 -0.24673280558610816
1953334 -0.9152551174435147 -0.24662000417056554
1958237 -0.9113198990965079 -0.2476518452186759
1963140 -0.9135283416893711 -0.2483444278540472
1968043 -0.9115376874474957 -0.24845294905794754
1972946 -0.9137012045241535 -0.2460758949204269
1977849 -0.9143467770686572 -0.2472883253256894
1982752 -0.9110916709887366 -0.24584415434942594
1987655 -0.9157906121014278 -0.24199584456202547
1992558 -0.9151653723176046 -0.24345941504435775
1997461 -0.9131552618995542 -0.24550544749567277
2002364 -0.9145214829244424 -0.24419229638344908
2007267 -0.9128453970639656 -0.23886272412654355
2012170 -0.9152639324827185 -0.24139438550310144
2017073 -0.9129366867796275 -0.24372920054515165
2021976 -0.9155867564511584 -0.2426341359800361
2026879 -0.9161100391733804 -0.241998135821154
2031782 -0.9174092315606027 -0.23580472940789107
2036685 -0.9169929298638468 -0.23961003313718846
2041588 -0.916254266896117 -0.2399528605281133
2046491 -0.9215921659577906 -0.23726287024507647
2051394 -0.9148440177935472 -0.236862333387486
2056297 -0.9180123616034491 -0.23743623369456637
2061200 -0.9153354566259494 -0.23738367747365957
2066103 -0.91887141124462 -0.23424260562975474
2071006 -0.9198151772624199 -0.23640629699231
2075909 -0.9177583320409799 -0.23425468057627483
2080812 -0.9137654212375492 -0.23583835872713027
2085715 -0.9161335116584686 -0.23467216647471958
2090618 -0.9188873531198484 -0.2361238451068745
2095521 -0.9180863270880948 -0.23009027488769587
2100424 -0.9155479640005594 -0.23346670805902317
2105327 -0.9186059818140173 -0.2332246604198007
