# HZ S RI R 50
100000 0.546654473857099 -0.7021856889651489
104903 0.5188694021585646 -0.7193829624841124
109806 0.49122138064056386 -0.7358201729033742
114709 0.45633220515651346 -0.7526071754260081
119612 0.42754017609158135 -0.76405907551373
124515 0.39786736444234716 -0.7771793837319114
129418 0.3669156064364544 -0.790111637134362
134321 0.3340649343327385 -0.7970819070132086
139224 0.30228656335898435 -0.8072775578968947
144127 0.26954614710567615 -0.8135997497965453
149030 0.23266169081270563 -0.8146151861405047
153933 0.19848324298822634 -0.8148154221393475
158836 0.16128316921359598 -0.8166698511753413
163739 0.12178857284688997 -0.808421850901333
168642 0.08758443200893938 -0.7887754751126059
173545 0.05682105537824544 -0.7774620206853867
178448 0.024821418467671916 -0.7592552415121185
183351 -0.010130098147318781 -0.7328442473048684
188254 -0.03943660396890702 -0.6956820701733215
193157 -0.06274960810557083 -0.6526328049972808
198060 -0.08224434943951636 -0.5955386370433491
202963 -0.07029286985876212 -0.5104841519513221
207866 -0.014604130303855309 -0.4489750968670883
212769 0.07477230806547021 -0.3982171003757159
217672 0.19518252401593866 -0.4048764914586262
222575 0.30206591149971423 -0.5005220860482832
227478 0.31424607998772863 -0.6185464889368778
232381 0.2788133870987338 -0.697167845385488
237284 0.2385279295442326 -0.7452803912391113
242187 0.2002830928777603 -0.7779557621572938
247090 0.16656176292281794 -0.7960948184989146
251993 0.13942756434443657 -0.8191143907713165
256896 0.11225531976254234 -0.8317549796661207
261799 0.07962448462694698 -0.8450354161485201
266702 0.05063269338131563 -0.8518547414205739
271605 0.02161799348511807 -0.8550381002029462
276508 -0.002211808409233383 -0.8582418430759903
281411 -0.028783960232874793 -0.8612301742608579
286314 -0.05048486103429049 -0.8595211098705937
291217 -0.06833078589600354 -0.8549975275008249
296120 -0.08807516096016246 -0.8528771103611339
301023 -0.10511932703541431 -0.8459102778074893
305926 -0.12137232283541263 -0.8440120511644232
310829 -0.1298219856248635 -0.839530256001151
315732 -0.1415941839174425 -0.8407217742176029
320635 -0.15630876466089788 -0.8398716962728121
325538 -0.16722693464371247 -0.8414138873201542
330441 -0.18375414470547888 -0.8448161734111291
335344 -0.19842959686239026 -0.8437671045891109
340247 -0.21499795585721745 -0.8425182526651044
345150 -0.2270845247235135 -0.8408050238266603
350053 -0.2429114847856913 -0.8378632733442835
354956 -0.25459336903408214 -0.8323225255771363
359859 -0.2708115289673297 -0.8283229313405678
364762 -0.2804758772289018 -0.8276489094707089
369665 -0.2904021330873007 -0.8204881672145726
374568 -0.30423008791115863 -0.8190112576208851
379471 -0.3177751170445972 -0.814995086535257
384374 -0.32794459667559883 -0.8161450563897065
389277 -0.3360879588772069 -0.8052483410843713
394180 -0.3493095148994331 -0.8013790726770467
399083 -0.3571974088900767 -0.7984734070061135
403986 -0.3687646839220388 -0.7936266803892038
408889 -0.3749543392778997 -0.7927703359354269
413792 -0.3876143742350515 -0.7847695456104276
418695 -0.39679022927207824 -0.7817182349911707
423598 -0.40608259248658574 -0.7776091100313073
428501 -0.4165430852590433 -0.7725625450650209
433404 -0.42146716063767786 -0.7690982092312247
438307 -0.4337326274429129 -0.7641263134019232
443210 -0.43851929728903355 -0.7623398775547237
448113 -0.4465076959353355 -0.755511195359869
453016 -0.4542658748784544 -0.7515939921426208
457919 -0.46207177625394646 -0.7467040772000855
462822 -0.47102846527494796 -0.7416753934464614
467725 -0.4785886758173964 -0.7353594547041947
472628 -0.487661236325399 -0.731744722250878
477531 -0.49456039472367885 -0.7285704681828762
482434 -0.49979124330285446 -0.7181994605851281
487337 -0.506337276518943 -0.718986113189128
492240 -0.513957095502458 -0.7100100999102861
497143 -0.5208181560571609 -0.7059149344550939
502046 -0.5249625704791738 -0.6978337402242357
506949 -0.5304299547629368 -0.6961625269891364
511852 -0.5362876501906864 -0.6873354430936753
516755 -0.5474549528379672 -0.6817585318140288
521658 -0.5515774757662443 -0.6798048947941349
526561 -0.5568305844915253 -0.6658079631886823
531464 -0.5630258732320269 -0.6596009436205591
536367 -0.5725977780010361 -0.6499823147157519
541270 -0.5728136146620582 -0.63720124858996
546173 -0.5770720353605919 -0.6272682285084109
551076 -0.5808041251491448 -0.6138858719555581
555979 -0.5777184982226473 -0.5955452782087661
560882 -0.5687117709426545 -0.580215145600757
565785 -0.555662590241688 -0.5627043811337785
570688 -0.5343436804228955 -0.554282732293244
575591 -0.5031539440493035 -0.5605242830367804
580494 -0.4816798420692319 -0.579875963527466
585397 -0.47395894945526684 -0.6072186633552512
590300 -0.48029444400338595 -0.6311754177938299
595203 -0.4967490438004317 -0.6515024432703348
600106 -0.5077676079707166 -0.6624634337689955
605009 -0.5259382796936423 -0.6679580875687234
609912 -0.5391589088165935 -0.6701485709525639
614815 -0.5523117017204696 -0.670718353725175
619718 -0.561614824197598 -0.6699755612722773
624621 -0.5743552356784655 -0.6668391922440129
629524 -0.584389121190106 -0.6648631683414414
634427 -0.5921329751325829 -0.6606787099998624
639330 -0.6013761824923307 -0.657999984599127
644233 -0.610067542627468 -0.65268619527187
649136 -0.6132168132609773 -0.649147007809422
654039 -0.6202315485911643 -0.6422710112748184
658942 -0.6320450956519598 -0.6411214739512933
663845 -0.6315125210415556 -0.635366753193634
668748 -0.6368430917604642 -0.630795120842452
673651 -0.639807494670834 -0.6268434603964643
678554 -0.6452513504972083 -0.6222378968469048
683457 -0.6465081781527825 -0.6201473444114468
688360 -0.651086897481419 -0.6157422270336625
693263 -0.6602468085712722 -0.6142504077265766
698166 -0.6602312386804478 -0.6099302604345432
703069 -0.6631742344105543 -0.6069902805754669
707972 -0.6650593240366646 -0.6047917370426041
712875 -0.6671674493930226 -0.6022453969819358
717778 -0.6750212422044329 -0.6017509269185454
722681 -0.6794337116277089 -0.5975166756680865
727584 -0.6823426632395501 -0.5927839712981677
732487 -0.6876050594778187 -0.5889282403547107
737390 -0.6909713723557075 -0.5829126836251731
742293 -0.6926213408323361 -0.5807176914706034
747196 -0.6948621912458881 -0.5755085001079319
752099 -0.6992287836866087 -0.576978607244985
757002 -0.7028180024382381 -0.5732585616094568
761905 -0.7051797303380808 -0.5690868209040912
766808 -0.7037790515866951 -0.5687870602224527
771711 -0.7106199620219906 -0.5665252845298847
776614 -0.7118547483630171 -0.5614381567658134
781517 -0.7160022203746926 -0.5571308674514682
786420 -0.7205132772051868 -0.5548694946533639
791323 -0.7221446588075434 -0.5531360513560903
796226 -0.7252945617801759 -0.5491891801665331
801129 -0.7259501495141587 -0.5456577953920679
806032 -0.7280651843394033 -0.5416926521933042
810935 -0.7321569768194897 -0.5398939666419478
815838 -0.7314818954298747 -0.5402917609601974
820741 -0.7333151679011572 -0.5340235173530877
825644 -0.7387934435484436 -0.5319540158746185
830547 -0.7396671044136311 -0.5276442022549065
835450 -0.7447726817988122 -0.5247383877467557
840353 -0.7391608236569587 -0.5207127788080781
845256 -0.7453526423268028 -0.519124802145014
850159 -0.74827846221262 -0.5149174901889535
855062 -0.7498678520545059 -0.5129548414365479
859965 -0.7512611628378553 -0.5102073991555865
864868 -0.7543659268822981 -0.507442080177534
869771 -0.7572197831736752 -0.5058405433831448
874674 -0.7579059362860048 -0.5017500618759642
879577 -0.7565460080345862 -0.4975693428397645
884480 -0.7583051131470073 -0.49188501472284024
889383 -0.7647180664537586 -0.4865596847900089
894286 -0.7633196648509184 -0.4867187723714842
899189 -0.7654429368724358 -0.4809676475252874
904092 -0.7645923857361796 -0.4738916929497857
908995 -0.7656197774573302 -0.4695417391328108
913898 -0.7655691090438261 -0.46561460773915486
918801 -0.7626863812285181 -0.4587015181307988
923704 -0.7562145695656595 -0.4527364983747946
928607 -0.7515693614612827 -0.45301815798895484
933510 -0.7428607879472447 -0.4528782923678574
938413 -0.7369080959641577 -0.45270891705763006
943316 -0.730961080370522 -0.4617482685606195
948219 -0.7335253335374271 -0.4723695709881552
953122 -0.7390946772275855 -0.47705369247310986
958025 -0.7366815165369022 -0.4805169031697879
962928 -0.7484567988119846 -0.4841451701683343
967831 -0.7555308983228947 -0.4843215883170738
972734 -0.7574547971690093 -0.4831371927896026
977637 -0.7615916730087136 -0.4825822476149866
982540 -0.7654149310416279 -0.477407501124301
987443 -0.7729470916753125 -0.47920218384797725
992346 -0.7723583868534984 -0.4758529260463295
997249 -0.7769156374869585 -0.4763241653792754
1002152 -0.775747298966514 -0.47355023807133984
1007055 -0.7814229000877092 -0.47168202697341366
1011958 -0.784208379519282 -0.4686464424326257
1016861 -0.7867218415619144 -0.4659462261658951
1021764 -0.7916751582147266 -0.4644047851520256
1026667 -0.788865449211898 -0.46035901555397507
1031570 -0.7953028631234099 -0.45922965350013606
1036473 -0.7925598874200906 -0.4541250846317897
1041376 -0.7993339340091006 -0.4564136452760699
1046279 -0.7977146573898205 -0.4518828734009463
1051182 -0.8002302208625388 -0.45253680783392086
1056085 -0.8043634775402265 -0.4465637258190114
1060988 -0.8041653344471115 -0.4507337438685296
1065891 -0.8046526582861607 -0.4453598135945435
1070794 -0.8068754965834475 -0.44301349733684087
1075697 -0.808288133714258 -0.44130784772699355
1080600 -0.8113376064042435 -0.43890373548541656
1085503 -0.8088955542151208 -0.4352638642337009
1090406 -0.8128932024504258 -0.43523499197555887
1095309 -0.8127937513785172 -0.4330020464298553
1100212 -0.8154108760818153 -0.43525374558743035
1105115 -0.8177480183513138 -0.42643186703887964
1110018 -0.8170410062321236 -0.43055979030901664
1114921 -0.8186273121984355 -0.42176033240070665
1119824 -0.8180566162834312 -0.42575319451159704
1124727 -0.8205140539784174 -0.4212363251433278
1129630 -0.8232802317701275 -0.4154597041992111
1134533 -0.8260376582380264 -0.41417553451027533
1139436 -0.8248506845365403 -0.4149614772153614
1144339 -0.8223534405641645 -0.411165217144148
1149242 -0.8270621622104539 -0.41099244127194723
1154145 -0.8286782667222454 -0.40903877240425884
1159048 -0.830273631488803 -0.41027939341395114
1163951 -0.8320254078829925 -0.40534924791300403
1168854 -0.8294062206596597 -0.40488972472350965
1173757 -0.8315053373242014 -0.399065135614257
1178660 -0.8344450896786334 -0.39733817801017746
1183563 -0.8325964534908823 -0.39864661664254003
1188466 -0.8331440758176991 -0.3927985206601239
1193369 -0.8352478184554255 -0.397753750350805
1198272 -0.836567843145964 -0.3917082925180122
1203175 -0.836899406003295 -0.3904770710961088
1208078 -0.8382551989169551 -0.3844094709684904
1212981 -0.8376926805071095 -0.38540830988788205
1217884 -0.8367582599777516 -0.3821641107808633
1222787 -0.8399321517774473 -0.3789531062790323
1227690 -0.8381495348151888 -0.37681122410627244
1232593 -0.8403720965665872 -0.37828760019565555
1237496 -0.837146463262904 -0.3749278571027477
1242399 -0.8398607577605954 -0.3726112377585793
1247302 -0.839187737848191 -0.3702317896567336
1252205 -0.8378875889910551 -0.3662832189907943
1257108 -0.8387268736462384 -0.3631985737059955
1262011 -0.8348126120520429 -0.36463643495140124
1266914 -0.8362572010187184 -0.3620102177979834
1271817 -0.830987857389322 -0.3649723784605691
1276720 -0.829709081264139 -0.3632631762242535
1281623 -0.8267878058400008 -0.363974864498197
1286526 -0.8240704477791885 -0.3660693553100606
1291429 -0.827132112598514 -0.3689127958607364
1296332 -0.8301766604950045 -0.37009471699898855
1301235 -0.8316954460115153 -0.3715230448714001
1306138 -0.8377475844256209 -0.3751634659708637
1311041 -0.8372001590039488 -0.3699492854466662
1315944 -0.8383187485373494 -0.3684540702503137
1320847 -0.8391996317917125 -0.37134891882993465
1325750 -0.8428630547663677 -0.3695218616527864
1330653 -0.843117077171306 -0.36721311969663817
1335556 -0.8495217814720509 -0.36368765362865196
1340459 -0.84778988588169 -0.36810256646168116
1345362 -0.8511884407540801 -0.3632485557020124
1350265 -0.8472865614329738 -0.3627125100778489
1355168 -0.85304900313935 -0.3595681965219926
1360071 -0.8574461050315154 -0.3609717193631384
1364974 -0.8548977411076474 -0.3569757180323308
1369877 -0.8565061791712829 -0.35622172186575013
1374780 -0.8541190701841047 -0.35329522081449877
1379683 -0.8611348154800826 -0.35452972586808235
1384586 -0.8577464582961115 -0.35210545797885706
1389489 -0.8617203908704892 -0.35082813712673233
1394392 -0.8577512187894532 -0.34978285114106444
1399295 -0.8595226270920895 -0.34929491010303876
1404198 -0.8621548591649779 -0.3474421425653813
1409101 -0.8626957091786687 -0.34484194258625395
1414004 -0.8646049557604523 -0.3437945491380921
1418907 -0.8625855392579322 -0.3413502495980779
1423810 -0.8668736822646564 -0.33953100004722314
1428713 -0.8661863368686075 -0.33709873748612484
1433616 -0.8646177362957337 -0.33952763370503464
1438519 -0.865945810144966 -0.33464020255603644
1443422 -0.8672477204515758 -0.3354644623151824
1448325 -0.8661509276696856 -0.3307109333656833
1453228 -0.8656549604159721 -0.33313087445629386
1458131 -0.8688277980322207 -0.33451479144178564
1463034 -0.870981390756617 -0.32865607459731244
1467937 -0.8678242858125765 -0.32383413095133234
1472840 -0.8675139955764573 -0.3272845054380518
1477743 -0.8686883122031359 -0.3255745294002246
1482646 -0.8718566897950514 -0.3223773226334558
1487549 -0.8702968757945467 -0.32204947453932997
1492452 -0.871735363502775 -0.3174871740573378
1497355 -0.8718141565995698 -0.31830677096418974
1502258 -0.8742617523581044 -0.31698076354157223
1507161 -0.8722345652542327 -0.3158713664710433
1512064 -0.873008678682821 -0.31647943299318265
1516967 -0.8751182154297426 -0.3121831934741366
1521870 -0.8703856214126765 -0.31233230247219135
1526773 -0.8715667360589201 -0.3098787684347726
1531676 -0.8699945038952518 -0.3057131270634978
1536579 -0.871945549634059 -0.3054328685092565
1541482 -0.8698400195108569 -0.30530253612463126
1546385 -0.8708611429952029 -0.30179433392853205
1551288 -0.8686470199176417 -0.30152140879526745
1556191 -0.8656631391740517 -0.3007059200358363
1561094 -0.864833452741912 -0.30301763715419705
1565997 -0.8653782994846948 -0.3059348382565662
1570900 -0.8681382697677076 -0.3058435301839374
1575803 -0.866011523346572 -0.30840173674651117
1580706 -0.8654313729415354 -0.3082113472908471
1585609 -0.8675303397663963 -0.30810477208407955
1590512 -0.865889042027636 -0.30764155274536886
1595415 -0.8739500775118257 -0.3108627428295727
1600318 -0.8724788313702301 -0.3088159253512103
1605221 -0.8767868735567061 -0.30244142611665575
1610124 -0.8809412557549173 -0.3054205019102394
1615027 -0.8770099899136191 -0.3038533903604021
1619930 -0.8794304316735206 -0.30267129868159215
1624833 -0.8795641822133315 -0.30273407164426264
1629736 -0.8818324962532348 -0.3012458159993063
1634639 -0.8828963723970277 -0.294385782840932
1639542 -0.8833083230676622 -0.2965409138569447
1644445 -0.8851116570864954 -0.29670674419158644
1649348 -0.8844439107872049 -0.29373401018722034
1654251 -0.8848387302131522 -0.2954049900785474
1659154 -0.8857928107368661 -0.2891878640792358
1664057 -0.8853080691246034 -0.28694636217488456
1668960 -0.889199969946858 -0.28835184516318385
1673863 -0.8852615297360145 -0.28943018893047845
1678766 -0.8868448638920546 -0.28645584823245834
1683669 -0.8893540663458925 -0.2852857927536156
1688572 -0.8876268284531305 -0.2852733720864308
1693475 -0.8886246047020873 -0.28065532802625703
1698378 -0.8877396982540114 -0.2806525353278018
1703281 -0.8857584567634726 -0.2802363220678361
1708184 -0.8883859605342762 -0.27881991340497
1713087 -0.8865279898920729 -0.27613074326896475
1717990 -0.889315403413281 -0.2769795444295952
1722893 -0.8862597978804019 -0.27502429370979653
1727796 -0.8906275580448695 -0.2699162471439818
1732699 -0.8853920795089909 -0.26888013647743414
1737602 -0.889845536034788 -0.26866628413553995
1742505 -0.8878298523268413 -0.26871670393452285
1747408 -0.888189558974194 -0.26360638732482095
1752311 -0.8846530664184049 -0.2688113784797282
1757214 -0.8874894505178806 -0.2651918543231391
1762117 -0.8854324484405252 -0.2679339043915142
1767020 -0.8820522142158753 -0.2659964118161761
1771923 -0.8825866412853899 -0.26301890826286256
1776826 -0.8843391214017939 -0.26869474414692746
1781729 -0.8865197260929543 -0.2678196584914878
1786632 -0.8817517021940136 -0.26241761243596223
1791535 -0.888519273079845 -0.2648275217485228
1796438 -0.8864119846882368 -0.2712949918604137
1801341 -0.8872073067025442 -0.26366512329580893
1806244 -0.8877302496188801 -0.26080879120379613
1811147 -0.8894470152414883 -0.26076064662896536
1816050 -0.8928560182362899 -0.26363115788961106
1820953 -0.8915676274312048 -0.2649548346477583
1825856 -0.8892192900070018 -0.2601002313987849
1830759 -0.8914149300574531 -0.2599673373601902
1835662 -0.8863228336123137 -0.25863941751612357
1840565 -0.8934749149980085 -0.25599347409933493
1845468 -0.8941418510538486 -0.2539106848897731
1850371 -0.8935772560746844 -0.25240842281312953
1855274 -0.8882013223140378 -0.25377544788020023
1860177 -0.8898644449179095 -0.25335801539857555
1865080 -0.8928198681725814 -0.25090880777389585
1869983 -0.8904034002389145 -0.25636045588463635
1874886 -0.8890948774893729 -0.25451492631827566
1879789 -0.8917097436082131 -0.24958552258119218
1884692 -0.8918625723136715 -0.24908022934204072
1889595 -0.8924131202920746 -0.24908536520788263
1894498 -0.8881836066901635 -0.24648435022320436
1899401 -0.8920534300234122 -0.24628227113715603
1904304 -0.8923885492107521 -0.24781015701058703
1909207 -0.8911955537484415 -0.24833071002996152
1914110 -0.8896328004097346 -0.2455257404052659
1919013 -0.8945611022884822 -0.24685306598902432
1923916 -0.891647805990115 -0.2461301975804846
1928819 -0.8931687082134302 -0.2450192909075793
1933722 -0.892883070454945 -0.24523075978521702
1938625 -0.8933679375186262 -0.2458803517734239
1943528 -0.8953128443862474 -0.24745626949205005
1948431 -0.8931524724146049 -0.24488445680647025
1953334 -0.8991522709837028 -0.2455975805906204
1958237 -0.8962364961803374 -0.24264665265656654
1963140 -0.9010670475503035 -0.24463137202311727
1968043 -0.8981744341403772 -0.24362388534854107
1972946 -0.9007748256035403 -0.24000240809123893
1977849 -0.9032721780924956 -0.24079129452270365
1982752 -0.8990972652944155 -0.24321402226701305
1987655 -0.9000644645648542 -0.23740858901526837
1992558 -0.9051243969182974 -0.23756494704989684
1997461 -0.9050260984847831 -0.23594180042916887
2002364 -0.9026002911643218 -0.23508716917002684
2007267 -0.9048374117194126 -0.23032388811660567
2012170 -0.9066622524828618 -0.2314705671813369
2017073 -0.9033245584614263 -0.23170451004142334
2021976 -0.906541022869622 -0.22840062112908407
2026879 -0.9075033876301671 -0.22935011359817326
2031782 -0.9058295180091925 -0.22404058942260088
2036685 -0.9069978227182619 -0.22657687494639267
2041588 -0.9049245049249652 -0.2226873620665383
2046491 -0.9082129412403231 -0.22365462821867388
2051394 -0.905991876279626 -0.22276833510854158
2056297 -0.9079520971379343 -0.22316585280227785
2061200 -0.9055707425076192 -0.22341644353069112
2066103 -0.9091812641794491 -0.21701336670115182
2071006 -0.9072590342003375 -0.22146459939348143
2075909 -0.9109812145882744 -0.220228041180741
2080812 -0.9038482485546566 -0.22025283990591338
2085715 -0.9112928271624207 -0.2169462600986817
2090618 -0.9067198689094381 -0.22011441725799827
2095521 -0.9084357699479734 -0.2154882527488622
2100424 -0.910201107836182 -0.21685033144917104
2105327 -0.9121202052741707 -0.213065765474889
