# HZ S RI R 50
100000 0.5356053985421704 -0.7191351674659823
104903 0.5073709633326198 -0.7352245751418609
109806 0.4793263164570194 -0.7502644419352824
114709 0.4483533800116094 -0.7653197682045969
119612 0.42468089147269794 -0.7788285365362603
124515 0.3970226112743333 -0.7882966966212962
129418 0.368073675282377 -0.802096517865658
134321 0.3410355830794196 -0.8091602933181288
139224 0.3146781535307928 -0.8198344765446516
144127 0.28366819695601503 -0.8299205236246833
149030 0.2582290378325953 -0.8317988700894232
153933 0.23234000479283523 -0.8368078694056715
158836 0.20863893343666934 -0.8429575549865477
163739 0.18077717590290357 -0.8455989505800743
168642 0.15725929992496795 -0.8440457977864452
173545 0.1306701371205856 -0.8449261762825899
178448 0.10762087601740282 -0.8439973964818367
183351 0.08166087744072029 -0.8401817174820829
188254 0.05664616417233025 -0.8343108055538365
193157 0.03182621273686897 -0.8270029419790691
198060 0.011758224963974433 -0.8144772818295204
202963 -0.009560056512526916 -0.7962084221993023
207866 -0.012837382153149675 -0.7751376502109709
212769 -0.007824778315679107 -0.7490892349203344
217672 0.018131230833186678 -0.7440571665764032
222575 0.04443013114673919 -0.7769190842337111
227478 0.03031715472479722 -0.8147017483856158
232381 0.0050959404927932534 -0.8339583732480805
237284 -0.01980318175303425 -0.8434741433675319
242187 -0.045641333351804765 -0.848863722060304
247090 -0.06563485041673599 -0.8490896940951506
251993 -0.08397263305480834 -0.8568972576012834
256896 -0.1024531810477704 -0.8533302223967681
261799 -0.12270764354303378 -0.8538924634252973
266702 -0.1424501414397199 -0.8542035678010031
271605 -0.16008091356360807 -0.8492180983646962
276508 -0.1753203534779653 -0.8438558283842016
281411 -0.1936734596830446 -0.8457115637164349
286314 -0.2062810281788357 -0.8422658696470406
291217 -0.21770910200775612 -0.8372381556639029
296120 -0.23280645539395914 -0.835663707124402
301023 -0.2454999452916452 -0.830578739894588
305926 -0.2594342399504696 -0.8240974861678971
310829 -0.26718965163584874 -0.823313901278421
315732 -0.2789869285287616 -0.8209422849492106
320635 -0.291545773192496 -0.818867118289939
325538 -0.30143323969175645 -0.8130023740948752
330441 -0.31329487159509406 -0.8131111862605921
335344 -0.32473891520398734 -0.8066537178902256
340247 -0.3380605792008087 -0.8060279008565348
345150 -0.34688608528207315 -0.8019023591536901
350053 -0.35924301181429996 -0.7985459147618162
354956 -0.36752031873503294 -0.7932231963531156
359859 -0.3777039984311752 -0.7898635536849288
364762 -0.3869286342397898 -0.7855874264614666
369665 -0.3953557024839651 -0.7807467179635696
374568 -0.4037137479710844 -0.7773674975615965
379471 -0.41597661922461293 -0.7731262007055757
384374 -0.4227234763081072 -0.7715916911060959
389277 -0.4295196811614589 -0.7667137662640823
394180 -0.4395689941898382 -0.7622017011086685
399083 -0.4482393901927579 -0.756495326592284
403986 -0.4546597211631496 -0.750755857331143
408889 -0.4620119410253973 -0.7490761908549495
413792 -0.4695763417613774 -0.7448435130029097
418695 -0.4786177223056367 -0.7377884842992342
423598 -0.48501710345789834 -0.7380204455600266
428501 -0.4938077228833107 -0.729701218326013
433404 -0.49938173483796533 -0.7301935220655025
438307 -0.5066039447431591 -0.7217223602461423
443210 -0.5126277921704927 -0.721922742643718
448113 -0.5164693096399374 -0.7158286594760157
453016 -0.5241750605109702 -0.7128686055930811
457919 -0.5282809201987962 -0.7081967969797569
462822 -0.5365757652472797 -0.7029217749647682
467725 -0.5417564920157479 -0.7002017289251413
472628 -0.5472017946224152 -0.695724013859895
477531 -0.553831210455037 -0.691078104475463
482434 -0.558490310211693 -0.6866498339057047
487337 -0.5655859495467935 -0.6867984276349314
492240 -0.5683188162069254 -0.6780489962923277
497143 -0.575206465935265 -0.6755572543176768
502046 -0.5769374141220854 -0.670477799657055
506949 -0.5823309183658737 -0.6689408163197409
511852 -0.5838448564968066 -0.6638589009596999
516755 -0.5937269397003669 -0.6599182160391941
521658 -0.6000178204725927 -0.6606586518979755
526561 -0.5994843123464211 -0.6540823572837335
531464 -0.6073719181401982 -0.6505323538476199
536367 -0.6129086183682781 -0.6461238380934851
541270 -0.614306846086816 -0.6411945458268924
546173 -0.6195327403866057 -0.6404702253713687
551076 -0.6248713853081592 -0.6327099977590321
555979 -0.6291990180012289 -0.627301253343432
560882 -0.6312290534430546 -0.6237659453435145
565785 -0.6360824679292997 -0.6141977259401232
570688 -0.6414057331154579 -0.6081617463903655
575591 -0.6398358263331548 -0.6064641588699307
580494 -0.6337160872122531 -0.5962308228415419
585397 -0.6296186501638211 -0.598364190282131
590300 -0.6277267833158752 -0.6009555462391778
595203 -0.6361139346849125 -0.6061124179650587
600106 -0.6361327904781787 -0.6064774726170795
605009 -0.6429751922623493 -0.6083309315433663
609912 -0.6489819564650814 -0.6080313798438254
614815 -0.6517739068255425 -0.6070061530691347
619718 -0.6602100370261795 -0.6013665613448236
624621 -0.6622721890659677 -0.6006190500147992
629524 -0.6677582289432155 -0.5977673167947876
634427 -0.6731560949234309 -0.5942703167622552
639330 -0.6786986600414531 -0.5952578690526322
644233 -0.68249028634264 -0.5877943948648992
649136 -0.6846364854587498 -0.5876347131433748
654039 -0.6896072664770726 -0.5829324123633013
658942 -0.6973284977633738 -0.579857152591545
663845 -0.6957102828220801 -0.5806714236469892
668748 -0.6974094516532904 -0.5734627325997083
673651 -0.6999957722139557 -0.5695123960942474
678554 -0.7057364699204615 -0.5661093656758769
683457 -0.7077755417866318 -0.5670564336178844
688360 -0.7060009188649172 -0.559144504169824
693263 -0.716159975749085 -0.5613720051757128
698166 -0.7166732953471123 -0.5578789957578207
703069 -0.7188289400319723 -0.5537233575575913
707972 -0.721886696659662 -0.5562044452633232
712875 -0.7253058350412807 -0.5477732822315426
717778 -0.730249060272982 -0.5461508956810663
722681 -0.7303583059506641 -0.5383461565419493
727584 -0.7318755064332642 -0.5398262088252876
732487 -0.7324070808867176 -0.5381366643905665
737390 -0.7361079793036742 -0.5319647231978517
742293 -0.7384056561209806 -0.5330646487867063
747196 -0.7442487605047169 -0.5276377759984708
752099 -0.7421957498273599 -0.5258706462204225
757002 -0.7481172486350418 -0.5252048243043973
761905 -0.7473416418705705 -0.5204646583594865
766808 -0.7460625174533655 -0.5204489861911868
771711 -0.7506191501850198 -0.5157722692075151
776614 -0.7538055472540792 -0.5121792328478931
781517 -0.755066696284964 -0.512306161006771
786420 -0.758550772338625 -0.5081296597701317
791323 -0.762918560541109 -0.5082716010515206
796226 -0.7628910228622982 -0.5062042919555388
801129 -0.7640170225320335 -0.5021751897280691
806032 -0.7661563573806046 -0.499177050693582
810935 -0.7709206101339363 -0.4984390647474205
815838 -0.7694444944460892 -0.5011879959075248
820741 -0.7666714064365666 -0.49459037641519255
825644 -0.7734424387072374 -0.49262940361259505
830547 -0.7715682434245116 -0.48924483359542315
835450 -0.7780926193498724 -0.48537336318677343
840353 -0.7715166842802681 -0.48509517551017844
845256 -0.7771711474946259 -0.4816593413304501
850159 -0.7808943483236244 -0.4826533482865015
855062 -0.7801935414139237 -0.4790062327841141
859965 -0.7852293485881595 -0.477384385648253
864868 -0.7861025960730267 -0.4752126356939075
869771 -0.7883518616785732 -0.47317462411473393
874674 -0.7866261328888537 -0.4701936319277951
879577 -0.78729478897099 -0.46790415225094156
884480 -0.7891392913179106 -0.46555928779816835
889383 -0.7924329419300543 -0.4633638283149062
894286 -0.7939123714175335 -0.4624076517272517
899189 -0.7938901052324574 -0.46018114961765083
904092 -0.7957462633842095 -0.45751152065079576
908995 -0.797053033983776 -0.45255957447124295
913898 -0.8002406747038389 -0.4554339221020971
918801 -0.7982554334495138 -0.448495396316869
923704 -0.7987957498984749 -0.4444945354384668
928607 -0.800306613694099 -0.4466248893813879
933510 -0.8031947313622435 -0.44437747700081126
938413 -0.8014008478063164 -0.4390875337737767
943316 -0.8023510853714143 -0.43673545277535625
948219 -0.8061404129396063 -0.4399609596887648
953122 -0.8042858715537803 -0.4364712744534991
958025 -0.8005122821067582 -0.43431852232952484
962928 -0.8038557663323435 -0.4354792804809158
967831 -0.8073209503850121 -0.43432605886883047
972734 -0.8076489549835152 -0.434847029199735
977637 -0.8036613773799355 -0.4337781975749503
982540 -0.8076469746471149 -0.4320508820516478
987443 -0.8114672053359581 -0.43073529074553274
992346 -0.8140544469823023 -0.43117159807203354
997249 -0.814507811484461 -0.43015813908528133
1002152 -0.814382218467419 -0.42602527511206884
1007055 -0.8168057334315098 -0.4266086683768465
1011958 -0.819779803508594 -0.4268061559009132
1016861 -0.8216536916494569 -0.42351172406912696
1021764 -0.8206228563281959 -0.4226339578926034
1026667 -0.8227139306542893 -0.41699664472679787
1031570 -0.8270454628872514 -0.4178172038170328
1036473 -0.8223204724838866 -0.41502487705537233
1041376 -0.8297677636922546 -0.4155419752179747
1046279 -0.8273112558931464 -0.41392354220782296
1051182 -0.827989930016386 -0.4127577626625083
1056085 -0.8306887462229056 -0.41199200991286034
1060988 -0.8295180975589168 -0.4103752779599228
1065891 -0.836147819691212 -0.4061390560912316
1070794 -0.8343148658477554 -0.40561947184779895
1075697 -0.8360886747342193 -0.4047036706542344
1080600 -0.836265567700651 -0.4027265561726265
1085503 -0.8375197384354794 -0.4004105942548884
1090406 -0.8376584049435312 -0.3969454118919215
1095309 -0.8404538553437667 -0.3993630128673876
1100212 -0.8412992562866888 -0.3989680741468793
1105115 -0.8402169059492037 -0.3941356732282064
1110018 -0.8389697504363393 -0.39290192977981436
1114921 -0.841985107348628 -0.38870924934339995
1119824 -0.8418619738541311 -0.3930387303699639
1124727 -0.8439570698686889 -0.38671206194458146
1129630 -0.8435487197782279 -0.3835531684331903
1134533 -0.8465636381161795 -0.38570926537870426
1139436 -0.8447771932125442 -0.3886017073165665
1144339 -0.8454278718565571 -0.38146128177129585
1149242 -0.8475154466767654 -0.38251617580605635
1154145 -0.8478668830152556 -0.3799182854333772
1159048 -0.8490976160999204 -0.38315884519497323
1163951 -0.85165003867683 -0.37700586860268764
1168854 -0.8492696998196522 -0.3779541379252574
1173757 -0.8497244235320123 -0.37452498856157784
1178660 -0.8524792510519458 -0.3718904687323648
1183563 -0.8498149223681787 -0.3755170144683413
1188466 -0.8511525438479858 -0.37187302206216916
1193369 -0.8552862603183718 -0.3709759802069434
1198272 -0.8548898799045913 -0.3682560402411067
1203175 -0.8564406700335283 -0.3677056451040663
1208078 -0.854668859210333 -0.36396819623359733
1212981 -0.8560603724454527 -0.36349253187252445
1217884 -0.8565848435826892 -0.36478674134687605
1222787 -0.8589474257357094 -0.36117575653565026
1227690 -0.8566805194783734 -0.3570102236199093
1232593 -0.8593163499583598 -0.3612254519821218
1237496 -0.8581420616678075 -0.3613448585388671
1242399 -0.859856679648148 -0.35636220552442377
1247302 -0.8608061049692433 -0.35807697659407633
1252205 -0.8630793545037083 -0.3544442083454956
1257108 -0.8647019056603071 -0.3554420788218257
1262011 -0.8630865964514419 -0.3516889734020466
1266914 -0.8652302140918438 -0.34863482932398443
1271817 -0.8633640066100244 -0.3535611524896261
1276720 -0.8645131650451819 -0.34710729871861784
1281623 -0.8635387120925385 -0.3464908937755981
1286526 -0.8671514371698564 -0.3463354826577712
1291429 -0.8661833895207142 -0.3459816373652857
1296332 -0.8639220796765993 -0.3400182699122699
1301235 -0.8659445674364984 -0.34315266514036896
1306138 -0.8664044210003424 -0.34313592436597096
1311041 -0.8623700506993075 -0.3371190599570064
1315944 -0.8625922331566157 -0.33925038284940995
1320847 -0.8638458331039809 -0.3414438072360618
1325750 -0.8638569284571808 -0.34037909166049796
1330653 -0.864505300994363 -0.3380670278739079
1335556 -0.8678662780740122 -0.3397287622882669
1340459 -0.8689591415060473 -0.33940971060613895
1345362 -0.8686945436541827 -0.33755439552571737
1350265 -0.8688265332254441 -0.33603550712103986
1355168 -0.8713825819537768 -0.3332598587075382
1360071 -0.8731606225437865 -0.33284723923479675
1364974 -0.8728574348511564 -0.3343496409376817
1369877 -0.8740886174130827 -0.3325066995446295
1374780 -0.8728750054050419 -0.33097426609380537
1379683 -0.8788801267550511 -0.3286785697974188
1384586 -0.8747062280304316 -0.3312809836244457
1389489 -0.876693894805972 -0.32496533688928053
1394392 -0.8780640145054966 -0.32613874369223883
1399295 -0.8761523925999054 -0.32839938783177514
1404198 -0.8809648816286316 -0.326606818045874
1409101 -0.877854902102906 -0.32504752673921494
1414004 -0.8826249125794172 -0.3216461493722729
1418907 -0.8765863369941354 -0.32354634194815274
1423810 -0.8799301566374161 -0.3170996983105826
1428713 -0.8820977787915625 -0.3211638769989287
1433616 -0.8784694264038745 -0.32194020488315567
1438519 -0.8792373875303211 -0.31938104881859014
1443422 -0.8805204165049947 -0.31519067580610144
1448325 -0.8819899658728463 -0.3160509249135775
1453228 -0.8790125921198495 -0.3135653138703151
1458131 -0.8778086668614837 -0.3144957213237389
1463034 -0.885356941609703 -0.3140972205805551
1467937 -0.8815155323317189 -0.31116290529372054
1472840 -0.8827118909535548 -0.3093986906545349
1477743 -0.8822148357235031 -0.3091331651891378
1482646 -0.8853474766919932 -0.3078517402341664
1487549 -0.8851464939552703 -0.31007361830134844
1492452 -0.8853495632230646 -0.30777021931341003
1497355 -0.88762129375884 -0.30392628248156456
1502258 -0.886279862006317 -0.305369012574166
1507161 -0.8858843117198406 -0.30563839424311856
1512064 -0.8858186977192889 -0.3066268685066573
1516967 -0.8868128830626976 -0.30252505949888253
1521870 -0.8860423002835083 -0.3041789047183271
1526773 -0.8881785714533383 -0.30138094443791075
1531676 -0.8868442177879913 -0.30260873778446806
1536579 -0.8888881986802719 -0.29665395196328265
1541482 -0.887099891884888 -0.3028071346747985
1546385 -0.8891641956494312 -0.296864185939506
1551288 -0.8929487052578686 -0.2982219939537227
1556191 -0.8884888318983016 -0.2965139139394499
1561094 -0.8920356471053229 -0.2967481545035517
1565997 -0.8889402138618004 -0.2934806450529773
1570900 -0.894863730889483 -0.2946939504047358
1575803 -0.893234601766032 -0.296067090994165
1580706 -0.8902982617812024 -0.29392206440156027
1585609 -0.8910534073874199 -0.29195658445864886
1590512 -0.8907274495667384 -0.2882372120544295
1595415 -0.893178869756886 -0.29355254598206987
1600318 -0.8941343201635579 -0.28907363973920497
1605221 -0.8941101217699104 -0.2863341286040641
1610124 -0.8918730566173043 -0.286739068382747
1615027 -0.8910890352310783 -0.2892226600790845
1619930 -0.8895176658561471 -0.28921358303029904
1624833 -0.8908811215593652 -0.2874665289067418
1629736 -0.8942408748084933 -0.28636597018869236
1634639 -0.8955943479429992 -0.28305972357545583
1639542 -0.8928821733058743 -0.28462897997710424
1644445 -0.8966763702951032 -0.28413883560068104
1649348 -0.8941509427333265 -0.2817327093955404
1654251 -0.8977519803776253 -0.2865006573826523
1659154 -0.8956645960873747 -0.2806707095416122
1664057 -0.8968262021474769 -0.28152270406923163
1668960 -0.8978869953214226 -0.2812677999380847
1673863 -0.8995799663679176 -0.28401823490455375
1678766 -0.8983258741739176 -0.2780379528785275
1683669 -0.9007751219103718 -0.2804233838729119
1688572 -0.8963782886359876 -0.2805917055451557
1693475 -0.9019959266957743 -0.273786199035863
1698378 -0.8972648782364123 -0.27695443946907056
1703281 -0.8979702381853828 -0.27402167539689015
1708184 -0.8992421774157648 -0.27685490464406526
1713087 -0.9016186647224883 -0.2739861921104679
1717990 -0.8999962572933994 -0.2742963438657998
1722893 -0.9018628929205725 -0.27140640259388904
1727796 -0.9013704746980649 -0.2711780921061284
1732699 -0.8991287818114923 -0.2736233225393338
1737602 -0.9029907900966095 -0.27130057611711356
1742505 -0.9044450159939464 -0.2680221265667349
1747408 -0.9042631749974427 -0.26823754413206563
1752311 -0.9021963642171361 -0.26875496196537385
1757214 -0.9072222516292568 -0.2659850342711555
1762117 -0.9014402249952354 -0.2708456908672874
1767020 -0.9012751760038513 -0.2650924113184644
1771923 -0.9035989861368731 -0.26288170694241847
1776826 -0.907301029549133 -0.2666628710183711
1781729 -0.907003930747302 -0.2649132814824033
1786632 -0.9011221197271098 -0.2620074176637613
1791535 -0.9055023564600668 -0.2649343569073894
1796438 -0.9042606867268357 -0.2647277377086648
1801341 -0.9038835943296578 -0.26338008051751544
1806244 -0.9060062593672411 -0.25878082255742085
1811147 -0.9050152865056679 -0.2557307457391424
1816050 -0.9050111748797162 -0.25558882997658294
1820953 -0.907501832926947 -0.26093070704978766
1825856 -0.9040105359810656 -0.2570582105832155
1830759 -0.9054611223944511 -0.25859458957413295
1835662 -0.9012299074183777 -0.2542089349980163
1840565 -0.9065657293966907 -0.2562066320609035
1845468 -0.9067090214098769 -0.2558794471843324
1850371 -0.9062934733140264 -0.2551950725548944
1855274 -0.9066906789277944 -0.2548091942103716
1860177 -0.9023102831196065 -0.25648728307842267
1865080 -0.9075651572402238 -0.2535016057851773
1869983 -0.9058918067955585 -0.25590803268184875
1874886 -0.9082287399381334 -0.25788419820661845
1879789 -0.9067179567978442 -0.2546659451865748
1884692 -0.9068523203859048 -0.25436957265771193
1889595 -0.9071492650407943 -0.2495810516595523
1894498 -0.9071428819412762 -0.24724056245637224
1899401 -0.9109655182667834 -0.24987323468366032
1904304 -0.9118125057312274 -0.24778719250493433
1909207 -0.9137249021023058 -0.2492020164665207
1914110 -0.9104470705299569 -0.24689335631925724
1919013 -0.91127601758965 -0.24879981750145685
1923916 -0.9093764302754471 -0.24761561042330574
1928819 -0.9100886100793355 -0.24662421503180507
1933722 -0.9130629305758517 -0.2456095664568591
1938625 -0.9093219067250378 -0.24495970330740044
1943528 -0.9105459311141795 -0.24402224826734015
1948431 -0.9119300088556705 -0.2466776843538544
1953334 -0.9123490388121154 -0.2425127775400878
1958237 -0.9085231243910987 -0.24249472876760056
1963140 -0.9101725870429354 -0.243215994702932
1968043 -0.910476125371122 -0.24481729931318766
1972946 -0.9088726917054729 -0.2409803196262194
1977849 -0.9123538676770969 -0.24283234132276912
1982752 -0.908235902933426 -0.24131980579797122
1987655 -0.9106054037640684 -0.2395588224788755
1992558 -0.9112348640856196 -0.23900481963121703
1997461 -0.9105213596012833 -0.24147929264753465
2002364 -0.9100065030828228 -0.24358212484313865
2007267 -0.910134451528399 -0.2394579289664858
2012170 -0.9129329514178434 -0.2402396748804509
2017073 -0.9092205425911393 -0.24005081745528492
2021976 -0.9117276891120918 -0.23730439029555614
2026879 -0.9132761198742624 -0.23772753938972252
2031782 -0.9138538750576355 -0.2370366981988977
2036685 -0.9150211952487088 -0.2368290687835475
2041588 -0.9140350024215557 -0.23227036239320778
2046491 -0.9179539683811905 -0.23749695412259766
2051394 -0.9176874843538162 -0.23588673650835437
2056297 -0.9158195645485331 -0.23311235541117112
2061200 -0.9146893356581107 -0.2321400158900947
2066103 -0.9161605910159097 -0.22977241163415857
2071006 -0.9166599369998529 -0.2337331868955621
2075909 -0.9209055809388215 -0.2308991709351317
2080812 -0.9141673198440632 -0.2320329011077714
2085715 -0.9190066199206162 -0.2299914666651469
2090618 -0.9178589663270524 -0.2300288394255023
2095521 -0.9134849783800087 -0.2258270001431774
2100424 -0.9182874872477067 -0.2282217527819615
2105327 -0.9167629968486402 -0.2286391435605744
