# HZ S RI R 50
100000 0.5379434979150945 -0.7104157578214382
104903 0.5093274100265945 -0.7266529755367268
109806 0.48143407919540926 -0.7436293614381583
114709 0.4475197552884229 -0.7587382651111113
119612 0.4164889917363208 -0.771385558282154
124515 0.3933791744256448 -0.7824619800892993
129418 0.36017796816335906 -0.7955524823658878
134321 0.33109356123680206 -0.8023718149840333
139224 0.30129510672378074 -0.8132512660426962
144127 0.26925982740251364 -0.8192328272229343
149030 0.2346870545356993 -0.8223299216637396
153933 0.20299618877498066 -0.8241194625735521
158836 0.16999442417176244 -0.826433509389739
163739 0.13442858538738678 -0.8217721935145502
168642 0.10494518225263509 -0.8111481131599335
173545 0.07424458304188988 -0.8017036331333476
178448 0.045554731218276745 -0.7880282138895116
183351 0.012136559068463013 -0.7693854027821062
188254 -0.016434453206517995 -0.7421903074408659
193157 -0.04370815942968893 -0.7106524495633916
198060 -0.06380474609230076 -0.668511350274726
202963 -0.06654583223381959 -0.6021138542408806
207866 -0.028799449825828008 -0.5457655340839268
212769 0.036727081053828714 -0.4967947626901641
217672 0.13729425796118966 -0.4970225731738676
222575 0.22697662630380258 -0.5805538880364257
227478 0.22874968492282424 -0.6810876112978996
232381 0.19392726159046292 -0.7450422541333311
237284 0.15619605212504564 -0.7814124641873124
242187 0.11994108986485544 -0.8058451902707244
247090 0.08940703260975358 -0.8181792783965816
251993 0.06313679139811626 -0.8355165993924943
256896 0.0374737408412405 -0.841885700808693
261799 0.007841612363077071 -0.8513150495295471
266702 -0.01751388583179027 -0.8572544853547176
271605 -0.04379467920714619 -0.8571376528999103
276508 -0.06783047296103241 -0.8587648315895421
281411 -0.08915824092229155 -0.8577644687339524
286314 -0.1090306749180755 -0.8554171354301687
291217 -0.12436555167454656 -0.8493405556886746
296120 -0.14316329214536444 -0.8475469095281926
301023 -0.15816802760986043 -0.840851989214739
305926 -0.1742124156546308 -0.8366194458030604
310829 -0.18042849545383316 -0.833098631246726
315732 -0.19140775792568732 -0.8318098765920078
320635 -0.20548268881526457 -0.8337929822102771
325538 -0.21856236657509387 -0.8339868559096071
330441 -0.2306902845146803 -0.8347246557614931
335344 -0.24700580928635005 -0.8333627383740176
340247 -0.2624131727678522 -0.8315051598307086
345150 -0.2716537673931774 -0.8281682416912175
350053 -0.28886844258804495 -0.8244529835614737
354956 -0.2990465102822211 -0.8192280732585411
359859 -0.31264073371041795 -0.8169578661161027
364762 -0.3199986254181295 -0.81232689582504
369665 -0.33205262672470803 -0.806214462484915
374568 -0.34409428460603325 -0.8066518988809177
379471 -0.35655973009663317 -0.8009241177008845
384374 -0.36446409064076624 -0.8003817829669869
389277 -0.3734199605822397 -0.7929510917852434
394180 -0.3838164558507948 -0.7891742411611133
399083 -0.393334611454275 -0.7827622048452644
403986 -0.4020675014585466 -0.7784675064845418
408889 -0.41098401142621566 -0.7771324118075712
413792 -0.4201259635034017 -0.7709736811892717
418695 -0.43071982517305124 -0.7663364853493877
423598 -0.4377606529750809 -0.7628357241245198
428501 -0.44826713897004783 -0.7582069757973063
433404 -0.453377990977228 -0.7537650592170507
438307 -0.4630154626763652 -0.7460207518417247
443210 -0.4668174075457414 -0.7480335219454711
448113 -0.47412228936179573 -0.7415076095266765
453016 -0.4818149638752083 -0.738014334541588
457919 -0.4900657868576542 -0.7327706985945145
462822 -0.4982681896939887 -0.7277814948710268
467725 -0.5048731080161214 -0.721624766902064
472628 -0.5129367119497362 -0.7165896960244822
477531 -0.5186240890932734 -0.7140912884901324
482434 -0.5241172345230075 -0.7057241101104015
487337 -0.5315989590674067 -0.7069405678832019
492240 -0.5357973875417937 -0.6982663994327851
497143 -0.5428346433953943 -0.6951239788019086
502046 -0.5466777215557528 -0.6878114543836528
506949 -0.5547736233542198 -0.6842903675845144
511852 -0.5562655160708786 -0.6793550831801187
516755 -0.56602701654254 -0.67198172841269
521658 -0.5727016836179207 -0.6714220459903442
526561 -0.5747431118636066 -0.6620550014268196
531464 -0.5809702261522532 -0.6563544976718696
536367 -0.5896229837400355 -0.6474787946061605
541270 -0.5904253327154362 -0.638972263220809
546173 -0.5946978562244606 -0.6350626135929504
551076 -0.6005362532521267 -0.6217543608098826
555979 -0.6014249855189527 -0.6103566182954413
560882 -0.5974899182668647 -0.597568359420714
565785 -0.5920666006055801 -0.5839807888161278
570688 -0.5819533633505061 -0.5702610326017319
575591 -0.5630131258088731 -0.5679944718788897
580494 -0.540026114317121 -0.5745080788218443
585397 -0.5291902257793731 -0.5955753265985493
590300 -0.5339079375500597 -0.6161466192946952
595203 -0.5433539270292995 -0.6327326799586219
600106 -0.5558598349928562 -0.6400312666531945
605009 -0.5655608126937997 -0.6464848483887051
609912 -0.5781088107925265 -0.6478764944446779
614815 -0.5895619376805982 -0.6474353056929285
619718 -0.6000861234350227 -0.644693085258871
624621 -0.6084634416878812 -0.6438252483139789
629524 -0.6177949348407904 -0.6401735331516907
634427 -0.6241108874794664 -0.6376178764992749
639330 -0.6316286945671307 -0.6333096087122159
644233 -0.6397303982929599 -0.6297750039088896
649136 -0.6403905650424357 -0.6247581512724111
654039 -0.6484952466426448 -0.6206784935328797
658942 -0.6558084681483473 -0.6179808438333769
663845 -0.6591984877921084 -0.6152107476631998
668748 -0.6612501704743724 -0.6094744452286667
673651 -0.6655109204994891 -0.6053017951768136
678554 -0.6670200593534812 -0.6018439669959804
683457 -0.670961467440881 -0.600092424670774
688360 -0.6729289140519783 -0.5951475525756407
693263 -0.6810627533668514 -0.5918170707882333
698166 -0.6851806941810038 -0.5919302178284872
703069 -0.6833593337439744 -0.5864947460451754
707972 -0.6877653421047051 -0.5885871765791293
712875 -0.6906727674512085 -0.5820496955059254
717778 -0.7006928375403093 -0.581226617156921
722681 -0.6990223979386079 -0.574098468942811
727584 -0.703943419503832 -0.5710995971699149
732487 -0.7044999506204427 -0.5650989166011916
737390 -0.7081089196840472 -0.5648301872466694
742293 -0.712311729888328 -0.5647779491795092
747196 -0.715763545926116 -0.560192017990625
752099 -0.7206332629286494 -0.5558178452925138
757002 -0.7208074785140183 -0.5542563145274525
761905 -0.7250532067036195 -0.5516242245136883
766808 -0.7231454239045649 -0.5479693185022579
771711 -0.7285087513552428 -0.5455013229030734
776614 -0.730029088927619 -0.542976292936295
781517 -0.7309958258687663 -0.5394323360928519
786420 -0.7369375896726155 -0.5373773348169789
791323 -0.738690882837687 -0.5355045776456203
796226 -0.7412763379988521 -0.5317959405889455
801129 -0.7433430499246163 -0.5292879584907151
806032 -0.7437289669330641 -0.524956556424131
810935 -0.7476863071592671 -0.5248322267127242
815838 -0.7478777561291268 -0.5231680569854099
820741 -0.747160629312868 -0.5184311547301211
825644 -0.7500469605536738 -0.5165433128150924
830547 -0.7528672534631118 -0.5142097714009568
835450 -0.7599264692930412 -0.5121693043194367
840353 -0.7540551759506317 -0.5108810529619274
845256 -0.7595223803247106 -0.5035138475744951
850159 -0.7637844883225472 -0.5031982502419229
855062 -0.7635237944553802 -0.49940658659018256
859965 -0.7653634161903919 -0.49904165929713196
864868 -0.7686176169015836 -0.49353957634419354
869771 -0.7705988208264596 -0.49255767677973106
874674 -0.7704530420736597 -0.49076256717935357
879577 -0.7714932627841967 -0.4846569699912098
884480 -0.7715911525636756 -0.4832781869638124
889383 -0.7778355210833093 -0.4781405902929506
894286 -0.7776210628922741 -0.47647458579949303
899189 -0.7792552083079695 -0.47017373017377684
904092 -0.7789017370234919 -0.4674088250802563
908995 -0.7796108019284229 -0.46281989136298757
913898 -0.7810293297852896 -0.46240536287231826
918801 -0.7823581226042453 -0.4552993047697938
923704 -0.776979474250992 -0.4506971044707925
928607 -0.776622387168177 -0.4486188047039138
933510 -0.7710748924029647 -0.44703232023210593
938413 -0.7691055668291952 -0.4419040369922778
943316 -0.7625747340588702 -0.44613161450940686
948219 -0.7600279831801541 -0.4517797288054637
953122 -0.7619141892775095 -0.45380564245751226
958025 -0.7598197251067059 -0.45902416366946786
962928 -0.7655405469114038 -0.46183973305420295
967831 -0.7732969855108078 -0.4646657005710348
972734 -0.7752565512496208 -0.46131257387682867
977637 -0.7781683080297015 -0.4641644006986746
982540 -0.7803235803597834 -0.4601494366710891
987443 -0.7863222169016759 -0.4631769589114062
992346 -0.7889302697975513 -0.4591935115818439
997249 -0.79156691960093 -0.45561439285824035
1002152 -0.7877837681970535 -0.45567004994670934
1007055 -0.7967730534636409 -0.4541077841450132
1011958 -0.7977994829917208 -0.45117295107811545
1016861 -0.8013357579795997 -0.44904109433471506
1021764 -0.8026874126124439 -0.448045226323305
1026667 -0.8056065570135063 -0.44419665888191423
1031570 -0.8088473237126919 -0.44251371498814973
1036473 -0.8055229456166114 -0.438692825186066
1041376 -0.8119012332657771 -0.43983082314921734
1046279 -0.8073871486670973 -0.4359778578029195
1051182 -0.8126111833892896 -0.43550316974539366
1056085 -0.8155419996089461 -0.4357583428178657
1060988 -0.8159089791999571 -0.4342902165810137
1065891 -0.8175746362161967 -0.43072561888379374
1070794 -0.8172458108893356 -0.4299822805442497
1075697 -0.821731679014122 -0.4273908447820862
1080600 -0.820857190059542 -0.4246027134754036
1085503 -0.8225892951436573 -0.422561673174864
1090406 -0.8221113631611537 -0.4219075522553626
1095309 -0.8254963094897088 -0.41594709503102734
1100212 -0.8247574222884545 -0.4207082256868672
1105115 -0.8262303468180889 -0.41271930417710756
1110018 -0.8291835566853695 -0.4168375573845144
1114921 -0.8264303395845718 -0.4090762788940672
1119824 -0.8313666842114519 -0.4129312741924401
1124727 -0.8319664798969336 -0.40961332672890804
1129630 -0.8337516063683904 -0.4036234514495677
1134533 -0.8364435397437617 -0.4023212235455608
1139436 -0.835587445932722 -0.40690910873260855
1144339 -0.8355225576603308 -0.3999046386511066
1149242 -0.8382996208259268 -0.39959584740833987
1154145 -0.83898792349066 -0.4000889828142403
1159048 -0.8394707515701776 -0.3992685935991572
1163951 -0.8391804992837436 -0.39294724475313964
1168854 -0.8387570846869098 -0.392643320045811
1173757 -0.8417786949680108 -0.3906899326432557
1178660 -0.8430937352573855 -0.3865269050023237
1183563 -0.8407741862847218 -0.3870014863026513
1188466 -0.8432791470617925 -0.38374522588362137
1193369 -0.8430928128602307 -0.3860721714344823
1198272 -0.8437470056645897 -0.3796550023891136
1203175 -0.8443069678639594 -0.3808693118738275
1208078 -0.8456491973458672 -0.3753503865646995
1212981 -0.8489841945034524 -0.3769361434958713
1217884 -0.8498598005626172 -0.37435318959865066
1222787 -0.8499116989065242 -0.3726163623271163
1227690 -0.8483005316493916 -0.37007423382043747
1232593 -0.8494107045421797 -0.3699907863267297
1237496 -0.8476212989350833 -0.37028151898916367
1242399 -0.8525287982176165 -0.366781350279323
1247302 -0.8491676503431291 -0.3642964881958255
1252205 -0.848044529451336 -0.36069131332145365
1257108 -0.8530273099580703 -0.3605335000761481
1262011 -0.8493975091835788 -0.35714512869619475
1266914 -0.8485519797025968 -0.3581761523005227
1271817 -0.8484347002853558 -0.35506960597219495
1276720 -0.8481003514562783 -0.35200264585949437
1281623 -0.8452191440700834 -0.3505433256269808
1286526 -0.8401473734889655 -0.3551584539630118
1291429 -0.8425171011459396 -0.3549720979840212
1296332 -0.8451527838170042 -0.3519239343269583
1301235 -0.8411217187998178 -0.35515857901396847
1306138 -0.845590234483115 -0.3628210157796381
1311041 -0.8471898972568187 -0.35455627629677405
1315944 -0.8465022242602613 -0.3575712356319365
1320847 -0.8476634126398251 -0.3583673021301923
1325750 -0.8515237612350232 -0.358465324399207
1330653 -0.8508855142347818 -0.3550519436865713
1335556 -0.8547276021753816 -0.354089334927081
1340459 -0.8559396591471574 -0.3561439441918315
1345362 -0.8585662671286767 -0.3526484223156031
1350265 -0.8561101632292278 -0.3532644504469587
1355168 -0.8617994303422497 -0.3464419878053223
1360071 -0.8625215836223891 -0.351807328329294
1364974 -0.8639557266692749 -0.3469717646318581
1369877 -0.862649888101863 -0.3455556672373474
1374780 -0.8634498690213447 -0.34452548467739713
1379683 -0.8711264917295695 -0.3450588430509832
1384586 -0.866322025039707 -0.3406634349445388
1389489 -0.8682487344748221 -0.339802996795453
1394392 -0.8672419435833726 -0.339674142843023
1399295 -0.8689506249194093 -0.33814718701592344
1404198 -0.867840192003025 -0.33819164856729456
1409101 -0.8703325013436768 -0.33579996298362697
1414004 -0.8743076974507844 -0.33541486735690046
1418907 -0.8694442500732655 -0.3336014687536968
1423810 -0.8723060564802635 -0.33123648555163243
1428713 -0.8751997843024475 -0.32975799160254743
1433616 -0.8715861030889375 -0.33468371216628623
1438519 -0.8722856389229514 -0.3292143906734576
1443422 -0.8765359256526352 -0.32715500810825743
1448325 -0.8762798708615931 -0.32438842880485325
1453228 -0.8725275230389286 -0.32440182962374947
1458131 -0.875075780503468 -0.32316416937570763
1463034 -0.879537670420411 -0.3249291161036218
1467937 -0.8744424423304051 -0.3191904848241993
1472840 -0.8763633765963483 -0.31979192866997996
1477743 -0.875941687582334 -0.3194238173433289
1482646 -0.8774382174321016 -0.31610587821706104
1487549 -0.879891557936536 -0.3168724545217887
1492452 -0.8787090513114345 -0.3116847061321292
1497355 -0.8798867332992799 -0.31131349126244917
1502258 -0.8815031690416386 -0.3096862849363194
1507161 -0.8816477220096613 -0.3088086096702469
1512064 -0.8811144310976128 -0.31328379042648574
1516967 -0.8821659774062279 -0.30884421599668127
1521870 -0.878221800832172 -0.3060753504682904
1526773 -0.8818416893775964 -0.30713333817953126
1531676 -0.8790137560102836 -0.30376314708792657
1536579 -0.8845193966496334 -0.3012969172113909
1541482 -0.8816243796780888 -0.3044625879886672
1546385 -0.8829913665534511 -0.29856794638688305
1551288 -0.8810731716228469 -0.29751526805568884
1556191 -0.8787785260048033 -0.2967937254513196
1561094 -0.8808679757273341 -0.29540703303916904
1565997 -0.8780298921458202 -0.29333253565432144
1570900 -0.8811261464976475 -0.2962250259517865
1575803 -0.8757917933944528 -0.29552924015507276
1580706 -0.8720551582470165 -0.29757281416948156
1585609 -0.8759904869557008 -0.30102479524486797
1590512 -0.8708171026861421 -0.29536669566721113
1595415 -0.8796098635160842 -0.2994978761437973
1600318 -0.8757219037181959 -0.297068423288123
1605221 -0.8825240784566529 -0.29880949113821165
1610124 -0.8813735759426413 -0.29666834470623743
1615027 -0.8829663536848543 -0.2977484538269828
1619930 -0.8867569657148897 -0.2961877730764915
1624833 -0.8851909417222279 -0.29601976301841093
1629736 -0.8867425743461026 -0.29356087486172355
1634639 -0.8885103490804203 -0.2898798036780422
1639542 -0.8920731210508268 -0.2915340450433397
1644445 -0.8914144255273997 -0.2901959007477019
1649348 -0.8915996707409585 -0.29041499269785875
1654251 -0.8905185217370746 -0.29013333405813696
1659154 -0.8906165755973671 -0.2841624566208864
1664057 -0.8918186425572728 -0.28563455820574407
1668960 -0.8919743744331584 -0.28460121602327376
1673863 -0.8927837198901482 -0.28681488019818346
1678766 -0.8934536104729419 -0.2830868877022476
1683669 -0.8968052276089619 -0.28196793046540225
1688572 -0.8915858882948264 -0.2820306532511228
1693475 -0.8970010086919331 -0.27657642655520026
1698378 -0.8921203684773755 -0.27783569351377263
1703281 -0.8916319965911678 -0.2767757147433771
1708184 -0.8927236815686916 -0.2796336737643739
1713087 -0.8945148538458971 -0.274015681163482
1717990 -0.8915152843868855 -0.2742369114818797
1722893 -0.8966578908327769 -0.26890797801279165
1727796 -0.8945109229573506 -0.2705198213099309
1732699 -0.8939608999814848 -0.27072463891657256
1737602 -0.8963749212679512 -0.27159390012628304
1742505 -0.8988027758792952 -0.26548442419828544
1747408 -0.8962460489495068 -0.26564393132296993
1752311 -0.8954722278051946 -0.26356863253304624
1757214 -0.8963592242680917 -0.26476271300354504
1762117 -0.8941669306457211 -0.2641221662877159
1767020 -0.8951854711645336 -0.262845161611212
1771923 -0.8943962438136689 -0.2614681309103641
1776826 -0.8944262576806086 -0.2645886881786931
1781729 -0.8977215685901256 -0.2588992060479065
1786632 -0.8888424446242534 -0.25968123930139847
1791535 -0.8921934380770045 -0.2577086139806979
1796438 -0.8911041929279918 -0.2661085865127261
1801341 -0.891605876115517 -0.2616917467576328
1806244 -0.8935905206187937 -0.2567434919110369
1811147 -0.893685909102008 -0.2592912376757498
1816050 -0.8977012889186013 -0.25865006738335417
1820953 -0.8961523342292285 -0.2623237045332475
1825856 -0.8952808392397118 -0.2572744137913632
1830759 -0.8985738189704173 -0.2604088330773865
1835662 -0.8950047257360466 -0.25707536289340305
1840565 -0.8996778944406081 -0.2557679585349931
1845468 -0.900011719975102 -0.2552739739427217
1850371 -0.9019955613614222 -0.25249656825403843
1855274 -0.8990177146105206 -0.2538992891571828
1860177 -0.9002295469943932 -0.2512116569424453
1865080 -0.9003830175590164 -0.25246199960644927
1869983 -0.8979946840522155 -0.2512810772310882
1874886 -0.8959828828277846 -0.24960723445131439
1879789 -0.9006440516161545 -0.24769924926625345
1884692 -0.9013809625891912 -0.24583750599074486
1889595 -0.8990882618236166 -0.24637559827543298
1894498 -0.9005580889018463 -0.24253458716236007
1899401 -0.899824100511956 -0.24504596762887615
1904304 -0.8989461126193615 -0.24256283554357522
1909207 -0.9028411449846778 -0.24298197269897706
1914110 -0.8996330633535522 -0.24563098816657286
1919013 -0.902565265951391 -0.24187654678811338
1923916 -0.8994208913060229 -0.2402499828259003
1928819 -0.8986104566701839 -0.24350951134132476
1933722 -0.899573913763037 -0.24227691999253367
1938625 -0.8972029228730928 -0.24037035096636497
1943528 -0.8992441077537106 -0.24408420542006984
1948431 -0.8981070839554781 -0.24183431053316726
1953334 -0.8990802964922243 -0.23849789817838804
1958237 -0.900510563781642 -0.24106076805995783
1963140 -0.9020078997188478 -0.24186871320928385
1968043 -0.8990739386560308 -0.24367319101271637
1972946 -0.9024744095509978 -0.23974189488963274
1977849 -0.9071472727849174 -0.2415906733540769
1982752 -0.9005966540996162 -0.2399162042974624
1987655 -0.9046867449895152 -0.237922260229854
1992558 -0.9065021655163117 -0.2368709635754947
1997461 -0.9095183993720197 -0.23817445391062542
2002364 -0.9058219016481636 -0.23673550577498123
2007267 -0.9050472440055664 -0.2352257418905819
2012170 -0.9104993435627523 -0.2330520963354466
2017073 -0.9063221362926772 -0.23300050003711012
2021976 -0.9105681497537004 -0.2329093204331779
2026879 -0.9106361109853502 -0.22948228365065873
2031782 -0.9095454495482788 -0.23031248392683326
2036685 -0.9109707513047562 -0.22788759907003306
2041588 -0.9134134085304604 -0.22682985432961617
2046491 -0.9135933966552551 -0.2245700270408391
2051394 -0.9103227852683852 -0.22714297355312185
2056297 -0.9141266482933029 -0.22528525777708883
2061200 -0.9103964508566519 -0.22350705494917583
2066103 -0.9129404372359742 -0.21849786009206576
2071006 -0.9099550048171136 -0.225729850045763
2075909 -0.9112253302989636 -0.22180050437968438
2080812 -0.9075782586419611 -0.22124794618898186
2085715 -0.9135553797376408 -0.21798535614925174
2090618 -0.912464253824803 -0.22332312133590315
2095521 -0.9116259708223053 -0.21827473238570977
2100424 -0.9126800616490905 -0.2180710173922213
2105327 -0.9138241104345843 -0.21675969264921702
