# HZ S RI R 50
100000 0.5394284343942443 -0.7085215203551364
104903 0.5125945995017716 -0.7251995706065616
109806 0.4833607660385415 -0.7414896746655325
114709 0.4510084289396729 -0.7584527304121651
119612 0.42439538658027093 -0.7709183668818806
124515 0.39435184581337523 -0.7812633620550086
129418 0.36154129404626806 -0.7944432083536562
134321 0.3308959605738862 -0.8011950984544619
139224 0.3004766799196137 -0.8111894681945782
144127 0.2707248453843384 -0.8188491938727187
149030 0.23354898299207344 -0.8203287446398273
153933 0.20126940056060927 -0.8225151873694827
158836 0.16676885631454924 -0.8255830468442802
163739 0.13159801775462077 -0.8181274469660477
168642 0.09746921028952285 -0.8055190720349162
173545 0.07033928758632792 -0.7965104409967455
178448 0.03993107815815814 -0.7808109970523747
183351 0.00555346281972163 -0.7614469929070232
188254 -0.023549352019034256 -0.7319199442512309
193157 -0.05025485649839907 -0.6961575520741231
198060 -0.07030198287105549 -0.6511268281648028
202963 -0.0692825895307464 -0.5808168797483444
207866 -0.026957340763705526 -0.5225586509947764
212769 0.046363320463895345 -0.471252919455528
217672 0.1520233711799584 -0.4722807552165818
222575 0.24710368731191937 -0.5588405985422309
227478 0.2519684772445825 -0.6668550529278248
232381 0.21502796286588288 -0.7319363084203795
237284 0.17711060166985068 -0.7734608679091409
242187 0.14055076255427537 -0.7990584966234149
247090 0.10761205533203977 -0.8151546758292819
251993 0.08306124191051695 -0.8318093868612968
256896 0.05453732946898543 -0.8409474907881169
261799 0.02663477074510103 -0.8500650382103043
266702 -0.0018159910397879367 -0.8569334730495933
271605 -0.026537650262756538 -0.8567638174889567
276508 -0.052735198560101004 -0.8596137072598754
281411 -0.0756599617659501 -0.8574197002806748
286314 -0.09462558668511592 -0.8558722670643767
291217 -0.11135509569197488 -0.8523996736716882
296120 -0.13052081281176342 -0.8497021912882761
301023 -0.14623587544655492 -0.844430070456554
305926 -0.16022546633981527 -0.8378568731562679
310829 -0.16936869227932388 -0.8367120125335167
315732 -0.17840622361174327 -0.8362179351467706
320635 -0.19363133397259655 -0.8357259403150734
325538 -0.207029552899967 -0.8352037643617122
330441 -0.21831635482639716 -0.8380289468052192
335344 -0.2363209163423081 -0.8364664693631415
340247 -0.2483546694443601 -0.8359615374398389
345150 -0.26125506949797633 -0.8319675314334034
350053 -0.2768861826537895 -0.8283511082819737
354956 -0.28852655619227985 -0.8217662702600729
359859 -0.3013230024725104 -0.8181393836105363
364762 -0.31173078903135837 -0.8180936667336072
369665 -0.3221209955482591 -0.8112969131562501
374568 -0.334709596557195 -0.8080255971918746
379471 -0.3485537138002525 -0.8048664121815968
384374 -0.35675370827299585 -0.8035711759352375
389277 -0.3642249641793412 -0.7962108964844555
394180 -0.37641313047206393 -0.7923794455232809
399083 -0.38558830707126207 -0.7893531506826448
403986 -0.3944717429342363 -0.7817087776755123
408889 -0.4032008344912672 -0.7831411209702982
413792 -0.41106195913430227 -0.7742158879868164
418695 -0.42289508436266754 -0.7708331627554197
423598 -0.43082333688170904 -0.7673871244497494
428501 -0.4398322937193149 -0.7611270807508759
433404 -0.4466796816492725 -0.7573530661374707
438307 -0.4594213526571574 -0.7514202035090706
443210 -0.4614566493610668 -0.7523295589370638
448113 -0.4676732922563749 -0.7460439372994284
453016 -0.4772329646592822 -0.742803388531346
457919 -0.48530577858628177 -0.735944648290098
462822 -0.49154688529254803 -0.7308130109135454
467725 -0.4991837418609373 -0.7268980009218392
472628 -0.5069939208014321 -0.7217561876508279
477531 -0.5131517512905409 -0.7173328823100901
482434 -0.519718939435136 -0.7088749452199385
487337 -0.5261082005027251 -0.709322520811707
492240 -0.5326290945129188 -0.7007492713793864
497143 -0.5395161090473681 -0.6985067239747872
502046 -0.5429372320308266 -0.6909513322165293
506949 -0.5502553019324001 -0.687808148080598
511852 -0.5516032800945179 -0.6835659560902938
516755 -0.5631739303714474 -0.676101596460747
521658 -0.568171052405172 -0.6723236274317121
526561 -0.5727510372358503 -0.6639779692259898
531464 -0.5774643805634472 -0.6573599980546454
536367 -0.586152846144818 -0.6493149311434402
541270 -0.5881466530200217 -0.6410775640602823
546173 -0.5914135464147486 -0.6332637283248053
551076 -0.5953096598315053 -0.6212489530309159
555979 -0.5962999382981916 -0.6090697426406948
560882 -0.5901931492193503 -0.5943170482177478
565785 -0.5850522730960299 -0.5778261958117641
570688 -0.57451505133955 -0.566155990751778
575591 -0.5497455903173591 -0.5667721218294032
580494 -0.5269541707684805 -0.5760938355315876
585397 -0.5164479279972728 -0.5976909132403757
590300 -0.5208263274955849 -0.6193273034117145
595203 -0.5306225530783923 -0.6356393076352301
600106 -0.5438640462837316 -0.6474412043763559
605009 -0.5597224122889888 -0.6533903818213325
609912 -0.5699893959618484 -0.6529912419382691
614815 -0.5805363021255258 -0.6531328121014203
619718 -0.5911169203626592 -0.6520243522608433
624621 -0.6016571364811669 -0.6480991855906959
629524 -0.6107973972452528 -0.647471142464327
634427 -0.6183188498132157 -0.6423100309438283
639330 -0.6258736761198107 -0.6420191832658501
644233 -0.6319915454322627 -0.6340117737288045
649136 -0.6351125599598924 -0.6338978423513735
654039 -0.6404005870093701 -0.6292492407488045
658942 -0.6527746158474427 -0.622570808293343
663845 -0.6517491983331888 -0.6173553680423426
668748 -0.6566850328212558 -0.6133885047621157
673651 -0.6587554140301193 -0.6122888771293863
678554 -0.664103611952486 -0.6076626857441693
683457 -0.6661149855485247 -0.6071107010783223
688360 -0.6662181412121236 -0.6017890856485468
693263 -0.6758903041623036 -0.5982791102530641
698166 -0.6797026030975603 -0.5962364473666567
703069 -0.6806328654876347 -0.5929889414156161
707972 -0.6829534440367898 -0.5914433808202072
712875 -0.6895979670026318 -0.5884904013521116
717778 -0.6943314646857722 -0.5881514848475915
722681 -0.6947363876704848 -0.5791682129477349
727584 -0.6993581073249049 -0.576393493972828
732487 -0.7013570611600438 -0.5755314908994298
737390 -0.7045004047107413 -0.5696700841691139
742293 -0.7081162218243691 -0.5684003250727577
747196 -0.7125370648887055 -0.565062617293033
752099 -0.716922187747003 -0.5630916386669066
757002 -0.7178657883200295 -0.5585548826383075
761905 -0.7222714453973759 -0.5555008184537937
766808 -0.7205151837169653 -0.5568639441583082
771711 -0.7264024466498205 -0.5492593696479059
776614 -0.7275514469728108 -0.5479603999281423
781517 -0.7299761354460816 -0.5438985176878106
786420 -0.7347522393140415 -0.543150536809131
791323 -0.7345942329693556 -0.539026022104931
796226 -0.7400285113101864 -0.5371507812458891
801129 -0.7392921680181149 -0.534023791491051
806032 -0.7413982612211513 -0.5287012281775377
810935 -0.7447602461084146 -0.5293049520108868
815838 -0.7455222433741113 -0.5280457341850346
820741 -0.7461790702907227 -0.5230669279280098
825644 -0.7475961535570347 -0.5196186887638468
830547 -0.7532097151580945 -0.5181702434855557
835450 -0.7559795749233064 -0.5134066375677646
840353 -0.7503513754374314 -0.5131915266631195
845256 -0.7559205032428521 -0.5056956484613255
850159 -0.7604602068049937 -0.5054338026884829
855062 -0.759790669369656 -0.5045869726701233
859965 -0.7642147100149402 -0.502052622631479
864868 -0.7657011475964132 -0.49689923076141185
869771 -0.7669050816842553 -0.4947312054547061
874674 -0.7699263626962134 -0.49352014332240707
879577 -0.7693646374724702 -0.4892669704495464
884480 -0.7693992080310793 -0.48647482265382125
889383 -0.7750812640413223 -0.481060625570263
894286 -0.7766147966212327 -0.4783237122652759
899189 -0.7784291324168446 -0.47573154279758023
904092 -0.7793980519386587 -0.46808498036639
908995 -0.779111111052808 -0.4646577487823772
913898 -0.7793494093273032 -0.4641556971349492
918801 -0.7769289412817619 -0.45781762090006367
923704 -0.7734337963418138 -0.4521134681858257
928607 -0.773362274624958 -0.4512765083056284
933510 -0.7647543933260066 -0.4492256909500792
938413 -0.7606109768778533 -0.44348127433455015
943316 -0.7569888263880461 -0.4473504884081759
948219 -0.7550041304426625 -0.4561586166150372
953122 -0.7562897117085738 -0.4597955704958665
958025 -0.7560646542023282 -0.4629232094133433
962928 -0.7637219539897142 -0.46739528184395207
967831 -0.7670480567288745 -0.47085621878881473
972734 -0.7697298385252483 -0.4680867182993983
977637 -0.774746332129854 -0.47026272804791647
982540 -0.7774860495041428 -0.46546039840245573
987443 -0.7852801505193525 -0.4648880162436277
992346 -0.7841746768835324 -0.46440916265531224
997249 -0.7876816680989174 -0.46322763317104404
1002152 -0.7898636370102957 -0.4615274126120646
1007055 -0.7914343769851181 -0.4590495926278455
1011958 -0.7949544952240514 -0.4559376150275792
1016861 -0.7989549640278734 -0.4577125391034598
1021764 -0.8035195179740788 -0.45087810674918233
1026667 -0.8020485515488186 -0.44919422093120054
1031570 -0.807382573445983 -0.44774965822768414
1036473 -0.805591210738024 -0.44236984758353026
1041376 -0.8077906272679449 -0.4449679917083532
1046279 -0.8073662502939395 -0.43855423459987114
1051182 -0.8098351855276807 -0.4427245663976898
1056085 -0.8150725864054893 -0.43842354091376845
1060988 -0.8142357411962914 -0.4378703543153681
1065891 -0.8182160626487642 -0.4347810369978344
1070794 -0.8158544982435105 -0.4340496156579695
1075697 -0.8178356402474659 -0.4296151684073959
1080600 -0.8217183634965601 -0.4289020442979991
1085503 -0.8195832946795778 -0.4243694447565122
1090406 -0.8229616945197147 -0.4230227520784445
1095309 -0.8243045798045994 -0.425075516578876
1100212 -0.8266595280300258 -0.4229945651741254
1105115 -0.8273674633986996 -0.4172557880876095
1110018 -0.8247408707522702 -0.4170537057446181
1114921 -0.827529386268232 -0.414779192478713
1119824 -0.830573829246013 -0.41544743623491487
1124727 -0.830875300363519 -0.4106951105203937
1129630 -0.8314829625504497 -0.40473021079878935
1134533 -0.8360594934972564 -0.407079868180933
1139436 -0.8337438387793561 -0.408738303038187
1144339 -0.8352275254730743 -0.4022161720066225
1149242 -0.835386085606461 -0.40176249370129585
1154145 -0.8397433943065687 -0.4024161910261469
1159048 -0.8376207148888468 -0.4031254420080778
1163951 -0.8376405705643742 -0.3965715473973993
1168854 -0.837588709116372 -0.3974303700725591
1173757 -0.8376871587979567 -0.39270949984528775
1178660 -0.8398467711727094 -0.39087939563051727
1183563 -0.8397159048579818 -0.3872534876625763
1188466 -0.8417140404245806 -0.3877959867792635
1193369 -0.843327257635143 -0.3887938467705513
1198272 -0.8448773369601101 -0.3845914397085535
1203175 -0.8456392633506246 -0.3831526034734759
1208078 -0.8454045736106397 -0.3793687524616432
1212981 -0.8438645349242244 -0.37808483555196903
1217884 -0.8469725352795381 -0.37753473300603635
1222787 -0.847356791349058 -0.375401135180178
1227690 -0.8456886492786133 -0.37039699299306866
1232593 -0.8485344433077531 -0.3709838839601347
1237496 -0.8468270913513928 -0.3700551545960846
1242399 -0.8490292449172417 -0.3683932679575519
1247302 -0.8459155221565257 -0.36771264408475896
1252205 -0.848490917659253 -0.36249759834608664
1257108 -0.8522360997761644 -0.3610440457701634
1262011 -0.846903353465761 -0.3599287064408731
1266914 -0.8503819568066266 -0.3583310203109966
1271817 -0.8467272830127148 -0.36083165132326955
1276720 -0.8455545413187221 -0.35259672674186154
1281623 -0.843229119449493 -0.3532317308455019
1286526 -0.8373910909390926 -0.3550633204697383
1291429 -0.840825961355419 -0.3589666333525777
1296332 -0.8419952126641828 -0.35789715052993126
1301235 -0.8397011175668142 -0.3587166469458783
1306138 -0.843129211606461 -0.3656286890439737
1311041 -0.8434387654250188 -0.3585401453703097
1315944 -0.8457067469934381 -0.3583806078396479
1320847 -0.846736817757192 -0.3625257227608642
1325750 -0.8490216577206396 -0.3614206860058107
1330653 -0.8509351488509944 -0.35854528671248564
1335556 -0.855947704774291 -0.3585891187261412
1340459 -0.8547540925914436 -0.3610233426524222
1345362 -0.8563585366261991 -0.35355276851330436
1350265 -0.8570703190324274 -0.3553253329149252
1355168 -0.859134280378048 -0.3495444747117223
1360071 -0.8610055150901774 -0.3540136672257607
1364974 -0.8610833000254701 -0.3476434912559818
1369877 -0.863084591326946 -0.350708798186215
1374780 -0.8618124439855589 -0.34858348961396884
1379683 -0.8701875022175123 -0.34306250687999545
1384586 -0.8647650175315352 -0.34749874345835124
1389489 -0.8663980200653459 -0.3414874297481581
1394392 -0.866136039712494 -0.3438189733136998
1399295 -0.8675247145635965 -0.3410403941302764
1404198 -0.8691832637772068 -0.3380793732562594
1409101 -0.8693495027760825 -0.33729104841711727
1414004 -0.8732613620428633 -0.33603642408712875
1418907 -0.869114759068941 -0.33311712360971435
1423810 -0.8717595444937114 -0.3347252858093537
1428713 -0.8730528613872206 -0.3322524500763098
1433616 -0.8725993592293745 -0.33631922202660886
1438519 -0.8691920177452163 -0.33235997152666513
1443422 -0.8736376338280636 -0.3268372397852394
1448325 -0.875221349429878 -0.32932056093572604
1453228 -0.8748163120520217 -0.32637928677517397
1458131 -0.8738641530288108 -0.32736024788739365
1463034 -0.8772708435462486 -0.32436446050769224
1467937 -0.8721206272092984 -0.32299704595032264
1472840 -0.8774797612107789 -0.32175511850271427
1477743 -0.8761485385822341 -0.3206259910123575
1482646 -0.8772605496768136 -0.31787417346103275
1487549 -0.8780153728214481 -0.31843100625678894
1492452 -0.8756723970382432 -0.31206038531554486
1497355 -0.8812219787846275 -0.31454624336564957
1502258 -0.8749807660288854 -0.31183620041041793
1507161 -0.8799735237452543 -0.3101415505544716
1512064 -0.8781467378310747 -0.31292519417033693
1516967 -0.8813967311443187 -0.3124446149435705
1521870 -0.8772102847932661 -0.31016005278000447
1526773 -0.880853536412766 -0.3065480736057264
1531676 -0.8774634486635338 -0.3047686509338763
1536579 -0.8821931881788266 -0.3012382721111508
1541482 -0.8773805959380269 -0.3063707299607519
1546385 -0.8803114662319332 -0.30244472384060145
1551288 -0.8771011243171271 -0.29890804240251345
1556191 -0.8776600827391826 -0.2966613101806969
1561094 -0.8776720386851148 -0.2975562617509779
1565997 -0.8737296192141848 -0.29773223012168015
1570900 -0.8757308156457481 -0.2974400090956318
1575803 -0.8742792341563276 -0.2974018751516425
1580706 -0.8701387589870893 -0.30287806798676276
1585609 -0.8749189852227408 -0.3021423998567014
1590512 -0.8731689371882331 -0.30027991977955815
1595415 -0.8748201684087991 -0.30171581312497964
1600318 -0.876621726986375 -0.301857075118628
1605221 -0.8815852190300422 -0.29984367289604785
1610124 -0.884535417994053 -0.30044803985189084
1615027 -0.8836445745567797 -0.2987859793151792
1619930 -0.8829037713247738 -0.30063940257033583
1624833 -0.884143475005657 -0.29912228061082585
1629736 -0.8886737054809746 -0.2960459385615256
1634639 -0.8886631038077355 -0.2933470235486085
1639542 -0.8872293819609074 -0.2903123601832716
1644445 -0.8897054445294543 -0.29505919556265775
1649348 -0.8914522890758046 -0.29121078621630087
1654251 -0.8906375577506122 -0.29016384618004837
1659154 -0.8910766419455076 -0.28652157556036567
1664057 -0.891284025602123 -0.2867319999435429
1668960 -0.8898724304419678 -0.28561165816295125
1673863 -0.8925028943889374 -0.2872721992013039
1678766 -0.893184588350805 -0.2825528422648521
1683669 -0.8958328684644172 -0.28466633721368156
1688572 -0.8921487949494631 -0.28406930182925777
1693475 -0.897615757165744 -0.2779960046232726
1698378 -0.8929701390258553 -0.27780342729039437
1703281 -0.8938387579973994 -0.27514142958956095
1708184 -0.890787307338445 -0.27737368465532114
1713087 -0.8949737803789738 -0.2761437889840687
1717990 -0.8917361257598831 -0.27608820881422047
1722893 -0.8951006659974805 -0.2695039731433042
1727796 -0.8972668340154484 -0.2728144429620276
1732699 -0.8927433310030536 -0.2693149642949009
1737602 -0.8977797386931662 -0.2702836871012393
1742505 -0.8953407333986088 -0.26895489659544225
1747408 -0.8941295077085842 -0.2634627932427186
1752311 -0.8896139234364162 -0.26499112242707923
1757214 -0.8952441737731691 -0.26314430535935135
1762117 -0.8926759807727038 -0.26861041668467506
1767020 -0.8944706849212173 -0.26124000166260186
1771923 -0.8919659745686633 -0.26246664723786167
1776826 -0.8947031769317353 -0.26490266734787066
1781729 -0.8945948266436342 -0.26225449276567336
1786632 -0.8883176106559068 -0.2574800523996074
1791535 -0.892626305063341 -0.26117001744850665
1796438 -0.8892669909116626 -0.2668989337485337
1801341 -0.8883430027612561 -0.25921787207651076
1806244 -0.8941628973721859 -0.261915916029096
1811147 -0.8939709126703654 -0.25844783991606346
1816050 -0.8959262378915074 -0.2551935302366529
1820953 -0.8961734003744931 -0.26305059145801757
1825856 -0.8964582845882921 -0.2587326231443831
1830759 -0.8961046130827056 -0.2596622672178083
1835662 -0.8968077528717988 -0.2542530209921364
1840565 -0.9013813209803867 -0.2564143195588959
1845468 -0.9018361960672614 -0.25410153550895137
1850371 -0.8997857442644899 -0.2512409839202229
1855274 -0.8975933108106453 -0.254961663981628
1860177 -0.8983227796358242 -0.25270512631400444
1865080 -0.8981726125690217 -0.2500535748179152
1869983 -0.8983014424215603 -0.25145590798249057
1874886 -0.8969605964049622 -0.25010302764775993
1879789 -0.9019929498835668 -0.2502562732596319
1884692 -0.9003531820358003 -0.24962223079456825
1889595 -0.8986008937051622 -0.24732284678273878
1894498 -0.8969188647919276 -0.24344646028955547
1899401 -0.9023890094520408 -0.24626792770579414
1904304 -0.8992060199258965 -0.2421107772260498
1909207 -0.9015112033310477 -0.24486795404877507
1914110 -0.8969948345292861 -0.24500102049223826
1919013 -0.9012254432188094 -0.24006854714048145
1923916 -0.8953594486464197 -0.24417516450165663
1928819 -0.9004647539922774 -0.24215010143374435
1933722 -0.898933045427883 -0.24139300548351908
1938625 -0.8986521093829856 -0.24201796786703175
1943528 -0.8999560538217043 -0.2464177903307896
1948431 -0.8975060641536641 -0.24306498597313306
1953334 -0.9003716451521514 -0.2396693268320433
1958237 -0.899915252045387 -0.24495278664001027
1963140 -0.9039817923420914 -0.24222775401168214
1968043 -0.9003796127672405 -0.24409517546978587
1972946 -0.902230783228068 -0.24134069878143938
1977849 -0.9067644335894977 -0.24458548710383943
1982752 -0.9054099448279842 -0.2413930405054444
1987655 -0.90508317200066 -0.23845159651510373
1992558 -0.9058207274699095 -0.23547594762797433
1997461 -0.9089865183712276 -0.23919267468236288
2002364 -0.9044772839191836 -0.2367017081508472
2007267 -0.9064275487305031 -0.23187580423503965
2012170 -0.9102316788185807 -0.23340026555571508
2017073 -0.9058763336389025 -0.23364996658023668
2021976 -0.9082548320491233 -0.23167153842259255
2026879 -0.9117658008191522 -0.23131769298020852
2031782 -0.9096132966778185 -0.2285493950980045
2036685 -0.9126706141081616 -0.22903866821394359
2041588 -0.9109234521347126 -0.22776487572654722
2046491 -0.9162694715181319 -0.22777369799915936
2051394 -0.909962506706447 -0.22486400009198396
2056297 -0.9125351307023913 -0.22540161871849027
2061200 -0.9112259850494296 -0.22490058309364888
2066103 -0.912875048803201 -0.22219909408746047
2071006 -0.9082335371825124 -0.22532470674537772
2075909 -0.9137129287679707 -0.22126306684126457
2080812 -0.9082179290107083 -0.21937835043104767
2085715 -0.9121441176287589 -0.2202228361273187
2090618 -0.9145915759988927 -0.22122234154278797
2095521 -0.9145749353946874 -0.2174129277998929
2100424 -0.9113178518703735 -0.21822787505042018
2105327 -0.9139168074523821 -0.21720811652139793
