# HZ S RI R 50
100000 0.5349510278022045 -0.7150789781311852
104903 0.5075810179393717 -0.7316715148186308
109806 0.4790031207439954 -0.746879504453222
114709 0.44690482481917876 -0.7632699926371904
119612 0.42166249813625284 -0.775160321219593
124515 0.3912391657704121 -0.785811566555962
129418 0.36278324737011075 -0.7990172576055099
134321 0.3333627925902564 -0.8056560128249831
139224 0.3049183587865059 -0.8157756395247963
144127 0.27650868990406374 -0.8242851540716771
149030 0.2445561395958198 -0.8271597682761328
153933 0.21464929898705928 -0.8295827658370584
158836 0.18623899669815322 -0.835284728761662
163739 0.15377931726207278 -0.8319629109573264
168642 0.1264600390190102 -0.8272956034878641
173545 0.09826567447632586 -0.8220094212755097
178448 0.07076070145595048 -0.8147537518378181
183351 0.04138962689240263 -0.8026180681556763
188254 0.013379720828196133 -0.7859674615670741
193157 -0.013049506337049216 -0.7641386970104932
198060 -0.0345259028381355 -0.7349153617274241
202963 -0.047562339646021266 -0.6892412214808342
207866 -0.031096579850598577 -0.6464667508304941
212769 0.01058126709613783 -0.6039304768844204
217672 0.08328468183213554 -0.5972207351761578
222575 0.15118647211054342 -0.6621477803535062
227478 0.14475897946552746 -0.7404667151172739
232381 0.11074691458687078 -0.785717358561381
237284 0.07804583876078101 -0.8107942117297418
242187 0.04507968965735585 -0.8279983256309568
247090 0.018701511085595507 -0.8346127931734959
251993 -0.002547561168086839 -0.845620304926067
256896 -0.028086234090976343 -0.8479571953189254
261799 -0.054141579470147985 -0.8543283965489775
266702 -0.07511306109239774 -0.8570106010900833
271605 -0.09899310474322462 -0.8544165514225918
276508 -0.11773758447339025 -0.8547681036840789
281411 -0.13786199596306664 -0.8526329650698151
286314 -0.15497623588196918 -0.8498416306215067
291217 -0.1681947231173127 -0.8426690039602529
296120 -0.1854387894649456 -0.8413423180703938
301023 -0.19792256739947534 -0.8331693969399677
305926 -0.21447053700658514 -0.8291027707683831
310829 -0.21904818860947015 -0.8271578705055683
315732 -0.2322584195489634 -0.8263914638817228
320635 -0.24581631415446392 -0.8248324400417796
325538 -0.25760890525932784 -0.8224912607436292
330441 -0.2692198157130553 -0.8250910191007406
335344 -0.282608932423805 -0.8188905507267672
340247 -0.29817787927482753 -0.8198410666652464
345150 -0.3067630767079655 -0.8150427508636732
350053 -0.32194353090832406 -0.8116703914836954
354956 -0.331094429726377 -0.8067293247622488
359859 -0.3443973522711245 -0.8024036799010597
364762 -0.3528483864593968 -0.7991908903536133
369665 -0.36270760087718273 -0.7926878429248662
374568 -0.3718085745985985 -0.791877654666166
379471 -0.38418277603315026 -0.7873999339024769
384374 -0.39359797915926287 -0.7856618486154795
389277 -0.40029165646926623 -0.7785391658082776
394180 -0.4104280847112718 -0.7757028572429713
399083 -0.4195290742293445 -0.7699123026422693
403986 -0.4282013328442468 -0.7652011043712927
408889 -0.43588916391507504 -0.764408874899316
413792 -0.4436624792159133 -0.7583504642551073
418695 -0.45293816449388824 -0.7523223645504739
423598 -0.46082861924588087 -0.7494518970265085
428501 -0.4692373984430844 -0.745363521126218
433404 -0.4751627358223349 -0.741591319509913
438307 -0.48446065657422094 -0.7330070601953669
443210 -0.4885280511875053 -0.7355514482341049
448113 -0.4931691270183861 -0.7282792094649706
453016 -0.5033806997594898 -0.7241826899292306
457919 -0.5091316233406429 -0.7189412669508676
462822 -0.514820509202498 -0.7150492417922669
467725 -0.5219427604496587 -0.7091832238193625
472628 -0.5315423852099537 -0.7057588446906663
477531 -0.5341966731349365 -0.7027956859791895
482434 -0.5401705593488926 -0.6949533687803146
487337 -0.5464232701811683 -0.6973695704995723
492240 -0.5531482642607928 -0.6885741185377484
497143 -0.5611811675065099 -0.6852191528245383
502046 -0.5623187221708954 -0.677981107215852
506949 -0.5688800088248483 -0.6752181292747096
511852 -0.5705205531227806 -0.6710393189619709
516755 -0.5801323002490472 -0.6651951031749012
521658 -0.5843093671314112 -0.6659844356024114
526561 -0.585470323815385 -0.6555026030389821
531464 -0.5909664001908137 -0.6508218661075161
536367 -0.5994964676031083 -0.646310567212248
541270 -0.6008827827009426 -0.638566706031171
546173 -0.6043237141032048 -0.6355369358995239
551076 -0.6114844614213656 -0.6279764997336994
555979 -0.6123504699171043 -0.620657087056776
560882 -0.6113959766116084 -0.6105201792869152
565785 -0.6159919828697873 -0.6005917078599781
570688 -0.6122792976102015 -0.5901199289940647
575591 -0.6037471336582283 -0.5841184408980862
580494 -0.5880299035803934 -0.5804388237507551
585397 -0.5787571574197449 -0.5929496421100073
590300 -0.5758733815039848 -0.603876347484542
595203 -0.5839422726070828 -0.6164555586160073
600106 -0.5923012300429978 -0.6230629533319698
605009 -0.6011396338571018 -0.6265292844328961
609912 -0.6102223621578825 -0.6287847819689228
614815 -0.6186818174416863 -0.6279368030263773
619718 -0.6282974631621326 -0.6240634728407403
624621 -0.6341081316764428 -0.6220350190273648
629524 -0.6389326880687373 -0.6211585016926916
634427 -0.6472595089054258 -0.6174440817084199
639330 -0.6539689527207702 -0.6131945938218442
644233 -0.659437197068417 -0.6093510093344886
649136 -0.6605122276587322 -0.6051373463307242
654039 -0.6666098342498994 -0.6014299427454955
658942 -0.6744883990854441 -0.5972666974533819
663845 -0.6758361359134543 -0.5960286263664338
668748 -0.6771200800182521 -0.5918041367428506
673651 -0.6804531909276451 -0.5872613285160122
678554 -0.6861468538756524 -0.5849708112844947
683457 -0.6874519384249618 -0.5828780172044356
688360 -0.6883702429506509 -0.5768240783280779
693263 -0.6958374264382851 -0.5757117270420555
698166 -0.6995999337153809 -0.5734448429896234
703069 -0.7015989241448098 -0.5707109068057368
707972 -0.7043372987119835 -0.5712935685221501
712875 -0.7092615913582139 -0.5670776098187027
717778 -0.7123589875394611 -0.5616356724429381
722681 -0.7134292182431153 -0.5577962751736195
727584 -0.7154510878667326 -0.5540669324614741
732487 -0.7178919487696097 -0.5528363413202553
737390 -0.7232051853510002 -0.5485463620912896
742293 -0.7274198380702764 -0.547820696954197
747196 -0.7269591206436655 -0.5419776128311103
752099 -0.7297070709011091 -0.5384535489866038
757002 -0.7338185843201415 -0.5375441222400245
761905 -0.7357010897104244 -0.5365669310958247
766808 -0.7348389476639569 -0.5333742464061274
771711 -0.7395754470205934 -0.5273114458678398
776614 -0.7400084831949347 -0.527295967060107
781517 -0.7435385009409043 -0.5245507365403755
786420 -0.747056074899266 -0.521226583141443
791323 -0.7468252491207168 -0.5212955476407807
796226 -0.7532676469770943 -0.5189085938803406
801129 -0.7528132116644056 -0.5150739307850457
806032 -0.756140022858429 -0.5137573607641941
810935 -0.7566212756293087 -0.5103014886498225
815838 -0.7545429407633699 -0.5115832889718172
820741 -0.7572140370022405 -0.504745473410645
825644 -0.7600461514682649 -0.5048667204112202
830547 -0.7615966972373277 -0.502262361461845
835450 -0.7671223660733871 -0.4963990940829654
840353 -0.7605416519454926 -0.49649428333075585
845256 -0.7672355523749075 -0.49101259902405947
850159 -0.770508637135616 -0.4924115574101566
855062 -0.7713265391405567 -0.48940818131515945
859965 -0.7737732759182512 -0.4900514190057115
864868 -0.7751686400217085 -0.4827925995743025
869771 -0.7775644485915715 -0.48375404180913567
874674 -0.7789587411192507 -0.4798289616538462
879577 -0.7799979381516181 -0.47737166212467885
884480 -0.7782773175210442 -0.47265292422205085
889383 -0.7856435220191085 -0.46832184281820866
894286 -0.7863351254990382 -0.4699465425261349
899189 -0.7870777269279722 -0.4635313155350316
904092 -0.7886168484496516 -0.4627710486125824
908995 -0.7883494523024877 -0.4576499408497972
913898 -0.789788181950971 -0.458017770351932
918801 -0.7889637574365622 -0.4514046734781985
923704 -0.7892927974986268 -0.44865171070268123
928607 -0.7893696075803979 -0.4459293694526261
933510 -0.7870039180589176 -0.4446628349539025
938413 -0.7856923210633325 -0.4355220692587073
943316 -0.7848835145119978 -0.43750929224647733
948219 -0.7814977719822104 -0.44180689108916216
953122 -0.7829254222134783 -0.4422448327879732
958025 -0.7781227557209757 -0.44334967202062936
962928 -0.7810634938322757 -0.4464623971275008
967831 -0.7850455510008829 -0.4475643278825423
972734 -0.7878861503958527 -0.44788411549315693
977637 -0.7863541830787123 -0.4489428667760145
982540 -0.7910277569699743 -0.4466761228186848
987443 -0.7963820169208206 -0.4458717398045362
992346 -0.7995318629542956 -0.4438455936081804
997249 -0.7996091919914922 -0.4453014913253462
1002152 -0.8007688653755873 -0.440047236097578
1007055 -0.8041094997027353 -0.44144923100787375
1011958 -0.8070704988177613 -0.4393861945455607
1016861 -0.8100672107900144 -0.4352139182352138
1021764 -0.8126386217782069 -0.43523647593046105
1026667 -0.81172664519027 -0.4302829471619881
1031570 -0.8162360627332539 -0.43011627888798276
1036473 -0.8124601199276357 -0.42792875859654855
1041376 -0.81878048568691 -0.4280144337539469
1046279 -0.8184019537425206 -0.4259509387868598
1051182 -0.8205538912006246 -0.42479548293490865
1056085 -0.8247452032763184 -0.4210965574082197
1060988 -0.8204127556303946 -0.42183111321262146
1065891 -0.8262965277687955 -0.41844473318960224
1070794 -0.8238153051484773 -0.4182911422282331
1075697 -0.8245970195647998 -0.4144803854374286
1080600 -0.8266810829531169 -0.41326304292109517
1085503 -0.8261035615976109 -0.40638895779389245
1090406 -0.827946971751771 -0.4106361474678216
1095309 -0.8327053366603018 -0.4077167466770986
1100212 -0.8306440109704838 -0.4091241713219842
1105115 -0.8332589396318448 -0.4047242500140191
1110018 -0.8327681606353455 -0.4028776522771415
1114921 -0.8335715047160001 -0.39943267394124937
1119824 -0.8344315387572564 -0.40418485542568905
1124727 -0.8379599903119992 -0.39681994723611197
1129630 -0.8394220568658324 -0.39518500245325083
1134533 -0.8392076879847067 -0.39214593891533195
1139436 -0.8404106800148621 -0.39594867012587004
1144339 -0.8391799158735644 -0.39054930270509935
1149242 -0.840924446292249 -0.3893554475501736
1154145 -0.84369728840124 -0.3885796448120226
1159048 -0.8446509483546093 -0.38876668566446987
1163951 -0.8433801646961306 -0.3829145922168149
1168854 -0.8422692323189549 -0.38287821843274406
1173757 -0.8448811956665697 -0.3814612258524625
1178660 -0.8454788577352289 -0.3791022249741959
1183563 -0.8420376726212383 -0.3773592578263388
1188466 -0.8468703560805425 -0.3745142704876369
1193369 -0.8498256939291514 -0.3789758998990179
1198272 -0.8489565302958934 -0.3737558137100342
1203175 -0.8510717386607759 -0.3723003705062415
1208078 -0.8498722737702481 -0.3668071556000414
1212981 -0.8503928915731772 -0.3709866277945835
1217884 -0.8476304644412012 -0.36942933942898953
1222787 -0.8535306279032282 -0.36542227018401086
1227690 -0.8516156558732307 -0.36334110875936737
1232593 -0.8540194252678039 -0.3651718249144942
1237496 -0.8530276932557476 -0.36391803886242524
1242399 -0.8561531579893227 -0.3612816359060891
1247302 -0.8538595105175741 -0.35994600317527353
1252205 -0.8542739368407866 -0.356873804179999
1257108 -0.8609906205922397 -0.35606341346136716
1262011 -0.8578769715079532 -0.3534414282303069
1266914 -0.8556917970712368 -0.35211707986167223
1271817 -0.8561318690987604 -0.35253972306827097
1276720 -0.8577274522081818 -0.349067922960332
1281623 -0.8552900656915257 -0.3450863853205486
1286526 -0.8538846621725416 -0.3465613564452066
1291429 -0.8569688889058711 -0.34505695032573136
1296332 -0.8528195674696212 -0.3444805136046915
1301235 -0.8505821326436662 -0.34457224784646945
1306138 -0.851486037663736 -0.3492506406637363
1311041 -0.8508798977095139 -0.3470038408519607
1315944 -0.8510102243004011 -0.3468358836064656
1320847 -0.8540161783250866 -0.34844102456308135
1325750 -0.8548142538093582 -0.34673021502965884
1330653 -0.8553262604680496 -0.34716577790896974
1335556 -0.8623427728426653 -0.34707345128681344
1340459 -0.862988429538386 -0.3469524579181551
1345362 -0.859092483725555 -0.34385214141907827
1350265 -0.8619584228817044 -0.34156369989644136
1355168 -0.8628496458930703 -0.34111976726861254
1360071 -0.8689526984667123 -0.34311445377645433
1364974 -0.8674069229539285 -0.3389341817038514
1369877 -0.8662056440814947 -0.34024624115036944
1374780 -0.868242573989238 -0.33935016452499633
1379683 -0.8744292226687869 -0.33745875829582933
1384586 -0.8671173591536201 -0.3347994732719689
1389489 -0.8715547756407998 -0.3314507517740405
1394392 -0.8704116784345879 -0.3326802991508708
1399295 -0.8717894432464907 -0.3325741446663056
1404198 -0.8712357899738599 -0.33380313856694716
1409101 -0.8719758492646085 -0.33042747634135855
1414004 -0.8755073936334236 -0.32840705849363677
1418907 -0.8726341325200062 -0.3260943954091098
1423810 -0.8720488832148189 -0.3252532459960136
1428713 -0.8753250190093209 -0.32563517465036207
1433616 -0.8763137963691762 -0.32610269425079436
1438519 -0.8754591266672415 -0.32474657813733226
1443422 -0.8765726559430022 -0.3193329308517866
1448325 -0.8785736709617739 -0.3203886905367047
1453228 -0.8747150966945275 -0.3204272335787865
1458131 -0.8762432645467396 -0.31678049134812025
1463034 -0.8820083764803909 -0.31791981665487695
1467937 -0.8772208281292552 -0.31389534962393284
1472840 -0.8804209672491112 -0.31669888579330496
1477743 -0.8766094805975353 -0.31307565079647054
1482646 -0.8813449988953945 -0.3095377836896769
1487549 -0.8790809064654883 -0.3137539290302201
1492452 -0.8811407879222687 -0.30735001422712044
1497355 -0.8818451428375405 -0.3073074091413065
1502258 -0.8809855333940332 -0.3074385114943027
1507161 -0.8817102544566247 -0.3066372210075165
1512064 -0.8829605124622074 -0.30606202611548255
1516967 -0.8851003830151142 -0.30470820373461344
1521870 -0.8785801441740485 -0.3046971106850682
1526773 -0.8810186550758671 -0.3043223532330824
1531676 -0.8833723092687585 -0.3013251812966908
1536579 -0.8836801474356827 -0.3007705430107482
1541482 -0.8846827364318586 -0.3011416449374758
1546385 -0.8852587592688806 -0.2978885838689921
1551288 -0.8836124117416673 -0.2981796303273892
1556191 -0.8842154388917736 -0.295648616412039
1561094 -0.8857784476553595 -0.2965262549463045
1565997 -0.8838686930165679 -0.29438840550870504
1570900 -0.8866403621525862 -0.29156539106260404
1575803 -0.8823691623776142 -0.2946941277798618
1580706 -0.8787263691900461 -0.2935602674964515
1585609 -0.8826063043252566 -0.2925190488967901
1590512 -0.8792529743241095 -0.28894469492045405
1595415 -0.8844169245317515 -0.29292126870026886
1600318 -0.8793374003957507 -0.291838273710449
1605221 -0.884828524789671 -0.2896667909616445
1610124 -0.8852818393341615 -0.2907829622803354
1615027 -0.8859300182146369 -0.2915342364096429
1619930 -0.8860655635664034 -0.2902685767787225
1624833 -0.8871760297580431 -0.28996623538987704
1629736 -0.8870034903356319 -0.29067403961972454
1634639 -0.8899388917919696 -0.2845769985336916
1639542 -0.8898714602974642 -0.2850271358596178
1644445 -0.8901870148829522 -0.28816782049439627
1649348 -0.893664789961598 -0.2852487619551862
1654251 -0.8927047631602787 -0.28591581406635264
1659154 -0.8905950594034113 -0.28069158799316113
1664057 -0.8934122689029491 -0.2818417367064684
1668960 -0.895879587054362 -0.2795430770768672
1673863 -0.8935140012955695 -0.28175371678150485
1678766 -0.8917340688651627 -0.2790462321588587
1683669 -0.8965667928962157 -0.2807776142831968
1688572 -0.8930822509898948 -0.2796392032569748
1693475 -0.8991814419992679 -0.27695400062120906
1698378 -0.89252649762054 -0.27753094355020425
1703281 -0.8937539648291424 -0.2741079057329122
1708184 -0.8942520437483016 -0.27392813594712595
1713087 -0.897656955358587 -0.2712475730391992
1717990 -0.8961114254989332 -0.2750615237505551
1722893 -0.896466176070387 -0.2681418777578323
1727796 -0.8965147709536536 -0.26990577832854484
1732699 -0.8945484889607233 -0.2673518589953708
1737602 -0.8960538879279509 -0.26821783709842034
1742505 -0.8991058958976248 -0.266337054239958
1747408 -0.8998331624738275 -0.26578455141839086
1752311 -0.896272898645103 -0.26540878380584676
1757214 -0.899566361213751 -0.264168893205076
1762117 -0.8978078619936856 -0.26404544936142915
1767020 -0.8954481819842414 -0.2633517807392026
1771923 -0.8994097630563525 -0.25633607000860925
1776826 -0.8992190451299601 -0.26333133122951513
1781729 -0.9003447155956401 -0.2587307103832007
1786632 -0.8961957020919421 -0.25819786546293716
1791535 -0.8984698143274776 -0.25720867035089207
1796438 -0.8951921716804897 -0.26428186658313274
1801341 -0.8925366348056665 -0.2577967227626271
1806244 -0.8974495009849851 -0.25521233107527275
1811147 -0.8939519545906596 -0.25490987707548846
1816050 -0.89871920229374 -0.25525811278267924
1820953 -0.8985893421528282 -0.25571005898338356
1825856 -0.8974783890306051 -0.25793245566101036
1830759 -0.8986894076228633 -0.25942717719495656
1835662 -0.8961372769011926 -0.25509625906632954
1840565 -0.8990543032063751 -0.25847181257966756
1845468 -0.9024285735054589 -0.25360862610152723
1850371 -0.9007136752157071 -0.2576561469980722
1855274 -0.9023092223326216 -0.2540284908349384
1860177 -0.8991965877506146 -0.2509006232716798
1865080 -0.9014062522061811 -0.25112317917823707
1869983 -0.9013113512205189 -0.25478074834196995
1874886 -0.9018132819217405 -0.25029046606500416
1879789 -0.9030009167718801 -0.25183357087105523
1884692 -0.9014149314065324 -0.24945299452916056
1889595 -0.9059666998747644 -0.24727920586479288
1894498 -0.9005255126913191 -0.2444851684038025
1899401 -0.9051916988875085 -0.24709215224003092
1904304 -0.9010561924933225 -0.24684872628214413
1909207 -0.9054596724365722 -0.24470613518295292
1914110 -0.9025274710380228 -0.24305965015156658
1919013 -0.9070619843780099 -0.24222900788472318
1923916 -0.9005238403180988 -0.24493538261107553
1928819 -0.9059646652365507 -0.2397183008697821
1933722 -0.905595507226093 -0.23925051285164653
1938625 -0.9013274151009653 -0.23901173656853933
1943528 -0.9031579058835082 -0.23990688708989646
1948431 -0.9014444155273895 -0.2389744271630954
1953334 -0.9045828425560496 -0.23760365569749967
1958237 -0.8973666656338949 -0.23969130094731508
1963140 -0.9016582107201315 -0.23914938658967141
1968043 -0.9007630727868636 -0.24360417348385166
1972946 -0.9017744618904202 -0.23870389890206595
1977849 -0.9063240730579457 -0.240127295369875
1982752 -0.9044533728860636 -0.23901450772380928
1987655 -0.9035464497378671 -0.23606834585648243
1992558 -0.9056641667044709 -0.236307359568002
1997461 -0.9108478186177713 -0.23711163019003734
2002364 -0.9058219466000542 -0.23671251908622445
2007267 -0.9057117462658539 -0.2340768754089488
2012170 -0.907285734480328 -0.2355527188639986
2017073 -0.9056528451381922 -0.2377911055855971
2021976 -0.908668602451094 -0.23531664423479287
2026879 -0.9115846861506421 -0.23263773889055184
2031782 -0.9086462928849136 -0.22977917111854615
2036685 -0.911350906735227 -0.23277587792986934
2041588 -0.9078789151703649 -0.22782446071988546
2046491 -0.9157209697506332 -0.23004295669304353
2051394 -0.9099639394194775 -0.2276106434139027
2056297 -0.9113698219409089 -0.22785375630008095
2061200 -0.9109729970660636 -0.2264837539621976
2066103 -0.9141234829607007 -0.22324893536366008
2071006 -0.9118363180648307 -0.22508913098405015
2075909 -0.9115003768973732 -0.22382452059424746
2080812 -0.910102318489754 -0.2249560051925422
2085715 -0.9126459472477622 -0.2227813949628772
2090618 -0.9131316600753612 -0.22489649919092852
2095521 -0.913899087177592 -0.21997720174726756
2100424 -0.9114357064516683 -0.2195364990699243
