# HZ S RI R 50
100000 0.5363585955447914 -0.7193894033553799
104903 0.5095619417802074 -0.7365924928675383
109806 0.4824118813999479 -0.7508028731986152
114709 0.4503458455331028 -0.7664008035243913
119612 0.42148114994297164 -0.7794798143018177
124515 0.39922502748621835 -0.7905637340601709
129418 0.3709051402420312 -0.8028899907930679
134321 0.34465003010494677 -0.8098368985632782
139224 0.3181726113467376 -0.820202758641892
144127 0.29326490268627575 -0.8296959806046514
149030 0.26531483970055 -0.8342242489829168
153933 0.23952663260304324 -0.8375902214379899
158836 0.21672673238762094 -0.8443086954346903
163739 0.19072413177977632 -0.8474910143257546
168642 0.16412799831317212 -0.8493815367529827
173545 0.14439311859968532 -0.8528617415037706
178448 0.1210992364029081 -0.8509551716830421
183351 0.09614343682662163 -0.852909993580795
188254 0.07308093329778809 -0.8487497885243164
193157 0.0500498298291681 -0.8471735657523957
198060 0.03034466886092235 -0.839346300276379
202963 0.007722409577066615 -0.8332357164627241
207866 -0.0019393839028502525 -0.8207308434420678
212769 -0.009911598211468461 -0.8056891841160161
217672 -0.0031517904539278725 -0.8013652678360823
222575 0.0031263341465482585 -0.8194430380488249
227478 -0.011535300746005863 -0.8373560990830011
232381 -0.03409198794542535 -0.8497798572297985
237284 -0.05527662717823883 -0.8523262451434966
242187 -0.07737643766196654 -0.8557076860218663
247090 -0.09501656853170326 -0.8523113491541332
251993 -0.10999504121073421 -0.8548775715143293
256896 -0.12854764067583713 -0.85399461099117
261799 -0.14720351794702988 -0.8523585282462093
266702 -0.16359957999079605 -0.851917116429834
271605 -0.17930600347249318 -0.8472719819666767
276508 -0.19217702941209505 -0.8412194843514039
281411 -0.20892392240787072 -0.8424929728322027
286314 -0.22173531870968988 -0.8392325418884202
291217 -0.23359016467285573 -0.8333253838842771
296120 -0.24797417134068492 -0.8328734328523113
301023 -0.2591104413113411 -0.8275004853985332
305926 -0.2727489035786624 -0.824024929875434
310829 -0.27939666430538135 -0.8189581011435549
315732 -0.29383429461930477 -0.8193095055834188
320635 -0.3053085961121997 -0.8152543849183082
325538 -0.3157684391797299 -0.8089987889119629
330441 -0.3260276271834024 -0.8088979367197915
335344 -0.3396647858105785 -0.8038721742361629
340247 -0.3487338923792788 -0.8005826688716702
345150 -0.3569475442842319 -0.7975910812990852
350053 -0.36895913688652626 -0.7947983210260575
354956 -0.37677862628840847 -0.786353010917791
359859 -0.39022817079308075 -0.7846004529208737
364762 -0.39719469244780303 -0.7798052390529198
369665 -0.40290282367278946 -0.7746305771596398
374568 -0.4148171740122261 -0.7716937882711762
379471 -0.4249346196855213 -0.7695427765520368
384374 -0.4316909316049236 -0.7676819992162826
389277 -0.4384188488949258 -0.759541477979479
394180 -0.44750951304614317 -0.7582496675904696
399083 -0.4554519464207693 -0.7533221285136262
403986 -0.4617483805773633 -0.7454752717673011
408889 -0.4689519637991898 -0.7483212541106898
413792 -0.4771957537130376 -0.7363819753863934
418695 -0.48492064491499137 -0.7356952704616285
423598 -0.4920151490938045 -0.7324969879661921
428501 -0.5023785194393602 -0.7263071892004449
433404 -0.5056231348823577 -0.724754249225928
438307 -0.5140246304856918 -0.7163531281754328
443210 -0.5172307092044518 -0.7193740102337748
448113 -0.5217807044118334 -0.7115487390166582
453016 -0.5294412179004228 -0.708836836561634
457919 -0.5351862114298632 -0.7032692019628497
462822 -0.5417758545686031 -0.7014123969446275
467725 -0.5477766318257279 -0.6949246929112937
472628 -0.554568597040034 -0.693966521731047
477531 -0.5596470292925037 -0.6872010293721075
482434 -0.5636384738973855 -0.6810727649273441
487337 -0.5680376911964798 -0.6821858826632846
492240 -0.5745676561760747 -0.6772217403169497
497143 -0.5789267248891303 -0.6736101798338707
502046 -0.5821435280648868 -0.6666050556499479
506949 -0.585449405641865 -0.666674311994061
511852 -0.5893158812614483 -0.6639849664457556
516755 -0.5975792281166544 -0.6593224912549491
521658 -0.6036632554560418 -0.6586589067847379
526561 -0.6055791323155334 -0.6514247934698646
531464 -0.6115655850163316 -0.6482688997976228
536367 -0.617632699547171 -0.6435151007875559
541270 -0.6202991804424027 -0.6399056050267505
546173 -0.624221168339337 -0.639148799523949
551076 -0.6284249148485477 -0.6336281099713642
555979 -0.6332084166229544 -0.6299956774885951
560882 -0.633315754530124 -0.6258045966662101
565785 -0.6385655277725816 -0.6183027275407292
570688 -0.6459555153556372 -0.613917146726244
575591 -0.64524638351031 -0.6108335593854652
580494 -0.6427649932132911 -0.6026093035492858
585397 -0.6428588545142965 -0.6025568949049968
590300 -0.6450298959652734 -0.6026100266569102
595203 -0.6488881037995281 -0.602856198148048
600106 -0.6515838966092506 -0.6041111593999213
605009 -0.659171808479372 -0.6023080107615776
609912 -0.6607123495620966 -0.6006868558140652
614815 -0.6649371571496409 -0.5986890711554158
619718 -0.6710975466607821 -0.5952387605803714
624621 -0.674386728678533 -0.5940980035024835
629524 -0.6783019858200644 -0.5918371567425442
634427 -0.6818144074544447 -0.5891727313887286
639330 -0.6879038559422718 -0.5847342106248545
644233 -0.6896566231312765 -0.5803824526437624
649136 -0.6902574946358068 -0.5806671144893842
654039 -0.6952017005409802 -0.5771443986225754
658942 -0.7006986482218334 -0.5731729769103248
663845 -0.7028341028542999 -0.571262654491693
668748 -0.7030804798996808 -0.56551775062579
673651 -0.7074466296955598 -0.5646847346812901
678554 -0.7104832219649784 -0.5621529347605723
683457 -0.7125130387253974 -0.5599934259440722
688360 -0.7119565952998588 -0.555992789674757
693263 -0.7200940432645616 -0.5538207794139387
698166 -0.7227366805830282 -0.552540547103483
703069 -0.7237808189874532 -0.5475797432918713
707972 -0.728495304432777 -0.5483154297671029
712875 -0.7267264407963161 -0.5422165176011803
717778 -0.7340636296010095 -0.5390089243750358
722681 -0.7321974989527775 -0.5347936317842532
727584 -0.7353315059828824 -0.5340046329987093
732487 -0.7360018943970869 -0.5331732416110845
737390 -0.7407659068091413 -0.5290551981607362
742293 -0.7441270685911997 -0.5282531884955692
747196 -0.7450720488458619 -0.5224092290645914
752099 -0.7460772542778618 -0.520346942191079
757002 -0.7515860168966336 -0.517942858875947
761905 -0.7519565341735096 -0.5183623442273919
766808 -0.7476841052503791 -0.5138072147242451
771711 -0.7533815518049817 -0.5124534439568572
776614 -0.7540861541396232 -0.5105612562566564
781517 -0.7581682987837607 -0.5092513641215897
786420 -0.7608326184253685 -0.5049590588695682
791323 -0.7664549545745096 -0.5038991238840528
796226 -0.764425202426773 -0.49998765965081393
801129 -0.7646821031772648 -0.4978726332722744
806032 -0.7682077617139722 -0.4965899445439447
810935 -0.7720371104386179 -0.495736829409657
815838 -0.7691861322477183 -0.49583802120541604
820741 -0.769896023138228 -0.4896323687539796
825644 -0.7746931564014707 -0.4896034300802541
830547 -0.7752598301957501 -0.486959847409245
835450 -0.7797604720947222 -0.4833387665857313
840353 -0.7754310809189517 -0.47973301164692655
845256 -0.7779553807881783 -0.47805066005304514
850159 -0.7826906198580693 -0.4788696639688829
855062 -0.7817740043235573 -0.47287944706085816
859965 -0.7866497294043725 -0.47311998379439746
864868 -0.7875550025408542 -0.4720447595262553
869771 -0.7873356719356928 -0.4700175561483316
874674 -0.7915651886102911 -0.46592647575790797
879577 -0.7896808115042865 -0.4648996449917061
884480 -0.7918562117157715 -0.4614254615839456
889383 -0.7935330313695912 -0.45812129021243275
894286 -0.7963108202522847 -0.4623852641363284
899189 -0.7973039575140571 -0.45746334534730004
904092 -0.7975783355273494 -0.45435428735540406
908995 -0.7982995547492194 -0.4513271995040292
913898 -0.8030251882147907 -0.45282487798868815
918801 -0.8002877275089807 -0.4473369992513235
923704 -0.8007362867068898 -0.44558966931183874
928607 -0.8053230794206536 -0.44641017585017434
933510 -0.8035196893580808 -0.44438904227868725
938413 -0.8070913940201582 -0.4382472548670806
943316 -0.8065835259286489 -0.4376910617714755
948219 -0.8097132373244175 -0.44003353817602664
953122 -0.8089242429657865 -0.4348761464879354
958025 -0.8068950109164702 -0.4352655929205091
962928 -0.8093297468611039 -0.4309426880726284
967831 -0.8101102705153927 -0.43346213307708853
972734 -0.8117744289945745 -0.4307298071755215
977637 -0.8115580456974137 -0.4318088801607387
982540 -0.8120328159097278 -0.42458821698571475
987443 -0.8159724468515493 -0.42813583747812645
992346 -0.8167032513490108 -0.4266043190533153
997249 -0.8177358289834491 -0.42752520232094887
1002152 -0.8189790113054246 -0.4231641720943769
1007055 -0.8203639839575498 -0.4231982952513606
1011958 -0.820592984337797 -0.420862876645759
1016861 -0.8254639364740846 -0.4176710056987993
1021764 -0.8245639887916155 -0.4176624771943476
1026667 -0.8260058134770025 -0.41452633051822385
1031570 -0.8290821514283399 -0.4159812728562694
1036473 -0.8247175599831268 -0.4078818061718293
1041376 -0.8314940576234275 -0.4127339065929325
1046279 -0.8285204039387342 -0.40917224113772044
1051182 -0.8333248524248852 -0.409267314143831
1056085 -0.8324570508212873 -0.40652626837469236
1060988 -0.8337150555407642 -0.40698076263309235
1065891 -0.8339405384401677 -0.4067705729032776
1070794 -0.832477160604481 -0.40278200855001983
1075697 -0.8359720138436972 -0.4022944906292933
1080600 -0.837006762747366 -0.4002086458797417
1085503 -0.835550942360866 -0.39777227059316006
1090406 -0.8385568138309326 -0.3970531398401059
1095309 -0.8401219339448084 -0.3952073389225788
1100212 -0.84071593290694 -0.39637931081341965
1105115 -0.840284618424116 -0.391827125548622
1110018 -0.8436499937323347 -0.3931255561759371
1114921 -0.8411437787871402 -0.3868503522354795
1119824 -0.8424963212182333 -0.3909997136918213
1124727 -0.845977494489246 -0.3886333418834591
1129630 -0.8444059281014714 -0.38097568719589003
1134533 -0.8481879811060965 -0.38118882366983853
1139436 -0.8472564129396905 -0.38451458898635277
1144339 -0.849080725349697 -0.38203048790099614
1149242 -0.8480634728123023 -0.379688358556576
1154145 -0.8510640905142741 -0.37916762390487224
1159048 -0.8489224761033249 -0.37985183840902675
1163951 -0.8509939816514018 -0.3756714660414681
1168854 -0.848172364905403 -0.375713272122484
1173757 -0.8515602776013551 -0.3728297154808389
1178660 -0.8524686483915056 -0.3720777128995147
1183563 -0.852995730017185 -0.3700458889775379
1188466 -0.8524782886453766 -0.3694858017368694
1193369 -0.8569983453349979 -0.37019478358998614
1198272 -0.8562273679101303 -0.3663465585153158
1203175 -0.8581243796015121 -0.362689768320145
1208078 -0.8559567231223882 -0.3626242902847191
1212981 -0.8574616746512804 -0.36214166112452423
1217884 -0.8582542126251809 -0.36344608995887834
1222787 -0.8607680271923176 -0.35858933027054524
1227690 -0.8583772554058213 -0.36056528814677297
1232593 -0.8613326044783234 -0.3595961008436649
1237496 -0.8605412923674897 -0.35861711640264515
1242399 -0.860543429729719 -0.35643513507715124
1247302 -0.8632184653620402 -0.3569790199613473
1252205 -0.8633372147084986 -0.3528956489369851
1257108 -0.8668866642121305 -0.3533064687626078
1262011 -0.8657248231581455 -0.35128333858858485
1266914 -0.8663744764764071 -0.34937662008864245
1271817 -0.8642328485507684 -0.35208753670848864
1276720 -0.867811715945164 -0.34587666348444834
1281623 -0.8658929679889803 -0.3486164190132736
1286526 -0.866961922935414 -0.3466474989413308
1291429 -0.8667520012666152 -0.3447142621862015
1296332 -0.870557302965698 -0.34229851022230284
1301235 -0.8672344783442021 -0.3421388897714292
1306138 -0.8719673898938561 -0.342493733472974
1311041 -0.8685428574743581 -0.33947163302586403
1315944 -0.8662195227695265 -0.3372070681895642
1320847 -0.8659295361105226 -0.3395793048361252
1325750 -0.8681738605208349 -0.3394404761498283
1330653 -0.8658135327056931 -0.3378900974317497
1335556 -0.8706269003886604 -0.33644930215495295
1340459 -0.8708173517601919 -0.3375223457505935
1345362 -0.8691115572135497 -0.3353656597089974
1350265 -0.8699744486378648 -0.3358360576021465
1355168 -0.8735905055555624 -0.3302598132344748
1360071 -0.8767910146529124 -0.333430300154354
1364974 -0.8730009544986906 -0.3300302409166908
1369877 -0.8766135236585914 -0.33062386810818045
1374780 -0.8735758983608479 -0.3316405929049791
1379683 -0.8792160484049267 -0.32976849690765747
1384586 -0.8749591379281284 -0.32794326218483294
1389489 -0.8787848215118904 -0.3256050734006632
1394392 -0.8774769991337809 -0.32440248475534006
1399295 -0.8750169526215583 -0.32691739674419673
1404198 -0.8776559461654849 -0.32374107975002114
1409101 -0.8813473765979842 -0.3231351117710366
1414004 -0.8814296794804903 -0.3216739586161128
1418907 -0.8764577930349214 -0.32151711062583593
1423810 -0.8813559616280437 -0.3195480603914479
1428713 -0.880766257615242 -0.3188085091430047
1433616 -0.8804566390276684 -0.32382637049151747
1438519 -0.8813551410142056 -0.3174780745686549
1443422 -0.8809131417462882 -0.31705111198252345
1448325 -0.8821741676383551 -0.3146150303751332
1453228 -0.8824764299481012 -0.3145963060030056
1458131 -0.880118990969059 -0.31538784377555357
1463034 -0.8840847780680852 -0.3139258000311402
1467937 -0.8825735020033848 -0.3112984751787629
1472840 -0.8819417752355768 -0.31161855227998136
1477743 -0.8828500865675956 -0.3103107752979258
1482646 -0.8864922826569609 -0.3076946998700046
1487549 -0.8864656518044639 -0.3092208651317849
1492452 -0.8844861594368927 -0.3059123586064742
1497355 -0.8856693533749777 -0.3047440096888719
1502258 -0.8864289244375994 -0.3050437816401874
1507161 -0.8875592485836469 -0.3051856465321931
1512064 -0.8878736572880368 -0.30613666932551004
1516967 -0.8907266920925871 -0.30355566393943145
1521870 -0.8858283624420515 -0.3036438345420057
1526773 -0.8884741279925275 -0.30320441487749633
1531676 -0.8870668387133858 -0.29894098311015604
1536579 -0.8919650032829277 -0.29652337829649045
1541482 -0.8888288025569319 -0.30254833844320733
1546385 -0.8910340734655039 -0.29790446971930995
1551288 -0.8933052271184204 -0.2992675450624523
1556191 -0.8905211932572563 -0.296234276622338
1561094 -0.891841030966978 -0.2954395639696936
1565997 -0.8912422383896186 -0.29715074396920943
1570900 -0.8958588721549546 -0.2943559989583999
1575803 -0.8943738539621823 -0.2958700682006399
1580706 -0.8897493719947189 -0.295157983641908
1585609 -0.8927520958420179 -0.2958659483242284
1590512 -0.8919262856320722 -0.2910660126778873
1595415 -0.8952283445767897 -0.29009537243516226
1600318 -0.8934502066067681 -0.2908592442815342
1605221 -0.8965299635733279 -0.2878193899593712
1610124 -0.8947750748295703 -0.2886811525873017
1615027 -0.8944839679948726 -0.28746170694721984
1619930 -0.892361006491773 -0.28870914556782895
1624833 -0.8907243369230193 -0.2871372620122789
1629736 -0.8967230835249148 -0.2866595304290906
1634639 -0.8963916383137098 -0.28264309060962023
1639542 -0.8962627602410946 -0.2862332236592666
1644445 -0.8955124895183467 -0.28455069919859316
1649348 -0.9006521009769431 -0.2838944911943154
1654251 -0.8962940609902709 -0.28447798387108375
1659154 -0.8967556589961495 -0.278919474716461
1664057 -0.8992719429221879 -0.27880129939119314
1668960 -0.9003491924796222 -0.2790596427122897
1673863 -0.8983858971001161 -0.2811970889454177
1678766 -0.9004994349899208 -0.28002679895935634
1683669 -0.9028303980658324 -0.27726836307375985
1688572 -0.896659486095147 -0.2825135951342395
1693475 -0.9029093849051163 -0.2785345099317825
1698378 -0.9016526736535215 -0.27599346238695066
1703281 -0.8982984346987066 -0.27394844027398385
1708184 -0.8989719486343142 -0.276668624454331
1713087 -0.9035715002777739 -0.2760596542047486
1717990 -0.8996980124836672 -0.27283276896156433
1722893 -0.9013865084595569 -0.2714246275256673
1727796 -0.9030150924509622 -0.2731503263952565
1732699 -0.9017051979921177 -0.27407046915769995
1737602 -0.9017485089869818 -0.2728694058521863
1742505 -0.9054338531990395 -0.2726324614197782
1747408 -0.9027030216551074 -0.26881479642975786
1752311 -0.9006624059900169 -0.26754893023656057
1757214 -0.9035867413513108 -0.2697080216665043
1762117 -0.9021305652458448 -0.2702408730852989
1767020 -0.9037990731023999 -0.2691801463170089
1771923 -0.904039298685647 -0.2639975834280014
1776826 -0.9057372287758344 -0.2705178765754406
1781729 -0.905752447024255 -0.2646723313797817
1786632 -0.9025089057085768 -0.2662215060599028
1791535 -0.9064501476861057 -0.2649446593202789
1796438 -0.904797701602291 -0.2674879153916114
1801341 -0.9036996614575157 -0.26366473197163626
1806244 -0.9064755819476296 -0.2598262702923764
1811147 -0.9065382005742327 -0.2610708304557373
1816050 -0.9084030205372797 -0.259993759091735
1820953 -0.9061634968247785 -0.2637671993750357
1825856 -0.9065027358797041 -0.2577838568059953
1830759 -0.9059076061374829 -0.2590674030363867
1835662 -0.9027375247526571 -0.2577395927552674
1840565 -0.9087235022239177 -0.2579306725638438
1845468 -0.9098983026790961 -0.25970421482840017
1850371 -0.9101111660492814 -0.2584848387268747
1855274 -0.9081247300958263 -0.25758649052006843
1860177 -0.906384642926428 -0.25436298750414243
1865080 -0.9070744755977921 -0.25576019089022467
1869983 -0.9081013574970279 -0.2576298340553853
1874886 -0.9087491885415093 -0.25810176374907706
1879789 -0.9115381918940875 -0.254302485015748
1884692 -0.90684969711838 -0.2533133568351163
1889595 -0.9086747014063083 -0.25451323212828086
1894498 -0.9080900016924497 -0.250840822664187
1899401 -0.9108650513490658 -0.2526511255190676
1904304 -0.911066170756786 -0.2503503265981024
1909207 -0.9130942990890043 -0.25131486367165956
1914110 -0.9116736089285024 -0.252353460160405
1919013 -0.9154294543679872 -0.2513502472134636
1923916 -0.9099796182393108 -0.24910305072109118
1928819 -0.9103633237980235 -0.2501217960501441
1933722 -0.9131531835127316 -0.2465667388740956
1938625 -0.9117140178808503 -0.24741929464559936
1943528 -0.9128023332606465 -0.2475108571864589
1948431 -0.9108247930868216 -0.2482980078742674
1953334 -0.9116928769233077 -0.24342917692411992
1958237 -0.9139763338618694 -0.24441978332216965
1963140 -0.9125298460089469 -0.24630880721096673
1968043 -0.9119845646321412 -0.24828416088156302
1972946 -0.9085901780276628 -0.24265510921345618
1977849 -0.9162282710578472 -0.24596705162933585
1982752 -0.9100670887574587 -0.24463366093396674
1987655 -0.9128100465207479 -0.24018922023680594
1992558 -0.9153830391762058 -0.24363738441225133
1997461 -0.9149215245761401 -0.2423454873178488
2002364 -0.9122787022826876 -0.24343060055254767
2007267 -0.9129147199888273 -0.23699138594165947
2012170 -0.9155350133782556 -0.2399112952081789
2017073 -0.9094143925069083 -0.24135400494047002
2021976 -0.9144651945004081 -0.23920568254098254
2026879 -0.9151420520018084 -0.24024535179571715
2031782 -0.9163687532015155 -0.2376434205314029
2036685 -0.914675300230596 -0.24112583269678742
2041588 -0.9153308037728208 -0.23732222592678542
2046491 -0.9161044879484245 -0.23922987442044405
2051394 -0.9153073448585484 -0.23449538174932089
2056297 -0.9160672572027951 -0.23739726478808937
2061200 -0.9175160080596482 -0.23453638919020578
2066103 -0.9165221899437556 -0.23392230423430738
2071006 -0.9155465176852244 -0.23510263511149265
2075909 -0.9205042723058448 -0.23500271352853366
2080812 -0.9134054919558139 -0.2293460983026018
2085715 -0.9214528848727506 -0.23297939688860983
2090618 -0.9183482814617155 -0.23512701552361331
2095521 -0.9168613449573446 -0.23027147950369892
2100424 -0.9168940866578088 -0.23207736407116228
2105327 -0.9169730669846532 -0.2319649472036894
