# HZ S RI R 50
100000 0.5389897917980241 -0.7200251595704957
104903 0.5109572572258273 -0.7360864879030132
109806 0.4840108839383052 -0.7516865113969604
114709 0.4532563760384689 -0.7680646108455395
119612 0.4300217012234633 -0.7789367615618679
124515 0.40264290137337566 -0.790598438479854
129418 0.37500904214231906 -0.8026984918746243
134321 0.3488629476005838 -0.810340912684977
139224 0.32478581683751295 -0.8218670257443083
144127 0.3005394300450698 -0.8297456712313925
149030 0.2728683457530666 -0.8356111573948938
153933 0.24837631525638076 -0.8398609921699876
158836 0.22664922169029342 -0.8464919731284921
163739 0.20165364616755335 -0.8520386281523328
168642 0.18140115300824736 -0.8548813337660267
173545 0.1575158511341186 -0.8594570871787514
178448 0.13662267949743861 -0.8614339121520805
183351 0.11318601693943545 -0.861508634288218
188254 0.09104647824782335 -0.864076178062856
193157 0.06875515012588054 -0.8662257006600916
198060 0.05123270995322103 -0.8653869469716198
202963 0.030508500953938898 -0.8683760312571122
207866 0.012600416194558572 -0.8655205883757697
212769 -0.007094848372939441 -0.8614176391914089
217672 -0.02107961623955591 -0.8595372721658535
222575 -0.03608903600777161 -0.8632924018850502
227478 -0.05443852027566535 -0.866278632421642
232381 -0.07005888728495102 -0.8658423221625325
237284 -0.08668236360051951 -0.8607833230176926
242187 -0.10631254426539767 -0.8608377428643135
247090 -0.12157375331587944 -0.8589457227582543
251993 -0.13337070689529198 -0.8600281497040103
256896 -0.15148251382492625 -0.8540508771950099
261799 -0.16805080711199977 -0.851398602280572
266702 -0.18145666743977706 -0.8519177281416747
271605 -0.1956911156422366 -0.8458343501070371
276508 -0.20925890764087376 -0.8413786778494173
281411 -0.22511188804380206 -0.8430089143243338
286314 -0.2358378928642054 -0.8381367850685403
291217 -0.24455455016619063 -0.8331652808441641
296120 -0.26077627084096394 -0.831325960892448
301023 -0.2708625643227997 -0.825930803695177
305926 -0.2853648632394768 -0.8231436726821268
310829 -0.2947766240135529 -0.8227665178978701
315732 -0.30531887570027044 -0.8187324559450202
320635 -0.31836498052971535 -0.814102960369137
325538 -0.32831345850223814 -0.8064006095539907
330441 -0.33888105785798034 -0.8063528447674974
335344 -0.34720827632061024 -0.7998167130497109
340247 -0.35922896813702354 -0.7986611688976746
345150 -0.3681042082362271 -0.794682889560595
350053 -0.3807867100977337 -0.7909667127129938
354956 -0.3864083533753171 -0.7854892357650063
359859 -0.3966679525734681 -0.7785497673580926
364762 -0.4050700559820774 -0.7780027731595984
369665 -0.4106406861962855 -0.7710304529077602
374568 -0.4222630926017294 -0.7711159192931004
379471 -0.4320093357760312 -0.7643255258247058
384374 -0.4381563690491267 -0.7645299981346128
389277 -0.4439302515147231 -0.7569034571694934
394180 -0.4565287519001868 -0.7539922843943955
399083 -0.46191856482293225 -0.750656024409559
403986 -0.46902288765173805 -0.7431759770485079
408889 -0.47536541155837436 -0.7434288901977861
413792 -0.4847191302615515 -0.7355250118213514
418695 -0.49088793483045484 -0.7346165930197471
423598 -0.49791734086224565 -0.7281931680920478
428501 -0.5069222911941464 -0.723411069057164
433404 -0.510842776708821 -0.7227535950279209
438307 -0.5186099159668508 -0.7155969941318443
443210 -0.5218820816323897 -0.7162949837106728
448113 -0.5294402790278976 -0.7109819253752255
453016 -0.5341260685313312 -0.7085533559286353
457919 -0.5411599936807846 -0.701449181199579
462822 -0.5475932095873904 -0.699526256672979
467725 -0.551415899852265 -0.694004217701095
472628 -0.5582608668959069 -0.6910051038713085
477531 -0.5642523396862461 -0.6869150478950616
482434 -0.5682012708186857 -0.6814280523264441
487337 -0.5708801556381904 -0.6821674506749634
492240 -0.5798582957867027 -0.6766843542463635
497143 -0.5839093292887747 -0.6744255276279297
502046 -0.5863766543451518 -0.6705255808064251
506949 -0.5925890870740692 -0.6652829190788206
511852 -0.5947650038069635 -0.661491472987355
516755 -0.6045709615138204 -0.657787869266371
521658 -0.6068499210611107 -0.6583075077323244
526561 -0.6113358932145181 -0.6491780801986886
531464 -0.6153833936952383 -0.6477213948470856
536367 -0.6221531445639152 -0.6440396246958907
541270 -0.6227027351067311 -0.6419481380514659
546173 -0.6276464066009397 -0.639273371962398
551076 -0.6323840581734421 -0.6359886499020057
555979 -0.6346362317004245 -0.6297623923926803
560882 -0.6367300304435616 -0.6307246256097799
565785 -0.6434139873995669 -0.624114962075948
570688 -0.6495349072879585 -0.6190359965688566
575591 -0.6517143433153686 -0.6187151711485863
580494 -0.6515216138209249 -0.6102757513618242
585397 -0.6563388746594921 -0.6116635043865839
590300 -0.6595499637066309 -0.6061399944476772
595203 -0.6647364250322714 -0.6059520192901402
600106 -0.6637124369139528 -0.6043568939783466
605009 -0.671128536068857 -0.6010677611310651
609912 -0.6727545692986271 -0.5977197391420477
614815 -0.6792486164801743 -0.5946520813762353
619718 -0.6794999723874733 -0.5903764232012665
624621 -0.6830147722425616 -0.588409628461532
629524 -0.6870638270850044 -0.5865320394717842
634427 -0.6887929911029316 -0.5820706366752557
639330 -0.6926198946112525 -0.5810627713224159
644233 -0.697637441301368 -0.5745265249721363
649136 -0.6971651163445791 -0.5767605704220489
654039 -0.6983261034440499 -0.5716241839746625
658942 -0.7080768718696808 -0.5679262281464491
663845 -0.7084901705393213 -0.5697469631284884
668748 -0.7082408903437596 -0.5621434755317023
673651 -0.7118088581206061 -0.5612720612828207
678554 -0.7138251038110995 -0.5583941805870218
683457 -0.7179790778970384 -0.557167664292095
688360 -0.7159417648327567 -0.5521497854151611
693263 -0.724767566478372 -0.5487513759623142
698166 -0.7277769491583913 -0.5500240709677893
703069 -0.7275018698436011 -0.5443819248774794
707972 -0.728789002628018 -0.5410357201888941
712875 -0.7309218086247949 -0.5386808220153237
717778 -0.7365725722493339 -0.5371928578813333
722681 -0.733632255937405 -0.5332718612698648
727584 -0.7392325756979902 -0.5306042069027247
732487 -0.7392443409445224 -0.530383099812025
737390 -0.7439213767662086 -0.5274970363341669
742293 -0.7465894802679971 -0.5240630604054591
747196 -0.7494666024880543 -0.5205953425853652
752099 -0.7502245198167601 -0.5187719852453718
757002 -0.7527171378862993 -0.5180414199937855
761905 -0.7539676883075374 -0.5148425873064335
766808 -0.7529680953612228 -0.5140812773965555
771711 -0.7573464934947571 -0.5106877974043867
776614 -0.7573505141463542 -0.5087191063079494
781517 -0.7611402054937886 -0.5068137997017609
786420 -0.7652416371447467 -0.5025979875984924
791323 -0.7674182281292781 -0.5011559146732547
796226 -0.7684965261804698 -0.499120766942124
801129 -0.7699508409445615 -0.4968943477086678
806032 -0.7709863825912958 -0.4930002436881651
810935 -0.7750678029182922 -0.49258729059959244
815838 -0.772623396060528 -0.4961215637601571
820741 -0.773786337908572 -0.4896997621727545
825644 -0.774330625751713 -0.48768174967389827
830547 -0.7782453055724889 -0.48399385682058665
835450 -0.7822948874271778 -0.4826298130563858
840353 -0.7780809662346896 -0.4822169683784844
845256 -0.7832733917022205 -0.4766226044816726
850159 -0.7867677724645513 -0.476622125973897
855062 -0.7847584401743875 -0.47569493182454503
859965 -0.7857135541071996 -0.4742124819784891
864868 -0.7896064996829367 -0.47123692386863497
869771 -0.7915466558640384 -0.4702798474397446
874674 -0.7932604095718894 -0.4686380298560839
879577 -0.7900509246680137 -0.4667105370608482
884480 -0.7934487026374314 -0.4645961489991393
889383 -0.796418519653874 -0.46269722627835647
894286 -0.7970613264765999 -0.459133118175076
899189 -0.8000212640443598 -0.4590640923668539
904092 -0.8010639500321133 -0.45619314195051447
908995 -0.8012986415328721 -0.45220297535670756
913898 -0.8040481674294677 -0.45236004900294546
918801 -0.8033927138925423 -0.44819581856874213
923704 -0.8015228712547849 -0.4485187811317628
928607 -0.8071626048812792 -0.4472832930956455
933510 -0.8059253110173227 -0.4484602212118555
938413 -0.8100183945752636 -0.44161478338301813
943316 -0.8103761978842035 -0.439005905749859
948219 -0.8112793226747387 -0.4405350364009761
953122 -0.8133953500412409 -0.4389211227167678
958025 -0.8109856238526313 -0.4352423606157055
962928 -0.8148741474420215 -0.43445123410508757
967831 -0.8167796299124027 -0.43400005296240507
972734 -0.8186717464496444 -0.4318175597631968
977637 -0.8149680291641364 -0.4320912037066316
982540 -0.8175983367085307 -0.4261234815040308
987443 -0.8224870535898329 -0.42603615701245484
992346 -0.8224210813147969 -0.42570124078051336
997249 -0.8218607780062759 -0.42551489805798
1002152 -0.8193484160650857 -0.42100230756863316
1007055 -0.824937731484877 -0.4202154254063995
1011958 -0.8277189087184639 -0.4215443247537115
1016861 -0.8274874129927335 -0.41808440454601997
1021764 -0.8285804911206519 -0.41686556659688845
1026667 -0.8290533911172361 -0.4144329130768248
1031570 -0.8309431737311604 -0.41400088527894957
1036473 -0.8280600238369034 -0.40837923473158616
1041376 -0.8312969561726714 -0.4113823021288303
1046279 -0.8327942936000386 -0.4098732121370011
1051182 -0.834069156461186 -0.4092191688378319
1056085 -0.8353384021287275 -0.4054466799372915
1060988 -0.835703094172713 -0.40751263949834327
1065891 -0.8382397206142471 -0.4028197962628244
1070794 -0.8361878055375871 -0.4033088966578726
1075697 -0.8383447230753467 -0.4004473400645182
1080600 -0.8401058264387303 -0.4011440688216061
1085503 -0.8381858354365549 -0.3953505923511891
1090406 -0.8424047227752922 -0.39415678578142227
1095309 -0.8396108536506929 -0.39606282605366416
1100212 -0.8425687898574575 -0.39370401779082925
1105115 -0.8414594063540688 -0.3902014159078906
1110018 -0.8442684845853988 -0.3913084758446691
1114921 -0.8451547904185815 -0.3879259394770017
1119824 -0.8448107266803141 -0.3923904098011037
1124727 -0.8483652498184061 -0.3873831224150502
1129630 -0.8488735710120852 -0.38271578762257574
1134533 -0.8511898756056552 -0.3831720073156452
1139436 -0.8472293567088732 -0.38564131476358915
1144339 -0.8492520729782698 -0.3819271833489957
1149242 -0.8517812311814067 -0.37966939916219494
1154145 -0.8541039117210412 -0.37906549695919967
1159048 -0.8532264338193469 -0.383040992169793
1163951 -0.8536698002496327 -0.3761059986207424
1168854 -0.8521863063885157 -0.3759076714601502
1173757 -0.8540070259635892 -0.3757455055283227
1178660 -0.8558541217470474 -0.37129883632455635
1183563 -0.8526265881905288 -0.37126633503412726
1188466 -0.8548122674996036 -0.37021250591005833
1193369 -0.857054309106926 -0.3737345849070921
1198272 -0.8580756994310694 -0.3692168563467221
1203175 -0.8580558134473354 -0.36415927079012456
1208078 -0.858438832879868 -0.3612633326820309
1212981 -0.857008662310459 -0.3634955417207947
1217884 -0.8578257980231515 -0.3648364236744232
1222787 -0.8628168169354427 -0.36154426624535113
1227690 -0.8600758192557011 -0.3594150669591175
1232593 -0.8598045634633382 -0.36288924456926425
1237496 -0.8625173095828322 -0.3573942206814615
1242399 -0.8671489840013745 -0.3600734095751485
1247302 -0.8640693178363357 -0.3591680817624728
1252205 -0.8647852117650024 -0.3568412329246985
1257108 -0.8688345791070123 -0.35449005385628546
1262011 -0.8674179822066856 -0.3530519064863564
1266914 -0.8669202568076794 -0.35373625658367347
1271817 -0.8671895884697615 -0.35296804108563556
1276720 -0.8702473111723122 -0.35025116742354595
1281623 -0.8683287887699167 -0.3489815604553061
1286526 -0.8664459577950668 -0.3482372341681799
1291429 -0.8704190714765829 -0.3454956760264645
1296332 -0.8709715074123363 -0.34474448805847624
1301235 -0.8724255651882835 -0.3446275563721371
1306138 -0.8724446186891116 -0.3485117082708377
1311041 -0.8723433996412784 -0.34225854805067935
1315944 -0.8681127403019482 -0.34151153466960416
1320847 -0.8724974184098613 -0.34041277480852433
1325750 -0.8711063712192614 -0.3409104896455644
1330653 -0.8702371198870655 -0.33868603511370304
1335556 -0.8750344911775356 -0.33662352846999566
1340459 -0.8737462154514599 -0.3387168100768
1345362 -0.8744317392365909 -0.33617768670728376
1350265 -0.8716281596433464 -0.33830831001218364
1355168 -0.8790482773889582 -0.33223420913773294
1360071 -0.877101945795522 -0.3328122191028414
1364974 -0.8775345803298771 -0.3321368700575031
1369877 -0.8793183024816739 -0.3329468400714782
1374780 -0.8796877609658413 -0.3320282368420316
1379683 -0.8820068248931495 -0.3323412783091161
1384586 -0.8775282738553049 -0.32874702979598847
1389489 -0.8824981140674296 -0.3273931478917872
1394392 -0.8808048704311738 -0.32859208241901394
1399295 -0.8807442771947435 -0.32641795097528903
1404198 -0.8827592449593804 -0.3269811337632667
1409101 -0.8830104324425607 -0.32428448028307855
1414004 -0.8850267181598135 -0.32447314740977673
1418907 -0.8814167622811208 -0.32514768522530835
1423810 -0.8849200926111933 -0.3205559569640712
1428713 -0.8848719901132293 -0.3219078201780912
1433616 -0.8819522100280175 -0.3211745716257289
1438519 -0.8839719910733218 -0.3194456957476554
1443422 -0.8838468008910985 -0.3168118269675133
1448325 -0.885492409866728 -0.31773799077878967
1453228 -0.887148336494906 -0.3160261408240959
1458131 -0.8847092584659384 -0.3190458824241911
1463034 -0.8893377794761911 -0.3151556753604929
1467937 -0.8834041241360221 -0.31252942214447094
1472840 -0.8875903260234392 -0.31323725326384705
1477743 -0.886852691242718 -0.3121013155949337
1482646 -0.8858055598425005 -0.31294366762855885
1487549 -0.8890924668927419 -0.31365808119496336
1492452 -0.8908431815845957 -0.3090031400727747
1497355 -0.8894669415709515 -0.30995655742821837
1502258 -0.8898418767642616 -0.3093277991413556
1507161 -0.8899215170893655 -0.3093106314150665
1512064 -0.8917878375671925 -0.30816518903935386
1516967 -0.8940354930093359 -0.30509545214603206
1521870 -0.8858878973060381 -0.3062704956538154
1526773 -0.8912477422489659 -0.304232030675756
1531676 -0.8904034960141683 -0.30204915065210386
1536579 -0.8928148471091429 -0.30242442769947164
1541482 -0.8905812684281024 -0.3048496771837834
1546385 -0.8951467936739019 -0.3007879183494955
1551288 -0.8968131820554248 -0.3018167375013282
1556191 -0.8926797371777274 -0.2978358604725025
1561094 -0.8967058787153394 -0.30050615503445266
1565997 -0.8928908037363685 -0.2963947737931861
1570900 -0.8988989387565899 -0.30061736987908577
1575803 -0.8950785043371902 -0.2987119286622447
1580706 -0.8926872680526003 -0.2993729905743844
1585609 -0.8942278424087844 -0.2948760264591163
1590512 -0.8936777186938997 -0.2936479922686334
1595415 -0.8983307694306298 -0.2935968289460866
1600318 -0.8956766957562821 -0.29210462551350386
1605221 -0.8992358328639672 -0.2908870222563118
1610124 -0.9011725092672321 -0.2940354517489357
1615027 -0.8981221517179708 -0.29086028887773985
1619930 -0.8966456235515291 -0.2917909539069411
1624833 -0.8974383195958762 -0.2887868885044471
1629736 -0.9006777741984962 -0.29112235955610954
1634639 -0.8985798971389308 -0.2857504689875893
1639542 -0.9013434285407897 -0.2880484887206808
1644445 -0.902105624976852 -0.2867273252929
1649348 -0.9021450931208053 -0.28467104055856846
1654251 -0.9006588336574235 -0.2860449106427783
1659154 -0.9002063501464896 -0.28203394064117504
1664057 -0.9021952063302543 -0.28379714738936407
1668960 -0.9033222737320136 -0.28281826311100605
1673863 -0.900903965280998 -0.2867413686503425
1678766 -0.9027148085530572 -0.2855954708545654
1683669 -0.9032574598715345 -0.28300447473761703
1688572 -0.9030660471882586 -0.2837874314996518
1693475 -0.9058764831783928 -0.2809409000550497
1698378 -0.9018882403547313 -0.2805921367062686
1703281 -0.9031875960640207 -0.2794608446322321
1708184 -0.9040962974587611 -0.281606524182565
1713087 -0.904114706116992 -0.27709795990685376
1717990 -0.9027063382618996 -0.2783379343383501
1722893 -0.9052157039038691 -0.2740433202982743
1727796 -0.905886235858348 -0.2760014279668077
1732699 -0.9040712555426466 -0.27388296355817393
1737602 -0.9054603913996561 -0.2741799604933673
1742505 -0.9075330524146403 -0.2747444314054025
1747408 -0.9067108985599558 -0.2717105960917858
1752311 -0.9049257685042007 -0.2749816402466414
1757214 -0.9131475777855969 -0.27225586159466764
1762117 -0.9068652940493197 -0.27090805907714377
1767020 -0.9082994018630961 -0.2688708080807951
1771923 -0.9092740426367855 -0.2712330213610039
1776826 -0.9088768911743321 -0.2730994003348512
1781729 -0.9103167323807442 -0.26504940702727414
1786632 -0.9084671228547067 -0.26560871631368765
1791535 -0.9102994034045796 -0.26644118362796376
1796438 -0.9069277244486013 -0.27500842045285984
1801341 -0.9088377656695524 -0.2668871727202753
1806244 -0.9103586019779252 -0.26382603511619207
1811147 -0.9114608195427306 -0.26533405049765096
1816050 -0.9115370872888263 -0.2630331226888438
1820953 -0.9136327417800096 -0.26717858514352966
1825856 -0.910402771740221 -0.2657226829662599
1830759 -0.9104933388803862 -0.2661832081992288
1835662 -0.9079618218518992 -0.2608343692893535
1840565 -0.9125348653033767 -0.26463770304199447
1845468 -0.9118047832158417 -0.2631409209582058
1850371 -0.9132435972694847 -0.259700542982429
1855274 -0.9117257319333263 -0.2622524388324221
1860177 -0.9103769057192282 -0.26179411359142196
1865080 -0.9137950579276427 -0.25940238963607304
1869983 -0.9132907175791161 -0.2632093113076761
1874886 -0.9124990660572985 -0.2619931704180675
1879789 -0.9151002383301716 -0.2589993861480131
1884692 -0.9139359958589499 -0.2592031717824881
1889595 -0.9136889661668578 -0.25784060170539114
1894498 -0.9131097909721179 -0.25332301244041416
1899401 -0.9148509078331665 -0.25749308317788905
1904304 -0.9129516319632623 -0.25556004694719586
1909207 -0.9149719270018175 -0.255906108594422
1914110 -0.9168031490966709 -0.25420258192633616
1919013 -0.9195665991551318 -0.2533229199795396
1923916 -0.9158336497220728 -0.2544865337209304
1928819 -0.9163823754484317 -0.25160992117187325
1933722 -0.9165628004445783 -0.2516358815592447
1938625 -0.9151373389466043 -0.2514420713945491
1943528 -0.9178558972361354 -0.2509133437527212
1948431 -0.9168667025241408 -0.24997739718745932
1953334 -0.9174776553775043 -0.251056773316417
1958237 -0.9160593556050696 -0.24935677004558857
1963140 -0.9188869587799762 -0.25083271771178856
1968043 -0.9144926455110638 -0.2524466169588923
1972946 -0.9169364485544842 -0.25030484212088905
1977849 -0.9188362843014625 -0.24908410724094843
1982752 -0.9169441421059978 -0.2500810727373856
1987655 -0.9176714330063316 -0.245073681087419
1992558 -0.9189475693460082 -0.24645786406758868
1997461 -0.9230553740258005 -0.2478524597447197
2002364 -0.9158806529353695 -0.24850017086461282
2007267 -0.9149803830975003 -0.24215007207147826
2012170 -0.9220187631744025 -0.2453189388967915
2017073 -0.9176702053188633 -0.24794915735175474
2021976 -0.918425067216379 -0.24352368861737156
2026879 -0.921146801724588 -0.24327290387991435
2031782 -0.9216516814456558 -0.24292305817343526
2036685 -0.9209205596370673 -0.24610718266652207
2041588 -0.920973735497775 -0.24135438944943086
2046491 -0.9239676495527616 -0.24186658399711142
2051394 -0.9195544632730872 -0.24058007617282645
2056297 -0.9213560682878333 -0.2401146446643732
2061200 -0.9206404098364804 -0.2403930778168903
2066103 -0.9223787495621536 -0.2390342301850887
2071006 -0.921353509875654 -0.23968370911731043
2075909 -0.9250287279543931 -0.23933791902617935
2080812 -0.9184521389930062 -0.2397099350992856
2085715 -0.9239757673925763 -0.23632806306797122
2090618 -0.9242036316565219 -0.23923667402891693
2095521 -0.9218202323607644 -0.23680662242855682
2100424 -0.9196799137534176 -0.23855558091380857
2105327 -0.9230747971235987 -0.23356169460796228
