# HZ S RI R 50
100000 0.536781197292618 -0.7135500052818942
104903 0.5080428675849142 -0.7302162532015363
109806 0.48056829493741643 -0.745973172196934
114709 0.4474462850134506 -0.7608362813773004
119612 0.42319953302943014 -0.7748292955602756
124515 0.39149992629671887 -0.785510333423754
129418 0.3620227930173828 -0.7980026738146807
134321 0.3318573125176556 -0.8051369313290779
139224 0.30335680232680023 -0.8153476598487079
144127 0.27275213305133167 -0.822849257276288
149030 0.23953018628640646 -0.8260051708874931
153933 0.20819587739052986 -0.8284020375788695
158836 0.17905528994646072 -0.8309346678958539
163739 0.14343363766547718 -0.8279992025727202
168642 0.11304234917968238 -0.8171077596555256
173545 0.08691682293546109 -0.8128401044167899
178448 0.057302075621534276 -0.8037984275385323
183351 0.028039473282730216 -0.7865146838643978
188254 -0.0027458871433902535 -0.7658972362955884
193157 -0.028848724914037293 -0.7398294866484012
198060 -0.051479124770912654 -0.7033773306845125
202963 -0.05805162325243777 -0.6475856956752353
207866 -0.03206022890787822 -0.5954703520975546
212769 0.021606883356042352 -0.548846309801928
217672 0.11000599875377816 -0.545636233698331
222575 0.19047883000026494 -0.621669219929639
227478 0.18868212660858383 -0.7115219958508137
232381 0.15303130686300476 -0.7654965270531776
237284 0.1171025206995868 -0.7971348704892446
242187 0.08176975993520176 -0.8180976362201402
247090 0.05407691118991561 -0.8278246497642396
251993 0.02955601994545449 -0.8433929806451432
256896 0.0032947052233875166 -0.8465327514947376
261799 -0.022931215092646347 -0.8544265773826464
266702 -0.046166114490848585 -0.8567380938211007
271605 -0.07192707704607294 -0.8570098800988438
276508 -0.09388619633538862 -0.8556511452747952
281411 -0.11511368971668974 -0.8551470591875785
286314 -0.13437168194441668 -0.8531750341894206
291217 -0.1485724343225542 -0.8470363491823257
296120 -0.16555564963040895 -0.8447975016453785
301023 -0.17972784639272063 -0.8380223394129073
305926 -0.1954286260378803 -0.8338881942279951
310829 -0.20164959161135274 -0.8326130985641733
315732 -0.2131998417268719 -0.8310002906419476
320635 -0.22660066469433846 -0.8314053326757622
325538 -0.2370314914009669 -0.8299069587075906
330441 -0.25117873838237126 -0.8311126596839037
335344 -0.2669878435291305 -0.8245028987689093
340247 -0.2808733037904601 -0.8261724257400003
345150 -0.2895885170544474 -0.8218211972110566
350053 -0.3066697910427651 -0.8193886559488306
354956 -0.3157004131340391 -0.8125609494751588
359859 -0.32827666442477815 -0.8079425609578368
364762 -0.3391682083225433 -0.8061638364597417
369665 -0.34731474354672714 -0.8002991730067037
374568 -0.3577189329197996 -0.798245988199528
379471 -0.37313091460899 -0.7949519289576723
384374 -0.3817145085762661 -0.7955597574332829
389277 -0.38974463794392566 -0.7847220979778313
394180 -0.39930475888031525 -0.7833331272150041
399083 -0.40738668520726345 -0.7794606256724017
403986 -0.41612943697603144 -0.7727599463915013
408889 -0.4260287693829069 -0.7724549234093229
413792 -0.4338886069559223 -0.7637362430972754
418695 -0.4421114177209489 -0.7592916078614591
423598 -0.45037069075172653 -0.756806820477426
428501 -0.46130291833055986 -0.7509521744131739
433404 -0.4649556270328568 -0.7496334149223629
438307 -0.4743679135314542 -0.7417809993911121
443210 -0.47845469088471376 -0.7412484624250196
448113 -0.4861097181676828 -0.7356955617907788
453016 -0.4956933977883845 -0.7318389635072357
457919 -0.5014573721579375 -0.7250657657699373
462822 -0.5082231885416693 -0.7218807951326891
467725 -0.5137704830329419 -0.7159436474160363
472628 -0.5228137078739168 -0.7123881094817432
477531 -0.5288651467151549 -0.7085547023561602
482434 -0.5352303939396208 -0.7014901609481313
487337 -0.5399948781495202 -0.7004477493456718
492240 -0.5455340526468816 -0.6941121952959421
497143 -0.5516407931035525 -0.6904227785420057
502046 -0.5559477286918423 -0.6845817700014625
506949 -0.5617434759559309 -0.6802722606998882
511852 -0.5633919275854863 -0.6756978874005403
516755 -0.5733224552022782 -0.669050429388615
521658 -0.5804069384524602 -0.6689918374326088
526561 -0.5811300161445156 -0.6595061493826567
531464 -0.5873239884308832 -0.653204635278585
536367 -0.5946504306843013 -0.6478028294515852
541270 -0.5970100018368899 -0.6393423862261036
546173 -0.600732504275472 -0.6377974115252565
551076 -0.6079862794367903 -0.6260062619689705
555979 -0.6090470191103102 -0.6157000656112146
560882 -0.6061364297647363 -0.6054879755584308
565785 -0.6057669701094628 -0.5922278996161372
570688 -0.6017075722790481 -0.5816655697905344
575591 -0.5876003626212011 -0.5754361496257064
580494 -0.5655277651780054 -0.5761768937863226
585397 -0.5558894116734898 -0.5936019061553731
590300 -0.5553956544207603 -0.6098482731212755
595203 -0.5642818917580374 -0.6235015921659534
600106 -0.5742949231912875 -0.6330481991239659
605009 -0.5857864323687038 -0.63857832501586
609912 -0.594296642963588 -0.6379235827569317
614815 -0.6063946366854321 -0.6384426083644824
619718 -0.6165006837528376 -0.634614345955445
624621 -0.6225108473690516 -0.6327059285833818
629524 -0.6315301917407788 -0.6302463644167109
634427 -0.6378203704864598 -0.6291589371026162
639330 -0.6446598974056588 -0.6241049826845151
644233 -0.651226323138571 -0.6156089872205331
649136 -0.6530754400327409 -0.6189046701790634
654039 -0.6577864431959334 -0.6118971007723969
658942 -0.6661765941208742 -0.606357531328
663845 -0.6674537260112714 -0.6045982813625638
668748 -0.6698299718359224 -0.6020998502649227
673651 -0.6737513540284507 -0.5974228225320852
678554 -0.679346921967184 -0.5931938642295066
683457 -0.6812273823773202 -0.59301961252493
688360 -0.681589831153835 -0.5852423560892549
693263 -0.6899434506981522 -0.5841554003382332
698166 -0.6924535996928878 -0.5836056047804039
703069 -0.6913472989617514 -0.5788381047794419
707972 -0.6981822207601348 -0.5800331144535197
712875 -0.7028473177588961 -0.5760653535230185
717778 -0.7086363084678798 -0.5713325980512629
722681 -0.7071719418053907 -0.5655787624335359
727584 -0.7108344554251202 -0.5642571780043287
732487 -0.7135383219831165 -0.5621019000477319
737390 -0.7179409538245701 -0.5594664364881362
742293 -0.7194145444431885 -0.5549945289447157
747196 -0.7234579828611076 -0.5521890826081529
752099 -0.7256805251002808 -0.5498105818317705
757002 -0.7293440368150861 -0.545109594127734
761905 -0.7308136568543637 -0.5431708866193052
766808 -0.7310747903401875 -0.5393417120039845
771711 -0.7355992813450641 -0.537284169444092
776614 -0.7392475198075987 -0.5346074194141432
781517 -0.7398993687826972 -0.5343906184758853
786420 -0.7434959859473204 -0.5280888080317692
791323 -0.7485187701761479 -0.5293533045908201
796226 -0.7483243980704342 -0.5258579226452753
801129 -0.7495394852855392 -0.5223597956387178
806032 -0.7523640591342744 -0.5178494884108568
810935 -0.7546067925166284 -0.5181815841037306
815838 -0.7526501553005245 -0.5158813668151128
820741 -0.7536763609226473 -0.5115772280010732
825644 -0.7569537278943808 -0.5090636520085328
830547 -0.7605178181178384 -0.5080547487263122
835450 -0.7647785854016771 -0.5037031941582353
840353 -0.7615016087639319 -0.5021957041605736
845256 -0.7648460630380227 -0.49950289887893834
850159 -0.7689246901653317 -0.49704339234455774
855062 -0.7686941242321093 -0.4954797069213636
859965 -0.771007587942884 -0.4927093591263825
864868 -0.7740851307727669 -0.490031148901853
869771 -0.7749240666245122 -0.48799684154249423
874674 -0.778140753922683 -0.4844203876001854
879577 -0.7745598111165389 -0.48062808081239705
884480 -0.780485574879221 -0.47868911162609834
889383 -0.7815623399449995 -0.472076771493455
894286 -0.7828247080128479 -0.4742087935797555
899189 -0.7830352794006146 -0.47045386258493554
904092 -0.7879512888428268 -0.4659650558920768
908995 -0.7857810030289459 -0.4624329731296598
913898 -0.7886276377757186 -0.45943531163598317
918801 -0.7871749186237816 -0.4536358196313662
923704 -0.7858716173617928 -0.45052199820125866
928607 -0.7852042865020704 -0.44796699224174413
933510 -0.7803590366678234 -0.44585121767131597
938413 -0.7810531702679523 -0.4404813658982747
943316 -0.7741359180372674 -0.44031630097492463
948219 -0.7729770674801023 -0.44500441108529654
953122 -0.7732296503166595 -0.44674102140646854
958025 -0.7704305398395879 -0.4496615698011054
962928 -0.7757091061985895 -0.4529532306603383
967831 -0.7821082286772156 -0.45619865518899605
972734 -0.7822087819023822 -0.4553824996992787
977637 -0.7843192684469483 -0.4555205300804668
982540 -0.7888726649327322 -0.4523908832603507
987443 -0.7947113855425306 -0.45319044885229787
992346 -0.7933804967747999 -0.45358382456394164
997249 -0.7977251116996438 -0.4518494006692568
1002152 -0.7969448465052574 -0.45014247615779496
1007055 -0.8005921735503237 -0.4468870206637969
1011958 -0.8034289230721615 -0.4453681187634922
1016861 -0.8073868382221435 -0.4433031761457911
1021764 -0.8076042687691593 -0.4410799306803334
1026667 -0.8092925453454379 -0.4378957782431802
1031570 -0.8148437685279931 -0.4373023520151006
1036473 -0.8098002789527166 -0.43455974736157077
1041376 -0.8165902468618939 -0.43419296776133054
1046279 -0.8151498099675163 -0.43200329597570497
1051182 -0.8183806514641885 -0.4284625397536213
1056085 -0.8209092629437729 -0.4301238210281612
1060988 -0.8204365261748111 -0.4291369118815385
1065891 -0.8252607263029965 -0.42505097568272493
1070794 -0.8221017907584229 -0.41919571053648547
1075697 -0.8226182220860145 -0.4208541671322391
1080600 -0.8259719806436348 -0.41720463398631114
1085503 -0.8254350435544107 -0.4161247172903038
1090406 -0.8285753941077802 -0.4176089979060122
1095309 -0.8310438689075478 -0.41141237648738144
1100212 -0.8311017993387055 -0.41484901857765133
1105115 -0.8328323414149317 -0.40778250219741924
1110018 -0.8309422752097686 -0.4077988395958544
1114921 -0.8340904410221281 -0.4045472348257022
1119824 -0.835069603136508 -0.40860501233481705
1124727 -0.8340683363634516 -0.4018938454208284
1129630 -0.8373328709395736 -0.3987812332114259
1134533 -0.8396427528513525 -0.39928923591965926
1139436 -0.8385557924376403 -0.3994778958927278
1144339 -0.8388105091917656 -0.3946502225590109
1149242 -0.8398365937568615 -0.39467430685217536
1154145 -0.8421270221309609 -0.3909910066511867
1159048 -0.8440500221892522 -0.39534590229514266
1163951 -0.8439151711961311 -0.38858800101828855
1168854 -0.8390611643390855 -0.390844850101278
1173757 -0.8446760258393503 -0.3841412599943831
1178660 -0.8483011443023278 -0.384829877052982
1183563 -0.8445737459342475 -0.3837279010824116
1188466 -0.8458328392084213 -0.3818913347328296
1193369 -0.8490333530803824 -0.3803772888411236
1198272 -0.8501877378832162 -0.37855293520443084
1203175 -0.8470709449608113 -0.3772529217382995
1208078 -0.8503698500833137 -0.37053452015027805
1212981 -0.8494176507499386 -0.37088687482066474
1217884 -0.8496922155437145 -0.37309399614235395
1222787 -0.8528688781458964 -0.3677703156788442
1227690 -0.8543809093927054 -0.3664754761507812
1232593 -0.8519907138454951 -0.3676069840367747
1237496 -0.8519062436028034 -0.36708928495065013
1242399 -0.8530522227825746 -0.3651612059363852
1247302 -0.8568821937305936 -0.3620487581205866
1252205 -0.8530307236055708 -0.3612129774476817
1257108 -0.8566784278412892 -0.35782006003949135
1262011 -0.8554643302676241 -0.35478901999798135
1266914 -0.8558805386821479 -0.35228690008338515
1271817 -0.8544009048170589 -0.35474111009208237
1276720 -0.853301938849624 -0.34807860086457404
1281623 -0.8500901099389878 -0.34879480033010174
1286526 -0.8495821733493354 -0.34863503766369525
1291429 -0.8515284328550651 -0.35210041828889693
1296332 -0.8481207288370737 -0.3471315988218862
1301235 -0.8479332542582312 -0.3500413079340035
1306138 -0.8488904552167886 -0.35556923464425066
1311041 -0.8485464313729042 -0.35017257013004205
1315944 -0.8494447443343811 -0.3480534821583468
1320847 -0.8543356590103427 -0.3538247654366201
1325750 -0.8498966365920931 -0.3543987332544507
1330653 -0.8546142380006887 -0.3497414150073492
1335556 -0.8594410961138574 -0.3521856673441013
1340459 -0.8591908118212436 -0.35182897113003525
1345362 -0.8590227826132889 -0.3477813323385902
1350265 -0.860980512776769 -0.345310864865295
1355168 -0.8646552629797712 -0.3483920104218994
1360071 -0.8660062943687169 -0.3460571949106409
1364974 -0.8644044847907743 -0.34490409762898583
1369877 -0.8670113947542264 -0.34303068631184314
1374780 -0.8674835001762519 -0.3414471679056366
1379683 -0.8694246086188967 -0.33801677504228606
1384586 -0.8685137753080528 -0.33839627745061496
1389489 -0.8682930233492244 -0.33420464037908154
1394392 -0.8704734316797975 -0.33807886496385603
1399295 -0.8715269090403952 -0.3349543786920666
1404198 -0.8711667120478845 -0.3341890181876808
1409101 -0.8730971717690963 -0.33325608468145734
1414004 -0.87426219613638 -0.3328056436244293
1418907 -0.8716576728948537 -0.32902709032777894
1423810 -0.8771240999852834 -0.3295213645610605
1428713 -0.8754208813421189 -0.32611446161421315
1433616 -0.8743065128545479 -0.32810920698642043
1438519 -0.8770412687836062 -0.3254325314776092
1443422 -0.8748178663869373 -0.32408191483637
1448325 -0.8755359125390146 -0.3211998788648922
1453228 -0.8766833363191723 -0.3223752869918284
1458131 -0.8787725133192849 -0.32119427578794296
1463034 -0.8768086975024196 -0.3193734620204794
1467937 -0.8761417791574501 -0.3168960422423533
1472840 -0.8788061347879077 -0.3182354342177246
1477743 -0.8776415864083008 -0.314554215393575
1482646 -0.8790923188535519 -0.3129213677792019
1487549 -0.8791836312702135 -0.31385072677937453
1492452 -0.8765159719030376 -0.31061862056369505
1497355 -0.8820385906915172 -0.3082283535019544
1502258 -0.881708539215603 -0.3086449771128677
1507161 -0.8800248327886151 -0.30820018031955443
1512064 -0.8846013331981064 -0.30916415890775023
1516967 -0.8862462705898869 -0.3059106532899725
1521870 -0.8799749551831599 -0.30951685498154635
1526773 -0.8839015780105864 -0.3043878755250695
1531676 -0.8832160164193926 -0.3015433374171474
1536579 -0.8853794888760582 -0.3004924987487588
1541482 -0.8832292887061968 -0.30005068522437806
1546385 -0.8848689541746075 -0.3003176591659585
1551288 -0.8868656231767363 -0.2994592854228648
1556191 -0.8793671920756113 -0.2943215385062372
1561094 -0.884757828114645 -0.2956673896716817
1565997 -0.8821103209688324 -0.29618252911475146
1570900 -0.8840653301441805 -0.290805143768485
1575803 -0.8834431150260823 -0.29610084615426374
1580706 -0.8794929750292128 -0.2933703058415677
1585609 -0.879498840428992 -0.29336857745496003
1590512 -0.8768042088618694 -0.2912036661423006
1595415 -0.8839656305395135 -0.2967375069102105
1600318 -0.8807081517744826 -0.2952119015370744
1605221 -0.8834132608875804 -0.29108337847211313
1610124 -0.8837021647403082 -0.2943718700249144
1615027 -0.8862386756504811 -0.2947278734228065
1619930 -0.8860629024339233 -0.29374625349175804
1624833 -0.8854758539275845 -0.2914315319417641
1629736 -0.8886800305466738 -0.2944532118941135
1634639 -0.8899975791552307 -0.2862407015293889
1639542 -0.8911665997797679 -0.2907892552969913
1644445 -0.8908176706685745 -0.28947139078322925
1649348 -0.8933892803700058 -0.2890235906946442
1654251 -0.8913524020773003 -0.28604587172529566
1659154 -0.8926975309984467 -0.28332877246464727
1664057 -0.8953169960826842 -0.28218703362766295
1668960 -0.8928319855814577 -0.2829679260175023
1673863 -0.8929951833685543 -0.28417632774856005
1678766 -0.8926173146683545 -0.28508082533004236
1683669 -0.8982429344568083 -0.27966921561975144
1688572 -0.8937258747051549 -0.27936242561034014
1693475 -0.8971974615179321 -0.27764045378031676
1698378 -0.8961178431351342 -0.27818574150684955
1703281 -0.8935832684273204 -0.27481036130060893
1708184 -0.8967141239035993 -0.2775401186660062
1713087 -0.895547006006888 -0.27387925831375387
1717990 -0.8983144194146249 -0.2725293456239383
1722893 -0.8973698567937051 -0.2691055590755213
1727796 -0.8985042628214364 -0.2707745514450518
1732699 -0.8939535328768129 -0.27031741766727724
1737602 -0.8957632617089907 -0.26629696230501454
1742505 -0.8988215117502283 -0.26708039949663276
1747408 -0.8968765761685292 -0.26426112193886875
1752311 -0.8984756516693309 -0.2632235480723724
1757214 -0.900930855763726 -0.26117960667069834
1762117 -0.8963381227772333 -0.2657259252447685
1767020 -0.8994396851264406 -0.2649195495292505
1771923 -0.8989008885456001 -0.25936165335864475
1776826 -0.8974754217387387 -0.26297406432858444
1781729 -0.9007524308084893 -0.2553792336771627
1786632 -0.8935128795522875 -0.26027656862211723
1791535 -0.8964649892501823 -0.259069482196117
1796438 -0.8952918610031123 -0.26265925360843523
1801341 -0.8942576297092382 -0.2577856183610486
1806244 -0.8927670412653037 -0.257430756158354
1811147 -0.8949285172124037 -0.25384676531276096
1816050 -0.8993028702082796 -0.2586431159309961
1820953 -0.8985542973774021 -0.25983436026047285
1825856 -0.8976000954261755 -0.2605766860767202
1830759 -0.9006806746322205 -0.25826843327687465
1835662 -0.8998295464311523 -0.2550137202972326
1840565 -0.9013613203570056 -0.25445612752799
1845468 -0.9033856396968367 -0.25406832612037555
1850371 -0.9033853291404655 -0.2521690439766326
1855274 -0.9024085459808404 -0.2552814455107583
1860177 -0.9021381291018965 -0.2503776502559933
1865080 -0.9015755273594622 -0.24881922488179226
1869983 -0.9005911067555343 -0.2525020856202319
1874886 -0.8992607114862726 -0.2507053446425405
1879789 -0.9041754750504567 -0.24751692743216597
1884692 -0.9041569684327123 -0.24973362161123216
1889595 -0.9027019641356626 -0.24716135823798163
1894498 -0.9049310725345417 -0.24198830350039346
1899401 -0.9028796046945794 -0.245469421981367
1904304 -0.9029866331744042 -0.24284467552409317
1909207 -0.9058653108532828 -0.244671910811252
1914110 -0.9033432180671386 -0.24307562015669776
1919013 -0.9037886334544049 -0.2417120993366733
1923916 -0.9008320574943889 -0.2406410241521642
1928819 -0.9041416649542785 -0.24106513903451166
1933722 -0.903155847428783 -0.23846740281499834
1938625 -0.9028666194330935 -0.24045257335587747
1943528 -0.9028621764888938 -0.23824661675936454
1948431 -0.9016416582499417 -0.23913597809106146
1953334 -0.9040803344445894 -0.23974359214413077
1958237 -0.9020572427205693 -0.23820096770216995
1963140 -0.9024415798245404 -0.24101859401468295
1968043 -0.9025575060152862 -0.24061268057793528
1972946 -0.9027872390413455 -0.2410010703300534
1977849 -0.9071237013003557 -0.2406135632371151
1982752 -0.9002812517185781 -0.24036221584518558
1987655 -0.907031295453308 -0.23281937456113144
1992558 -0.9093238243374256 -0.2386365874186078
1997461 -0.9067032447893043 -0.23599756305450925
2002364 -0.9070971765809737 -0.24016202938459086
2007267 -0.9063590616664489 -0.2339372758225411
2012170 -0.908712871715333 -0.23536188754525245
2017073 -0.907044516724368 -0.23337763605084863
2021976 -0.9110893823305242 -0.23393639083066126
2026879 -0.9118294899650549 -0.2349591307581358
2031782 -0.912869001405369 -0.22980456411208766
2036685 -0.9130063116914222 -0.22876771295891815
2041588 -0.914970453924526 -0.2269519335753739
2046491 -0.9120412367106966 -0.22770356392823923
2051394 -0.9089926293633115 -0.22500816333738544
2056297 -0.9154260514877305 -0.22766887365343966
2061200 -0.9123722610388699 -0.22422024627211717
2066103 -0.9139674473255819 -0.22252448128597985
2071006 -0.9109230192574891 -0.222840644105028
2075909 -0.9147790836813008 -0.226817857915543
2080812 -0.9099474804167988 -0.22168987234132634
2085715 -0.9139783868696761 -0.22192109911423535
2090618 -0.9138231710447915 -0.2217605665411279
2095521 -0.912554648099077 -0.21701192499915353
2100424 -0.9122732984364514 -0.22060504556642968
