# HZ S RI R 50
100000 0.5368244295363419 -0.7118437881481525
104903 0.5082657304472518 -0.7275604722121358
109806 0.48010875300092964 -0.7448045777628082
114709 0.4476675591435968 -0.7610922142600189
119612 0.4149304701582914 -0.7716837316390838
124515 0.39192499101970124 -0.7846927497471883
129418 0.36091639499206246 -0.7964981627088581
134321 0.33047274369215207 -0.803863509481509
139224 0.30082213213054537 -0.8144661722302321
144127 0.271595222370137 -0.8215251907109514
149030 0.2366009506612477 -0.8239721817346565
153933 0.2056400736542063 -0.8255155442209857
158836 0.17399171344119044 -0.8280009903384352
163739 0.13736760548649243 -0.8245632982570531
168642 0.1103481551418647 -0.8141684192924672
173545 0.08089022300462158 -0.8081414755232651
178448 0.0514771444983999 -0.7948822415781366
183351 0.01830395614800843 -0.7771658136755543
188254 -0.009645325927165346 -0.753181076762159
193157 -0.03692192270066441 -0.725101879219764
198060 -0.058445512435041994 -0.6858253037049784
202963 -0.06354745716442532 -0.6245319330474546
207866 -0.03164835327092389 -0.5719221373769103
212769 0.028481388418553612 -0.5232769919498181
217672 0.122849873108126 -0.5215056311896455
222575 0.20841085416371122 -0.6012251881316145
227478 0.20858474546685268 -0.6952475321943278
232381 0.1717107363819199 -0.7548949434986488
237284 0.1352401370990682 -0.7888479668970756
242187 0.10131102689600835 -0.8117746443091817
247090 0.06996579406146507 -0.8228728847503496
251993 0.046104380410869 -0.8385234695533101
256896 0.020265805253915043 -0.8444345520122443
261799 -0.008570929506329912 -0.8524370769248023
266702 -0.032602395141100186 -0.8560824018409425
271605 -0.059177786011226044 -0.85692635844536
276508 -0.07965690482413082 -0.8563552807985461
281411 -0.10321589007378175 -0.8556780826231523
286314 -0.12101957430226062 -0.8532975924117421
291217 -0.13708920174122483 -0.8469511610615688
296120 -0.15508222247026887 -0.8457052032089104
301023 -0.17085471431997815 -0.839771041296203
305926 -0.18317389710142415 -0.835231496612144
310829 -0.19080240792905487 -0.8318047122632942
315732 -0.20440369727391053 -0.8317444725176036
320635 -0.21583495103229372 -0.8311125912868029
325538 -0.22759180694492526 -0.8296455235122837
330441 -0.24121193046094017 -0.8317974850864418
335344 -0.2585231045713814 -0.8305169607368447
340247 -0.2702690687459919 -0.8282654666718088
345150 -0.28457810761824504 -0.8247577966157505
350053 -0.29782793132038354 -0.8217111372576057
354956 -0.3069855089983923 -0.8160696562334466
359859 -0.320146196935565 -0.8097904189221067
364762 -0.33183064007182983 -0.8107157117470284
369665 -0.33962012123648333 -0.8037578240487563
374568 -0.35167011141255106 -0.8022855921620465
379471 -0.365926097712357 -0.7975924477762933
384374 -0.3727455515056337 -0.7947780285005193
389277 -0.3815598556986188 -0.7894201761624762
394180 -0.3931777129344432 -0.7847898964999256
399083 -0.4018625437161211 -0.7811030998662138
403986 -0.41102809128921347 -0.7742777587011361
408889 -0.417956144851065 -0.774453753388304
413792 -0.4251415909349068 -0.7673568127779351
418695 -0.43615414133388175 -0.762926058401837
423598 -0.4445100765691951 -0.7579316512054418
428501 -0.4544863773863154 -0.7544295991404926
433404 -0.46101029545293737 -0.7536297624319667
438307 -0.4696534770177363 -0.7427716668234507
443210 -0.47327278721604943 -0.7436708802430712
448113 -0.48371027850683546 -0.7376849573870436
453016 -0.4878481451864342 -0.7344227305507557
457919 -0.4947121099444076 -0.7280662557906988
462822 -0.5048348572190211 -0.7261624229691434
467725 -0.5092565373882937 -0.7182891791498169
472628 -0.5184501639739666 -0.7150366179622114
477531 -0.523011858632128 -0.7089088603589287
482434 -0.5294484887945407 -0.7028132660362294
487337 -0.5344204172330205 -0.7013316836746479
492240 -0.5418823037805857 -0.6949340174209553
497143 -0.5489088349074266 -0.6926124000208462
502046 -0.5509031466709475 -0.6836614643259947
506949 -0.5569295939070796 -0.6822442259083452
511852 -0.5613547253183732 -0.6749552667913441
516755 -0.5702260176679959 -0.6724382133897244
521658 -0.5765170004741154 -0.6700479584996628
526561 -0.58094957211848 -0.6612710014609643
531464 -0.5852577283160536 -0.6543613562439609
536367 -0.5932916946297623 -0.647348150098438
541270 -0.5932788409002591 -0.6379537300388023
546173 -0.5993729337266851 -0.6347335998347734
551076 -0.6016948496343617 -0.624646323653452
555979 -0.6055779390668877 -0.6119356570776424
560882 -0.6028720022198808 -0.6029571663008594
565785 -0.6005869860580454 -0.588224232551712
570688 -0.5923821746533761 -0.5745834919807686
575591 -0.5748660832261747 -0.5721288321716755
580494 -0.5549801154621108 -0.5763410320458092
585397 -0.541910440860805 -0.5926620969985169
590300 -0.5449809609662855 -0.6101405454557041
595203 -0.5549558627881633 -0.6262354651134645
600106 -0.5640394342792557 -0.6335522456606943
605009 -0.5756057189371664 -0.6418250252595805
609912 -0.5878506978557881 -0.6422981658481909
614815 -0.5973284539562284 -0.6425433170617826
619718 -0.6076326481284027 -0.6409039981795722
624621 -0.6160845195359594 -0.6385556995891712
629524 -0.6246781875785502 -0.6345935472056558
634427 -0.6333045727587104 -0.6321343071012914
639330 -0.6400006410888546 -0.627167865273432
644233 -0.6452300582586702 -0.62352773004262
649136 -0.6480984781855965 -0.6207903618042286
654039 -0.6543846474591184 -0.6130828929876466
658942 -0.6613963527115236 -0.6128463765009239
663845 -0.6630174704918993 -0.6089980338185309
668748 -0.6662701832757484 -0.6034016791053615
673651 -0.671530582088665 -0.6002750488033851
678554 -0.6738421303569093 -0.5960614454870617
683457 -0.6777245471227835 -0.5959587376885642
688360 -0.6762834837083443 -0.5911538991999697
693263 -0.6852605069348037 -0.5872077290991449
698166 -0.6888606793393184 -0.5853879775621754
703069 -0.6878835901592845 -0.5821635499214859
707972 -0.6907969996000897 -0.584822599662988
712875 -0.7005948538139658 -0.5787930293982737
717778 -0.70362018198536 -0.5775930711649537
722681 -0.7038965538575231 -0.5686498323753061
727584 -0.7076413291010755 -0.5691434096683258
732487 -0.7078637167158718 -0.5658555791093508
737390 -0.7145190560277236 -0.5622037141882917
742293 -0.7185575445124214 -0.55787347765594
747196 -0.721051929348651 -0.554458422380267
752099 -0.7212599510638188 -0.5532107591259549
757002 -0.7262802018306865 -0.5495192243847808
761905 -0.7276378651412433 -0.546322883219965
766808 -0.7283318537285789 -0.5440599517600448
771711 -0.7304152574920959 -0.5426144524760818
776614 -0.7348246544712447 -0.5382502984035351
781517 -0.7351834674617451 -0.5360656836069844
786420 -0.7397806293208883 -0.5321691904602344
791323 -0.7424988956114651 -0.5322515918999009
796226 -0.7467563184798448 -0.5275579728301922
801129 -0.7457659679993865 -0.5258730846226277
806032 -0.7491192267574731 -0.5200207878810207
810935 -0.7508423120887132 -0.5228460376703438
815838 -0.7492402901372321 -0.5179463896437968
820741 -0.7514483519055652 -0.5147475464652962
825644 -0.755013532957847 -0.5116208344513606
830547 -0.7554223241071701 -0.5119789416727948
835450 -0.7608043200915514 -0.5048728799051743
840353 -0.759261299409838 -0.505025697346361
845256 -0.7621015269149429 -0.4995345019807666
850159 -0.7666714870150867 -0.49894728811034855
855062 -0.765111634091301 -0.4948523099946453
859965 -0.7710042901719766 -0.49385292518840446
864868 -0.7691049131596489 -0.49148788707664365
869771 -0.7730703342063726 -0.4892002973746084
874674 -0.7749159166713973 -0.4866914895302041
879577 -0.7746128728646323 -0.48072560749067855
884480 -0.774091295698957 -0.47964168776634025
889383 -0.7803025941322653 -0.47404698716134475
894286 -0.7804774186640285 -0.47483964095160797
899189 -0.7831696668303146 -0.47053061766433785
904092 -0.7827239952994102 -0.46701653493705303
908995 -0.7842308328116863 -0.4628446663697452
913898 -0.782524583444318 -0.4607186421369395
918801 -0.7841357524755046 -0.4537205723887683
923704 -0.7813266362891659 -0.4500194666955045
928607 -0.7818270317682866 -0.4492766270425735
933510 -0.7772483910770928 -0.44548035446347717
938413 -0.775565285818702 -0.4404196643489877
943316 -0.7694548978222873 -0.4434143751473652
948219 -0.7674656114425014 -0.4478588809600119
953122 -0.7680421850554219 -0.44924562115026234
958025 -0.7649094693451146 -0.454424292725205
962928 -0.7708549491160337 -0.4552657895849859
967831 -0.7736968874728473 -0.4587206274777814
972734 -0.777757086043442 -0.4569650976974561
977637 -0.7792680294583729 -0.4601115626891804
982540 -0.7839259040905998 -0.45566996956940586
987443 -0.788465642455225 -0.45676895626146297
992346 -0.7910929930899944 -0.455807468658493
997249 -0.7935301682084877 -0.4544976982394263
1002152 -0.7929399675352972 -0.4511339251195536
1007055 -0.7983699101279096 -0.45007616863118105
1011958 -0.801151267100676 -0.44838978472850516
1016861 -0.8050548038218199 -0.44665282601042405
1021764 -0.8075852313530734 -0.4424181131617422
1026667 -0.8056135798119904 -0.43995548007136737
1031570 -0.8100647525034037 -0.4415415961684712
1036473 -0.8066408748590773 -0.43533638454759677
1041376 -0.8140439542948593 -0.43676827127131174
1046279 -0.8134175004676497 -0.4348025031114402
1051182 -0.8136941075749845 -0.43185828216004807
1056085 -0.8182651249456891 -0.4316205049998131
1060988 -0.817918946358913 -0.4310653488043266
1065891 -0.8207537813284119 -0.42704323313117
1070794 -0.8193183816716608 -0.42408641400707797
1075697 -0.8232264416392712 -0.4234448794671634
1080600 -0.8230536685493008 -0.4197581944200352
1085503 -0.8219538992969214 -0.4169340793341065
1090406 -0.8257199708274038 -0.41527090677079015
1095309 -0.825621874310869 -0.41311336946704313
1100212 -0.8322030160256432 -0.4179680079840794
1105115 -0.8285403321202561 -0.4121248647123612
1110018 -0.832892581142063 -0.4119799350159623
1114921 -0.8308710829178436 -0.4085306413901967
1119824 -0.8311488518259252 -0.40746543751674785
1124727 -0.8309578979085933 -0.4071470473868437
1129630 -0.8361902553650009 -0.40115789971988086
1134533 -0.8355203097644672 -0.40248805049491015
1139436 -0.8387057194724261 -0.4006579148110721
1144339 -0.8376197659612354 -0.3974804898755272
1149242 -0.837570879675592 -0.3961864017870164
1154145 -0.8429996137074122 -0.394107400015777
1159048 -0.8408104512809477 -0.3944356393727601
1163951 -0.8423674278094981 -0.39308290469558876
1168854 -0.8381970422298931 -0.38891160888980025
1173757 -0.8446402666756905 -0.38755160267497435
1178660 -0.8416246182481707 -0.3860692898549713
1183563 -0.8429501687007217 -0.38331493716726156
1188466 -0.8433450967054428 -0.381882843166906
1193369 -0.8452490052294634 -0.38208158809672954
1198272 -0.8455859754927072 -0.3795407344481155
1203175 -0.8477875533739735 -0.3771182361902245
1208078 -0.8470716394980122 -0.37411606306720063
1212981 -0.848258070529963 -0.373507550435103
1217884 -0.8467338819046953 -0.3759729106455171
1222787 -0.8518202582365519 -0.37011247012543275
1227690 -0.8497047297352225 -0.3690578520280617
1232593 -0.8482985524770076 -0.36678346026149095
1237496 -0.8512177395583415 -0.3647437951039149
1242399 -0.8505916826741248 -0.3646964817066103
1247302 -0.851574867246222 -0.3654035022706588
1252205 -0.8520849337121655 -0.35755855320485924
1257108 -0.8553546515817035 -0.3587081477124647
1262011 -0.8501739739005437 -0.357096490340649
1266914 -0.8546877813223777 -0.35543626998924077
1271817 -0.8519802873856624 -0.35618840212551517
1276720 -0.8511029289666955 -0.3502530126078784
1281623 -0.84760524962771 -0.3476555675449101
1286526 -0.848430425182848 -0.35009433755234576
1291429 -0.8443003442770194 -0.3527750135557364
1296332 -0.8470916977783526 -0.3477799263846366
1301235 -0.8442406502131309 -0.3537745542252995
1306138 -0.8480563419270655 -0.3576213297250791
1311041 -0.8459908382156157 -0.35219391227104785
1315944 -0.8463283552472414 -0.3534954025177231
1320847 -0.8490435422249752 -0.3557085137725475
1325750 -0.8495792740162075 -0.35393452309494877
1330653 -0.852641852891057 -0.3524603072466333
1335556 -0.8594996603724275 -0.35072729972420685
1340459 -0.8576177747586478 -0.35431242811093894
1345362 -0.8590230653967172 -0.34942013782305964
1350265 -0.8588989140969627 -0.3509385291421406
1355168 -0.8626389055666966 -0.34815107931107026
1360071 -0.866998544858138 -0.3477839702436951
1364974 -0.8646332589701914 -0.3441768378435241
1369877 -0.8660731595007861 -0.34679372803125935
1374780 -0.8663228213679979 -0.34331634080979107
1379683 -0.8712089538801207 -0.34223159537811576
1384586 -0.8654879410755703 -0.34064664162823427
1389489 -0.8707056415134939 -0.337868469470164
1394392 -0.8685744302254479 -0.3410313199876089
1399295 -0.8665052527297977 -0.33735243625990885
1404198 -0.8700026306329867 -0.33604058853019514
1409101 -0.8724647497387199 -0.33420326357462443
1414004 -0.8732116810234503 -0.3345420155788945
1418907 -0.8683564557391388 -0.3321283933913719
1423810 -0.8706439915493 -0.3310823963868636
1428713 -0.8745403127467072 -0.3307950695742728
1433616 -0.8738398504686226 -0.328323113625682
1438519 -0.8739001058020931 -0.32660985306548435
1443422 -0.8753294914180417 -0.3242815512554653
1448325 -0.875991621335444 -0.3235198989886623
1453228 -0.8746895342610803 -0.3241846218449736
1458131 -0.8742240209023093 -0.32230024716101907
1463034 -0.8761927430798441 -0.31943623734038756
1467937 -0.8776501435547263 -0.3195061791431906
1472840 -0.8768841067175748 -0.31866945920700596
1477743 -0.8783724322530174 -0.3153401692394041
1482646 -0.8778128388385668 -0.3144906909185765
1487549 -0.879569852414097 -0.31655630840222637
1492452 -0.8771113794981427 -0.31153663606151255
1497355 -0.8819538016793247 -0.3109771545161546
1502258 -0.8780101975413391 -0.3100534705707882
1507161 -0.8804344508547026 -0.3080844712133057
1512064 -0.8795970309519041 -0.31162343572243095
1516967 -0.8828783982376016 -0.30447879756727503
1521870 -0.8789290383144892 -0.30630730529474387
1526773 -0.8825386068789387 -0.3040420166008056
1531676 -0.8816606847428682 -0.3041749553763103
1536579 -0.8835055165444952 -0.3013768049144032
1541482 -0.8822574677886696 -0.30236405341426126
1546385 -0.8811598229932446 -0.29876815000214607
1551288 -0.8822544135271044 -0.29903483720337776
1556191 -0.8817782044874556 -0.2964079381104505
1561094 -0.8845701011917351 -0.29773611615208895
1565997 -0.8806078083814938 -0.2910405832073089
1570900 -0.8837864853726585 -0.29477819046085973
1575803 -0.8779807669915135 -0.29450539456242764
1580706 -0.8740881424931102 -0.2949894487498456
1585609 -0.8804401478244325 -0.29708118122142474
1590512 -0.8738256132463831 -0.2940423639649897
1595415 -0.880526649161925 -0.29876770950189757
1600318 -0.8782259458949973 -0.2976670110221922
1605221 -0.8819370358693649 -0.2956575415520768
1610124 -0.8848087496503575 -0.29634956532568496
1615027 -0.8847427012712011 -0.2943756977711774
1619930 -0.8828436435962588 -0.29679243519412224
1624833 -0.8859987014271805 -0.29148138632614823
1629736 -0.8904209837963879 -0.29226852586105234
1634639 -0.8884074933368855 -0.2874315023702636
1639542 -0.8911807058823917 -0.29127175580083836
1644445 -0.8923608903307179 -0.2891595773961076
1649348 -0.8909556897076991 -0.28787177989405055
1654251 -0.8914164563736853 -0.28847573042537034
1659154 -0.8901866850292335 -0.28359233576011506
1664057 -0.8944137851878153 -0.28211836847687954
1668960 -0.8956192761119166 -0.2831782202978602
1673863 -0.892587913441422 -0.2839857075964202
1678766 -0.8931990563879123 -0.2815627076467571
1683669 -0.8961340922703159 -0.27964275486208817
1688572 -0.8936521613559585 -0.28055757075228394
1693475 -0.8963610640099111 -0.2770558546827837
1698378 -0.8964215761621077 -0.2745984735389409
1703281 -0.8934195466972475 -0.2757296328780247
1708184 -0.8925096621631513 -0.2759728562275383
1713087 -0.8940499798789671 -0.274343222911966
1717990 -0.8957721595382364 -0.2745287496332169
1722893 -0.8944803516848834 -0.268197610366164
1727796 -0.8971060383314596 -0.2672227836332602
1732699 -0.8931974968753087 -0.27210222441721865
1737602 -0.8962386028532991 -0.2698415094963073
1742505 -0.8971697654768918 -0.2657105176121377
1747408 -0.8982071828000865 -0.26479366730487813
1752311 -0.8926154452248233 -0.2665767605630783
1757214 -0.8996174203477024 -0.26249371497446533
1762117 -0.895240278863156 -0.26633639362108147
1767020 -0.8958840063548682 -0.2609313950217779
1771923 -0.8957209367421304 -0.2593979756152739
1776826 -0.8981979076149691 -0.26596160188196166
1781729 -0.8967475663407946 -0.2591573718590824
1786632 -0.8918280140998136 -0.2567827955372302
1791535 -0.8947028318736954 -0.25892240053900545
1796438 -0.893205378897653 -0.26223126719488987
1801341 -0.8915314898433709 -0.25752706878591813
1806244 -0.8918711055515383 -0.25606646901580404
1811147 -0.894327691222613 -0.25742582440977946
1816050 -0.8942676306022643 -0.2542208692141873
1820953 -0.8994914487706279 -0.25818368277133635
1825856 -0.8995889643369454 -0.25576793225438965
1830759 -0.8977165046107985 -0.2598884625391248
1835662 -0.8954668826842582 -0.2567255669305035
1840565 -0.9009662098485474 -0.25606582517008897
1845468 -0.9025476933366163 -0.25592156252746756
1850371 -0.8999095794955515 -0.25650303481622644
1855274 -0.9029948485990168 -0.2549120630075172
1860177 -0.9009085616098494 -0.2514573462784902
1865080 -0.8991567929036807 -0.24870394059965317
1869983 -0.9012390084818213 -0.25622000374873294
1874886 -0.8982173963198908 -0.2511017482649479
1879789 -0.9051775569104767 -0.25021702459212836
1884692 -0.9022233304808528 -0.24829686730727643
1889595 -0.9006065569032282 -0.24716370246843805
1894498 -0.9007376766706401 -0.2413092078791643
1899401 -0.9051802915495298 -0.24697312671488972
1904304 -0.9001093835670586 -0.2448227416534689
1909207 -0.9053361331265926 -0.2434400747965784
1914110 -0.900736565009636 -0.24406262405967089
1919013 -0.9041264352889742 -0.24068649015325025
1923916 -0.8996237293500359 -0.239160395255924
1928819 -0.9029515069121836 -0.24167581837185764
1933722 -0.899207350280553 -0.24160740465924252
1938625 -0.9008731659986872 -0.24031260866593757
1943528 -0.9016093687945569 -0.24112966366832778
1948431 -0.9006693904317558 -0.24064925312168683
1953334 -0.9000190635058855 -0.23792651806118031
1958237 -0.9036474053874536 -0.23959110303947806
1963140 -0.9017308554341927 -0.24190023369702354
1968043 -0.9014956744336228 -0.2416997528967565
1972946 -0.9030004319931607 -0.2389347295174563
1977849 -0.9068693687865953 -0.24078757031073103
1982752 -0.900300154418261 -0.24087297509990147
1987655 -0.906474504443914 -0.23543118428296395
1992558 -0.9077901593314271 -0.23656993186975006
1997461 -0.9064006519420391 -0.23542557433392525
2002364 -0.9064720593979416 -0.23633825059244262
2007267 -0.9068074853227251 -0.23252997043501433
2012170 -0.9101277968471291 -0.23489515976018624
2017073 -0.9064750242615984 -0.23403152019638648
2021976 -0.9093334751892335 -0.23274308198010832
2026879 -0.9108832031466582 -0.23275199061860438
2031782 -0.9103215318784933 -0.2287059544554054
2036685 -0.9095565248855669 -0.22848287876314646
2041588 -0.9118431410201765 -0.22742106046080224
2046491 -0.9112529410680679 -0.22884287270003154
2051394 -0.9134028771093787 -0.22533077910500138
2056297 -0.9111689494150522 -0.22518304116903287
2061200 -0.911735535051498 -0.22437459958206543
2066103 -0.9154514055221936 -0.2248257282094897
2071006 -0.9106812699691607 -0.22228394066464688
2075909 -0.9136493297861232 -0.21960708430696663
2080812 -0.9061096979595236 -0.21941832848144638
2085715 -0.9116663181524041 -0.22119741806783674
2090618 -0.9157753805279061 -0.22118529452588614
2095521 -0.9132672209576844 -0.2168553690658354
2100424 -0.9097294868434802 -0.21940993308394616
2105327 -0.9125909964651571 -0.21935911953315845
