# HZ S RI R 50
100000 0.5408788280919514 -0.719599220604011
104903 0.5133471224490829 -0.7362988673569074
109806 0.4857965406827006 -0.7528854516193799
114709 0.45523446019844255 -0.7674482809479081
119612 0.43172098458596037 -0.7796109526804595
124515 0.404430184987043 -0.7913017558397993
129418 0.377006199276669 -0.804055887413584
134321 0.3510352879743688 -0.8103794568157213
139224 0.3261761323277738 -0.8209721990303893
144127 0.30359539935139024 -0.8306836275274418
149030 0.27507050732801425 -0.8361883277149749
153933 0.2498017649680437 -0.8409165919958995
158836 0.22918335672839105 -0.8485404819485455
163739 0.20486886254890407 -0.8529169889461394
168642 0.18320088709428237 -0.8557797783014606
173545 0.15935663693921925 -0.8605253791292886
178448 0.1393193470189593 -0.8625999482498564
183351 0.11528218446799758 -0.8639586828694561
188254 0.0934248277944986 -0.8647649208097609
193157 0.07187904225542895 -0.8660791347471231
198060 0.05529153582347959 -0.8666889705674155
202963 0.0334611025261468 -0.8700652370120764
207866 0.013763437165377576 -0.8694648340259336
212769 -0.003884481748709591 -0.8651274951334199
217672 -0.02168495176204992 -0.8659284392213601
222575 -0.038787982075628995 -0.8672283287532373
227478 -0.05473558170288709 -0.8667061680109047
232381 -0.07145345986719173 -0.866958905236231
237284 -0.08895838743046013 -0.8628075199607986
242187 -0.10710144526790769 -0.8641339949538012
247090 -0.12070669109409153 -0.8580537880591232
251993 -0.13263811822675806 -0.8596456589837296
256896 -0.15141172979829004 -0.855745051381397
261799 -0.16820592916882757 -0.8541839182184466
266702 -0.18049918618482708 -0.8509428353054332
271605 -0.1968547191402272 -0.8465680077058892
276508 -0.20930684432431182 -0.8411636421682382
281411 -0.22521509973804765 -0.8419193237561249
286314 -0.23536702397458312 -0.8379121229766986
291217 -0.24767235108607805 -0.8352414986465637
296120 -0.2614730384298731 -0.8312727192312093
301023 -0.27093354398079283 -0.8285314015237191
305926 -0.28560822834176264 -0.8246511079231695
310829 -0.29497140235715996 -0.822301349873149
315732 -0.30547879336671546 -0.8190067650385374
320635 -0.31990590435195 -0.8136315974809357
325538 -0.3284568002358098 -0.8078795378130055
330441 -0.3383774166475581 -0.8077248285110206
335344 -0.3501702414453299 -0.8044918708372104
340247 -0.35945250093797815 -0.798987347350423
345150 -0.3686978418502779 -0.7951095472352241
350053 -0.3794465171608616 -0.7906198219915829
354956 -0.3869652691669915 -0.7856389548747491
359859 -0.39880024384392476 -0.7824829367315079
364762 -0.4063663196105266 -0.7776244406915248
369665 -0.4126142187472865 -0.7731855873216289
374568 -0.4225663368377636 -0.7705231134723294
379471 -0.4323614863400531 -0.7660826419569361
384374 -0.4395667424316846 -0.7678169800634843
389277 -0.4467786988919311 -0.7574186051600009
394180 -0.4550461278923203 -0.7540136351244603
399083 -0.46372081562790596 -0.7518536157078173
403986 -0.4698040713148883 -0.745232683300634
408889 -0.47551070230586523 -0.7435573936865334
413792 -0.4835325853478298 -0.7373558110813039
418695 -0.4907014121695912 -0.7334215709361324
423598 -0.49860301556532316 -0.72905940029516
428501 -0.5066734004222228 -0.7256030662183824
433404 -0.5112585814600406 -0.723916815062979
438307 -0.519152338486824 -0.7151130377448439
443210 -0.5235986288014751 -0.7163778471242245
448113 -0.5287202639144795 -0.7113354297341825
453016 -0.5351724695722492 -0.7088779628390053
457919 -0.539927550732105 -0.7028954307131616
462822 -0.5464365105995399 -0.6988277862119892
467725 -0.5533481610927953 -0.6955291318326152
472628 -0.5574223093634835 -0.6925076681338488
477531 -0.5636409224538006 -0.6871516102648667
482434 -0.5677696015895072 -0.6814648360691637
487337 -0.574927520015963 -0.6831236007315469
492240 -0.578705415440648 -0.6783084495027037
497143 -0.5843692388854139 -0.6755513504929777
502046 -0.5884451274191711 -0.669232771908048
506949 -0.5934558430492178 -0.6658061098855496
511852 -0.5936627989044047 -0.663524936813455
516755 -0.6040912011632295 -0.6576924335043595
521658 -0.6117308417010108 -0.6591564040402085
526561 -0.6107597460038758 -0.6530313245974745
531464 -0.6148540714447425 -0.6497087471957312
536367 -0.6210798975039775 -0.6464377056710117
541270 -0.622503749164206 -0.6409469319864791
546173 -0.625084436490641 -0.6407321039813626
551076 -0.6319384743692992 -0.6362136669066875
555979 -0.6376785660011539 -0.6328857857740049
560882 -0.6371382798486043 -0.6295358791229902
565785 -0.644738954407805 -0.623966987673207
570688 -0.6482223443761111 -0.6206911755271372
575591 -0.6537163807016193 -0.6198670593376316
580494 -0.6522625114216233 -0.6124609529777869
585397 -0.657600858374851 -0.6113387632527753
590300 -0.6609679739762939 -0.6080989534015098
595203 -0.6664398278988027 -0.607780144220681
600106 -0.6674138484757564 -0.6044321343752375
605009 -0.6751136456936161 -0.6004180575621478
609912 -0.6750818776084409 -0.5994130506125002
614815 -0.6771618852366851 -0.5956342314543549
619718 -0.6802028971561401 -0.5936224268078553
624621 -0.6822198230789434 -0.5894493912411662
629524 -0.6877012148148767 -0.5863108792621317
634427 -0.688840529997578 -0.5866486864376214
639330 -0.6950846744638406 -0.5811954557004242
644233 -0.6973166104605785 -0.5751795574778596
649136 -0.6984398088876511 -0.5774770319238508
654039 -0.700906492237559 -0.5725264283760931
658942 -0.710128079827573 -0.5687613458204234
663845 -0.7079771825188474 -0.5678501686692099
668748 -0.711084009377947 -0.5621127932752583
673651 -0.7121197865405416 -0.5589016530981892
678554 -0.7163318816308725 -0.5588893597577075
683457 -0.7163113456175408 -0.558032517355005
688360 -0.7199661490182746 -0.5508919668667108
693263 -0.7249163993419303 -0.5487962210976228
698166 -0.7271093519928876 -0.5472296213846797
703069 -0.727385609432196 -0.546308420407806
707972 -0.7306867319069538 -0.542485179613847
712875 -0.7332662454346727 -0.5416325947971661
717778 -0.7349372483884857 -0.5387608014121262
722681 -0.7366036654504741 -0.5341638608936606
727584 -0.737993363828187 -0.5325177220433834
732487 -0.7409169544496143 -0.5280488037682781
737390 -0.7446735156027047 -0.5276759568264653
742293 -0.7449171487515468 -0.5252687480289614
747196 -0.7510386126023065 -0.522878272407924
752099 -0.7509696455525419 -0.5182161850027531
757002 -0.7536165045348149 -0.5177742045957462
761905 -0.7537158543928798 -0.5170924358346076
766808 -0.7543042492566295 -0.5145524011198038
771711 -0.7585984409352686 -0.5120903597612954
776614 -0.7610210464987214 -0.5096549705511824
781517 -0.7610683872287162 -0.5071060814358993
786420 -0.7644263938675965 -0.5023494051256217
791323 -0.7685619502675286 -0.5041020432569019
796226 -0.767841264112281 -0.4990042629787076
801129 -0.7675748789909275 -0.5009164868668968
806032 -0.7705289961167278 -0.4944027421067986
810935 -0.7736489522175167 -0.49538964244438377
815838 -0.7724532853231986 -0.49573877208648076
820741 -0.7742523750965763 -0.4902605934567794
825644 -0.7754367803970148 -0.4867782824848944
830547 -0.7817295238941034 -0.486818071190561
835450 -0.7830882397066604 -0.48462980317232884
840353 -0.7767907591519834 -0.48044729339723796
845256 -0.7824820908242489 -0.4799042897630312
850159 -0.7862829681270274 -0.47816612575047307
855062 -0.786927997082732 -0.47631729947728607
859965 -0.7873770773548855 -0.4734422179928127
864868 -0.7915941733467403 -0.4724631390071375
869771 -0.7908511824271616 -0.4713394192092932
874674 -0.7938786487772818 -0.46870643014331387
879577 -0.7922661094519473 -0.467088927621724
884480 -0.7948157008517417 -0.46378769715435725
889383 -0.7972362568881209 -0.4606767304904148
894286 -0.7978978320853853 -0.4591660579159779
899189 -0.8008467547539978 -0.4578839458800219
904092 -0.801593762323306 -0.45594798164593414
908995 -0.8043016638351874 -0.4519311162202584
913898 -0.8057283269119458 -0.4536177348502576
918801 -0.8031736225236566 -0.4513175891015196
923704 -0.8028625992055005 -0.44935528179005496
928607 -0.8086904410303845 -0.44832587790696776
933510 -0.8081568965225271 -0.44719825270304103
938413 -0.8105387064565406 -0.441011856900589
943316 -0.8102344753189896 -0.441749855016337
948219 -0.8143553762431545 -0.4424657477750212
953122 -0.8169577312778328 -0.4385486273130879
958025 -0.8086743018974456 -0.43556229318819767
962928 -0.8165881627832842 -0.4341355562100627
967831 -0.8167292538211347 -0.4354315761159162
972734 -0.8189144151602512 -0.4299014493208741
977637 -0.8160820658645223 -0.4324112458464174
982540 -0.8218146503177006 -0.4267327479869216
987443 -0.8252743229279775 -0.4305205443026455
992346 -0.8238936670763971 -0.4263442645251503
997249 -0.824420152166055 -0.42420536829524447
1002152 -0.8240744889691558 -0.42097735228714267
1007055 -0.8245022991763266 -0.42074763179133573
1011958 -0.8283698734990231 -0.4202157634558885
1016861 -0.8278941144819233 -0.41800762145239223
1021764 -0.8314698046388902 -0.4165210400572884
1026667 -0.8294147441906654 -0.4130253633988741
1031570 -0.8321888973119874 -0.41333776700508923
1036473 -0.832011267420561 -0.40967588122204796
1041376 -0.8315074543731819 -0.41255736464181497
1046279 -0.8318048662108944 -0.40785421909087466
1051182 -0.8362209451112538 -0.40757059873244944
1056085 -0.8379677870982595 -0.4089447203815003
1060988 -0.8370086095917976 -0.4079173347048331
1065891 -0.8387038881321163 -0.4054965379364501
1070794 -0.83848438233438 -0.40341669133265823
1075697 -0.8387182570685432 -0.4002187859802095
1080600 -0.8399134053548395 -0.39952345705093983
1085503 -0.8384406168952079 -0.3987448832834649
1090406 -0.8400375610185621 -0.39692326762799074
1095309 -0.84525244174213 -0.39549280193859854
1100212 -0.8433344913258719 -0.3976157834967954
1105115 -0.8423468103099377 -0.3918119708282379
1110018 -0.8452933391764879 -0.3925734137808105
1114921 -0.8455895267030272 -0.38680021529680364
1119824 -0.8443950776464265 -0.3924206189880434
1124727 -0.8478366444741897 -0.38610877193484167
1129630 -0.8495471351277963 -0.3836890319362251
1134533 -0.848560576923283 -0.38546582903563076
1139436 -0.8496049295649551 -0.38793508641300645
1144339 -0.8508364221590851 -0.3821777155217932
1149242 -0.8548498190434104 -0.38163768385612257
1154145 -0.8544562328656735 -0.38243659154113824
1159048 -0.8540659928392363 -0.3797164667714954
1163951 -0.8503582346196411 -0.37824968502284834
1168854 -0.8536135686170218 -0.3757271047041917
1173757 -0.8567621191736335 -0.37727552968051176
1178660 -0.8565836530934684 -0.37312715307061656
1183563 -0.8540336281375696 -0.3736231649971275
1188466 -0.85460548985039 -0.3712044284326077
1193369 -0.8564104962926601 -0.37212340762350293
1198272 -0.8577770811348929 -0.36675448966873386
1203175 -0.8594690942206813 -0.3687742482913706
1208078 -0.8591347109685611 -0.3631382904036953
1212981 -0.861650633772683 -0.36463210271292146
1217884 -0.8588643823225492 -0.36644323481540614
1222787 -0.8626174340655663 -0.3620501819769172
1227690 -0.8609537201777582 -0.3620189825337057
1232593 -0.8652810915160745 -0.3604510945549201
1237496 -0.8632732354964959 -0.36270187771602486
1242399 -0.8644015349144424 -0.3585522016073023
1247302 -0.8672348436143344 -0.3605160413152315
1252205 -0.8629227233712299 -0.3559033302334128
1257108 -0.8692560509558014 -0.355434841146611
1262011 -0.8668520883294286 -0.35562620846464316
1266914 -0.8708203181379001 -0.35060233713382477
1271817 -0.8681779539215367 -0.3571848673915934
1276720 -0.8715422464224911 -0.34902893744660357
1281623 -0.8660847897218293 -0.3505779483787945
1286526 -0.8681731126173755 -0.3515017256613364
1291429 -0.870450649884712 -0.34986921889400674
1296332 -0.8730687078452214 -0.34549862216996724
1301235 -0.8725950052449771 -0.34705355886230127
1306138 -0.8748012012021162 -0.3471216642214674
1311041 -0.8733059510840235 -0.3427585268598905
1315944 -0.8733640362615549 -0.34058205851079193
1320847 -0.87199415895494 -0.3447837970922315
1325750 -0.8729858381301027 -0.34085101116367533
1330653 -0.872324002463388 -0.33872217808597466
1335556 -0.8742961847879267 -0.3379550213291612
1340459 -0.8771920600127762 -0.339291631378906
1345362 -0.8743705722115712 -0.33418871699691644
1350265 -0.876556893695714 -0.33605311148925887
1355168 -0.8766723445602174 -0.33740983849026407
1360071 -0.8811252834105522 -0.33209847060591596
1364974 -0.8786276993765799 -0.3318892902075973
1369877 -0.8808750623085396 -0.33327630734651303
1374780 -0.8790731895563884 -0.3334806204616573
1379683 -0.8830535995901506 -0.3302688578157409
1384586 -0.8806499407231759 -0.32933060527994296
1389489 -0.8803987079839896 -0.3294797965928861
1394392 -0.8838622554511698 -0.3275505493802102
1399295 -0.8801541106796947 -0.32993313060917046
1404198 -0.8809021850678544 -0.32822499231204755
1409101 -0.883439360263883 -0.32528534961803773
1414004 -0.8846658868705577 -0.3258820181030842
1418907 -0.8799768157731613 -0.3231199708304173
1423810 -0.8829160130403891 -0.32190092657102837
1428713 -0.8872795483449979 -0.32509161770305894
1433616 -0.8838423723133239 -0.3246280730477442
1438519 -0.8830084171675744 -0.3208925574332619
1443422 -0.8853550307894436 -0.3185699818141218
1448325 -0.8878997914995163 -0.3193037509444218
1453228 -0.8834308373003062 -0.31638447879070136
1458131 -0.8880061202500377 -0.3157228853827131
1463034 -0.8887832537672433 -0.31588372212316385
1467937 -0.8871267249651511 -0.3154791056602772
1472840 -0.8872515536120351 -0.31638766927132705
1477743 -0.886633970655946 -0.31236892947158457
1482646 -0.8909915686115324 -0.3136929088183978
1487549 -0.8908248611831567 -0.3133584409753077
1492452 -0.8914174884517687 -0.3103655349063913
1497355 -0.8919232858771899 -0.3088634572422954
1502258 -0.890219609169785 -0.31076763533189466
1507161 -0.8893500169248556 -0.30943294274271904
1512064 -0.8924590044015375 -0.30896421130151164
1516967 -0.8928688103884899 -0.3062828852709451
1521870 -0.8898675298641336 -0.3055148312322263
1526773 -0.8911116518747292 -0.3035896396706937
1531676 -0.8944092312785614 -0.3040990185212955
1536579 -0.895641913355429 -0.30240765993057184
1541482 -0.8947855183689754 -0.3051883430181266
1546385 -0.8955616815834501 -0.3042425254449162
1551288 -0.8971044274279352 -0.30136465282924424
1556191 -0.8947199685927887 -0.3011478863102405
1561094 -0.8975518385515926 -0.3007094325582876
1565997 -0.8959550101982708 -0.30045259819460207
1570900 -0.8969276919599012 -0.2963090135995657
1575803 -0.8964426143741459 -0.29912792390707216
1580706 -0.8953646735893046 -0.29951375107445505
1585609 -0.8977046747728472 -0.2989434802128927
1590512 -0.8942499593260175 -0.29378581441937995
1595415 -0.8995561664407864 -0.29616568067869964
1600318 -0.8974826795155307 -0.29317495205385474
1605221 -0.9010609408470018 -0.29134385919883815
1610124 -0.8995530742107882 -0.29192444496805187
1615027 -0.8976721868100185 -0.2927440624519097
1619930 -0.8964026518702641 -0.29276254292713083
1624833 -0.8980390267574975 -0.2916751540502334
1629736 -0.8993857218551586 -0.2922522173789264
1634639 -0.8997449280298238 -0.28586761572512065
1639542 -0.9024848827618931 -0.289272612633784
1644445 -0.9030786910026337 -0.2870940221836733
1649348 -0.9026241448583044 -0.2885462977844689
1654251 -0.9010247556121234 -0.2865876755646961
1659154 -0.9019265265378278 -0.2830710047128414
1664057 -0.9041279748659872 -0.2816724977273006
1668960 -0.9027133868361528 -0.2851746075133962
1673863 -0.9050927838509737 -0.2845544254481748
1678766 -0.902810109828353 -0.2854332972550428
1683669 -0.9077731881539595 -0.28113914431166065
1688572 -0.9031988241604093 -0.2826438869280538
1693475 -0.9063359236214084 -0.2802236095186558
1698378 -0.9045866688298562 -0.28061668752670776
1703281 -0.9019402683170867 -0.28047858752809096
1708184 -0.902273119947139 -0.28046341846945994
1713087 -0.9043358943327765 -0.27676705268483165
1717990 -0.9021551173562988 -0.2797466518519797
1722893 -0.9046343077693337 -0.27847734535435253
1727796 -0.9060925663736298 -0.27505070057019604
1732699 -0.9043199217325208 -0.2760638005006644
1737602 -0.9059481523174958 -0.27510762992977084
1742505 -0.9089580176809515 -0.2769431989604436
1747408 -0.908107854843249 -0.27118502685883394
1752311 -0.9056712091473498 -0.27413087979170214
1757214 -0.9087380076256844 -0.27169303722636895
1762117 -0.90479905805309 -0.2753798443457084
1767020 -0.9064662489245655 -0.27159090636351085
1771923 -0.9106346650281948 -0.27203695502548436
1776826 -0.9088770165025618 -0.273497414623105
1781729 -0.9132313646764975 -0.2700638750581743
1786632 -0.9075611057380929 -0.2678289448831906
1791535 -0.9104822292254031 -0.2707671189936643
1796438 -0.9086532241536948 -0.2729493598513854
1801341 -0.9094063037254619 -0.2669440198814292
1806244 -0.910509982227907 -0.26637895542098017
1811147 -0.9107070498546234 -0.2641361594228345
1816050 -0.9115227900056372 -0.26294956917741175
1820953 -0.9145094616828837 -0.26670452928292354
1825856 -0.9113911959825594 -0.2638694652138472
1830759 -0.9103107504790167 -0.2660043870313478
1835662 -0.9095232278841847 -0.26548660340649266
1840565 -0.9114133259269664 -0.2617728703240829
1845468 -0.9140038953404125 -0.25985409886419053
1850371 -0.9125424597294535 -0.25999341754194033
1855274 -0.9129269197908012 -0.26510750875292455
1860177 -0.9122202895990538 -0.2571249984289597
1865080 -0.9146331377907677 -0.2600158900303733
1869983 -0.9111207648307893 -0.2635455542192162
1874886 -0.9114469133893127 -0.2601611150126457
1879789 -0.9137778370587378 -0.2603240360858459
1884692 -0.9129800899845204 -0.2581140529947286
1889595 -0.9124080641192284 -0.2597693525252089
1894498 -0.914794819514729 -0.2516911683479988
1899401 -0.9148061434868553 -0.25916532086025845
1904304 -0.9150237011989312 -0.2560710960423365
1909207 -0.9206533692371074 -0.2558549290060784
1914110 -0.913517520642215 -0.2557954603115805
1919013 -0.9172369237952063 -0.2555543434085722
1923916 -0.9153490680483749 -0.25301627278375394
1928819 -0.9174625850446299 -0.2509144744180536
1933722 -0.9180424934034381 -0.2508691486675385
1938625 -0.9199158126663711 -0.2501875388698229
1943528 -0.918279874700495 -0.248737761379919
1948431 -0.9171676982638004 -0.2517984813510186
1953334 -0.9180517026305526 -0.24887957966936056
1958237 -0.9183354793576348 -0.25177936684114005
1963140 -0.9183833247623732 -0.25240435251782817
1968043 -0.9134895134008835 -0.251075694636145
1972946 -0.9172092178602103 -0.24947632893515953
1977849 -0.9222402839569986 -0.2530559744507465
1982752 -0.9153497821561984 -0.2500584256972215
1987655 -0.9179990944128552 -0.24521266135521314
1992558 -0.9213524303140902 -0.24842776305953201
1997461 -0.9209095332889616 -0.24823699101228802
2002364 -0.9194110427789393 -0.24977493145553434
2007267 -0.918918871721023 -0.2433552473323186
2012170 -0.9210402185524619 -0.24621950013358287
2017073 -0.9168886891736086 -0.24626736956995007
2021976 -0.9206523946503997 -0.24536358753066703
2026879 -0.9213463889183431 -0.24628958551262253
2031782 -0.9219822903805927 -0.24360192178415652
2036685 -0.9201005944368588 -0.24467222482479445
2041588 -0.9226551253984303 -0.24213962061797534
2046491 -0.9229433080324445 -0.24365702620964608
2051394 -0.9200528429966209 -0.24138325117472825
2056297 -0.9245024222662003 -0.24392305430784117
2061200 -0.921083442422007 -0.24211994794137348
2066103 -0.9243839852223128 -0.24062308777605423
2071006 -0.918181681721812 -0.23738828920454322
2075909 -0.9233683487630561 -0.24063196706074716
2080812 -0.9200843131638139 -0.24117402549689065
2085715 -0.9254085941976355 -0.2392161983810633
2090618 -0.9227124807625607 -0.23919546733994437
2095521 -0.9233892075343102 -0.23545354633411042
2100424 -0.9202907644986862 -0.23731511436938474
2105327 -0.9236039078768731 -0.23701009843962334
