# HZ S RI R 50
100000 0.5344673009481619 -0.7182909212270636
104903 0.5070869793755053 -0.7347121813311394
109806 0.47942680846374186 -0.7507787524749541
114709 0.4484557909199058 -0.7662982773592548
119612 0.4236542298629379 -0.7789644267645135
124515 0.3967644150304782 -0.789282474965553
129418 0.3657079943691675 -0.8021701400593229
134321 0.34014912265120256 -0.8092375996003379
139224 0.3122302851922108 -0.819530262455174
144127 0.287324039613017 -0.8283789989052861
149030 0.2558191283638053 -0.831874368411524
153933 0.22973282065740946 -0.8362540855492064
158836 0.2047598952639649 -0.8414824291721679
163739 0.17652685202600563 -0.8438132343385994
168642 0.15243927760615594 -0.8416951922064848
173545 0.12635479124442753 -0.8423668917112542
178448 0.10182000315838513 -0.8404805519989617
183351 0.07550667191274388 -0.8356944664781705
188254 0.050143602065948235 -0.8270967254121797
193157 0.024053505488965843 -0.8178254953438988
198060 0.004206933296125826 -0.8035757996646813
202963 -0.015785109667283203 -0.7837051467288902
207866 -0.017805065248672286 -0.756882600454964
212769 -0.0055631212091581715 -0.7285231720811891
217672 0.029069583815166198 -0.7207090764827769
222575 0.06002935743582949 -0.7597908999103715
227478 0.047721916290976704 -0.8025639808656082
232381 0.020362879232327297 -0.827191968349543
237284 -0.006193318958969673 -0.8399128715866905
242187 -0.032651791290271626 -0.8463749741665625
247090 -0.053976557091897547 -0.8484875537486001
251993 -0.0735392317816784 -0.8540229528945067
256896 -0.09296436420909142 -0.8543774765347305
261799 -0.11334176684961543 -0.8547426983461042
266702 -0.13290112540966117 -0.8545068866943639
271605 -0.14967894002026277 -0.8500417748986657
276508 -0.1699418936035973 -0.850408262806155
281411 -0.18465847124094315 -0.8447943060828592
286314 -0.1995782199341344 -0.8421930159975313
291217 -0.21136877956736339 -0.839471070724563
296120 -0.22588188185738778 -0.8350511561070394
301023 -0.23776059241514572 -0.8291835890671816
305926 -0.25388315310639437 -0.8252992197021399
310829 -0.2605304194538333 -0.823631071722238
315732 -0.27217776450817954 -0.8220191320928079
320635 -0.28631464713543503 -0.820348044163403
325538 -0.296731974660398 -0.8147679819884567
330441 -0.30605121076631686 -0.8158514306388307
335344 -0.3209355505417502 -0.8105223782421626
340247 -0.33352419571877234 -0.8090404791445226
345150 -0.34014509634254697 -0.8057920317029236
350053 -0.3556018776881726 -0.7996781019887856
354956 -0.36205945871731193 -0.7963403011189842
359859 -0.3766326947146702 -0.7906552688152078
364762 -0.38159240446234394 -0.7869303579575646
369665 -0.39080734319557464 -0.782638363982423
374568 -0.40067910241570853 -0.7799745348295231
379471 -0.41359382566772485 -0.7752673492852906
384374 -0.4208128668319785 -0.7761445428017427
389277 -0.424458368099892 -0.7658899111545537
394180 -0.4361063378174773 -0.7640415527082822
399083 -0.4451097941155126 -0.7589929168825701
403986 -0.45163608866028243 -0.7541968619811593
408889 -0.4588645212365689 -0.7547908413779286
413792 -0.46589174970922026 -0.7469154692556469
418695 -0.47424307113491304 -0.7423414555365173
423598 -0.48293059847946673 -0.7386148850153375
428501 -0.4902550186139537 -0.7319322805109674
433404 -0.4960333654241073 -0.7305895198548367
438307 -0.5046655150495418 -0.7235763550534404
443210 -0.5094691170580817 -0.7221906070449093
448113 -0.5151406924408157 -0.7185207238127647
453016 -0.5220335532690716 -0.7147101775783774
457919 -0.5261487556581661 -0.7085001219419804
462822 -0.5342491503535575 -0.705076708780049
467725 -0.5400209705682194 -0.7023765549404403
472628 -0.5473144786920743 -0.6969397572453047
477531 -0.5533627463559306 -0.6929062305893389
482434 -0.5577995768360416 -0.6866413853178848
487337 -0.5623657268318373 -0.6882932724209246
492240 -0.5660407609782974 -0.6806211292127432
497143 -0.5747651521340901 -0.6770508699735943
502046 -0.5769489041300673 -0.67343155461912
506949 -0.5814111553278136 -0.669543817624455
511852 -0.5842007565640092 -0.6652267463248157
516755 -0.5909369092601272 -0.6620358665971602
521658 -0.5967457600925303 -0.6618241565280453
526561 -0.6004167318314033 -0.6521937431942728
531464 -0.6059507980920155 -0.6505155821293325
536367 -0.6088647833321188 -0.6464469928571747
541270 -0.6137845303629882 -0.6413640013330956
546173 -0.6186908170860617 -0.6404091394654247
551076 -0.6238595181139281 -0.6332222164720435
555979 -0.6268953797538361 -0.6262033930462974
560882 -0.627789791384557 -0.6231390533450248
565785 -0.6344200327305259 -0.6145403811281979
570688 -0.6368906838124966 -0.6063019132499293
575591 -0.6342309288251262 -0.602786537913303
580494 -0.6281073369537906 -0.5947273979869369
585397 -0.6233092216515667 -0.5975578453867212
590300 -0.6236735304550244 -0.6009394466105942
595203 -0.6268909215868007 -0.6056861579344192
600106 -0.6322914965623903 -0.6090710144834252
605009 -0.6390255256064448 -0.6118932266828464
609912 -0.6431357035208382 -0.61096249117451
614815 -0.6495150018772634 -0.6094519886686361
619718 -0.6552928248035523 -0.6045356811602752
624621 -0.6602785482881806 -0.6042794709290803
629524 -0.6673165772440655 -0.5998231720458707
634427 -0.6698976384242483 -0.5997952381766674
639330 -0.6748864334728445 -0.5958379591450988
644233 -0.6808943844341003 -0.590362010319733
649136 -0.6815694169159989 -0.5921276421863613
654039 -0.6844356674366656 -0.5850825465004426
658942 -0.6922644737164836 -0.5800700377162948
663845 -0.6932775928380527 -0.5811427877018456
668748 -0.6960452281378849 -0.5752693081419077
673651 -0.6985199697813727 -0.5717896649831193
678554 -0.7048815366168173 -0.5691166986586224
683457 -0.7045202956995542 -0.5691701256214144
688360 -0.706444916047588 -0.5630997293133407
693263 -0.7124396105137074 -0.5612023489929159
698166 -0.7152739741605635 -0.5614158965514631
703069 -0.7154306583311234 -0.5570186572998355
707972 -0.7223011225657722 -0.5558488692652476
712875 -0.7242523974727255 -0.551402527713999
717778 -0.7275332151483156 -0.5455621809154974
722681 -0.7278153063834668 -0.5423987971642662
727584 -0.7310279246884612 -0.5424142044567198
732487 -0.7315178042887867 -0.5404550735470283
737390 -0.73635706981459 -0.534850092211879
742293 -0.7384378765613717 -0.5337482190373376
747196 -0.74012728507764 -0.5316182135316584
752099 -0.7451563145829 -0.5276223900945982
757002 -0.7437471504721095 -0.523967838270743
761905 -0.7479196268591881 -0.5248176806133731
766808 -0.7444885034164298 -0.5214925973278426
771711 -0.7520567447874805 -0.5168334670319471
776614 -0.75203308008856 -0.5189433471558562
781517 -0.754362416153174 -0.513661096407877
786420 -0.7558342123901715 -0.5109435468859285
791323 -0.7593824310388189 -0.5107761266245094
796226 -0.7608104692483488 -0.5076658115815237
801129 -0.7613225677821591 -0.5045036257510994
806032 -0.7646065103226325 -0.5008517632799739
810935 -0.7692263835047949 -0.4971679024775669
815838 -0.7675179669672733 -0.5007205594633706
820741 -0.7680876517343385 -0.4940467884469238
825644 -0.7711167949436835 -0.49351863212208114
830547 -0.7719676136540472 -0.4920485452910883
835450 -0.7789569710335716 -0.48638775099890724
840353 -0.7723846727028593 -0.4882384525207837
845256 -0.776280368448884 -0.4827963360256194
850159 -0.7799948249281295 -0.48181118446441284
855062 -0.779467046372992 -0.47913790938561757
859965 -0.7837774490584479 -0.48004365142906286
864868 -0.7844458513538777 -0.47451197213919316
869771 -0.7854583312298608 -0.4769225562824194
874674 -0.7883242485737462 -0.4712664500294627
879577 -0.7859790923418389 -0.4688063268370001
884480 -0.7867931653086094 -0.4681760011298325
889383 -0.7955879582683106 -0.462382161852972
894286 -0.7927955801259302 -0.46264330191185077
899189 -0.7959179287856047 -0.46159537341593
904092 -0.7950610105434456 -0.45930642548976086
908995 -0.7983249739156402 -0.4520087437775968
913898 -0.7990623267251373 -0.45427072956985587
918801 -0.798121340059267 -0.4499144757715421
923704 -0.8004748339136457 -0.4470740077341367
928607 -0.7986582954682953 -0.44745548917291134
933510 -0.8000895472867923 -0.44428019858579465
938413 -0.8013307147088397 -0.43794505500946607
943316 -0.8014422359036917 -0.4367883304436471
948219 -0.8038793617431054 -0.4380067958699785
953122 -0.8029412688887569 -0.4362415292503577
958025 -0.7971239393074483 -0.4368206327348586
962928 -0.8025526518640294 -0.4352536159201398
967831 -0.802731949080525 -0.4355234196111376
972734 -0.8021723861418426 -0.43468683040910355
977637 -0.8029220651699316 -0.43871958428443325
982540 -0.8058954433871782 -0.4337765967516509
987443 -0.8121593927328526 -0.43492362373221777
992346 -0.8103583268119596 -0.4314054088401436
997249 -0.8132694270502246 -0.4313765623684173
1002152 -0.8113910864514394 -0.4283199712556007
1007055 -0.8169569209814102 -0.4287109138847207
1011958 -0.8180698558048162 -0.4272971585501399
1016861 -0.8196068771614424 -0.42507775519449975
1021764 -0.8210034874036243 -0.42352322259492736
1026667 -0.8216506182491409 -0.4196114369455234
1031570 -0.8255504552632557 -0.41898337516412887
1036473 -0.8214203108674974 -0.41717991377940145
1041376 -0.8280310809529763 -0.41834167435136166
1046279 -0.8261458828937895 -0.41492265847893856
1051182 -0.8279207889022087 -0.4142241960108574
1056085 -0.832425399090475 -0.4132897724289593
1060988 -0.8287287831620218 -0.41429151966172045
1065891 -0.8358833253942897 -0.40881273031564586
1070794 -0.8334747061418638 -0.40648636069960237
1075697 -0.8335969882258869 -0.4057412135443095
1080600 -0.8360154830150137 -0.4025963062564008
1085503 -0.8348431959789281 -0.4005554853064088
1090406 -0.8378722481027315 -0.3997827672818235
1095309 -0.8417757466544237 -0.39846372116892237
1100212 -0.839243255632633 -0.4018905095059543
1105115 -0.8395757947298979 -0.3933848026387277
1110018 -0.8399171250904746 -0.3959536037192767
1114921 -0.8395019916241777 -0.3912734921306857
1119824 -0.8428174551046912 -0.3953119219612323
1124727 -0.8422202749694171 -0.38994855459919936
1129630 -0.8449554148178544 -0.3845297971197904
1134533 -0.8485351089667189 -0.38696783073902175
1139436 -0.8453974627014273 -0.3888547727361618
1144339 -0.8466555507159316 -0.3830283499110067
1149242 -0.8474264944729788 -0.3846355551187478
1154145 -0.8509824529324028 -0.3791303748612866
1159048 -0.8493198709162838 -0.3831268751483642
1163951 -0.8515489131956527 -0.3773531464016011
1168854 -0.8479645417290864 -0.3780745310913116
1173757 -0.8510896686705989 -0.37632372858700086
1178660 -0.8488189263975126 -0.3751667142105978
1183563 -0.8480129153010589 -0.3753239753545408
1188466 -0.8530077514661203 -0.37227938669794336
1193369 -0.8528281852468179 -0.3731032893735387
1198272 -0.8552170297622742 -0.368629370460916
1203175 -0.8538305107410309 -0.3700300038277317
1208078 -0.8548050756604609 -0.36298648165767666
1212981 -0.8566194114014413 -0.36454026020647917
1217884 -0.8551097586430766 -0.36633016815635033
1222787 -0.8582551038280786 -0.363284277880674
1227690 -0.8568946866468753 -0.3598122463432018
1232593 -0.8561666732149317 -0.3617806277669115
1237496 -0.8590522297097912 -0.36104046311560994
1242399 -0.8612625848112078 -0.3569029701926908
1247302 -0.8608923315068235 -0.3559134446494976
1252205 -0.8614294413458884 -0.3553033094024699
1257108 -0.8618441238594532 -0.35236367448161604
1262011 -0.8624199747350481 -0.3516145621814415
1266914 -0.8644987223841962 -0.3509370060659284
1271817 -0.8601614557445187 -0.35099050974427287
1276720 -0.8667793577378722 -0.3492028276974368
1281623 -0.8631853968005777 -0.34514762506020763
1286526 -0.8606510500726497 -0.3467667087285616
1291429 -0.8646069337589747 -0.34253664836251924
1296332 -0.8641420947078492 -0.3408783864043155
1301235 -0.8643419934404578 -0.3410000765362504
1306138 -0.8669163013287342 -0.3423084147845151
1311041 -0.8625613759743582 -0.3377976556005473
1315944 -0.8610386391876277 -0.33767141057608063
1320847 -0.8629037421552938 -0.34013956596580514
1325750 -0.8657875963059518 -0.3423091156902315
1330653 -0.8628086473263691 -0.339630166088517
1335556 -0.8662739865956774 -0.3394525616059761
1340459 -0.8674151990571797 -0.34113464422469836
1345362 -0.8694617976013503 -0.3341931108408064
1350265 -0.8676016938405644 -0.3368137038199108
1355168 -0.8699365891010062 -0.33651563079624863
1360071 -0.8740865622241988 -0.3330035173440174
1364974 -0.871898330941394 -0.3339347262469023
1369877 -0.8731918373448012 -0.3318414810178389
1374780 -0.8732172141753378 -0.3322341784751124
1379683 -0.8783217773993388 -0.332644411369046
1384586 -0.8716362713754429 -0.3287505452098738
1389489 -0.8778170992095807 -0.32858180333146075
1394392 -0.8757881121044477 -0.3306539019160328
1399295 -0.8742392099026413 -0.32825479289422826
1404198 -0.8764473069473064 -0.32518894317937763
1409101 -0.8778912948613286 -0.3242846085582817
1414004 -0.8818079751086276 -0.32502317216207793
1418907 -0.8758986012288706 -0.32337926564413844
1423810 -0.8820096507471881 -0.3217649142708174
1428713 -0.8817571857407623 -0.32151369080748526
1433616 -0.8810136231869837 -0.32409840589153005
1438519 -0.8790119661777247 -0.3193188706051088
1443422 -0.8858249869175844 -0.31638463276311324
1448325 -0.8814751394619558 -0.3162697805161118
1453228 -0.8805074341686815 -0.31525394599235035
1458131 -0.8816177585616852 -0.31549611194984417
1463034 -0.8850848921625227 -0.31614677554118675
1467937 -0.8801625037865984 -0.3106439261296529
1472840 -0.8840947026535385 -0.31203619649449627
1477743 -0.8843059305828487 -0.3120109522763997
1482646 -0.8844332874313283 -0.30775089349244633
1487549 -0.8849621023759229 -0.31049325533205746
1492452 -0.8843076539977932 -0.30641549944470803
1497355 -0.8852863160720024 -0.3045824551862904
1502258 -0.8863091354153154 -0.3037898476509028
1507161 -0.8861449386821538 -0.30624578129550495
1512064 -0.8868462405259845 -0.304094963522679
1516967 -0.8887122763213887 -0.3004858834409147
1521870 -0.8861768249869969 -0.3016981015621633
1526773 -0.885130508942138 -0.3022674977171387
1531676 -0.8843045987166358 -0.30071393206931907
1536579 -0.8910579866406773 -0.2984304819580804
1541482 -0.8890092454160587 -0.3013147548746607
1546385 -0.8901942502262064 -0.2977758677705377
1551288 -0.8916471421411493 -0.2968626620710214
1556191 -0.8895063701670156 -0.29501056580146345
1561094 -0.8919960219006282 -0.29590312324187357
1565997 -0.8896141841312775 -0.29263857290986167
1570900 -0.8937054220372578 -0.2938407504503029
1575803 -0.8903495201107108 -0.2950590730588339
1580706 -0.8884779343687833 -0.29281853901336397
1585609 -0.8927138602875241 -0.29301912742398584
1590512 -0.8899964558424599 -0.28963142102317385
1595415 -0.8918587684355859 -0.2919511057945987
1600318 -0.8925276655560471 -0.2888266353685289
1605221 -0.8900644008227506 -0.2885031976227066
1610124 -0.8953327280926612 -0.28685245982660224
1615027 -0.8913542962199485 -0.2873624906942654
1619930 -0.8906339661251503 -0.2873299152411628
1624833 -0.8912191102472843 -0.2890831528589525
1629736 -0.8943542488103964 -0.2882782312050291
1634639 -0.8933525554133451 -0.2821056758450045
1639542 -0.8931716703540933 -0.2848128480411902
1644445 -0.8937364488483115 -0.2860848641653666
1649348 -0.8948086478362256 -0.2837878214721302
1654251 -0.8974800109320719 -0.28303361061915816
1659154 -0.8958702529352337 -0.28031551294791957
1664057 -0.897688240616555 -0.2797001879944927
1668960 -0.8996260252079274 -0.2806399651269725
1673863 -0.9003629634703696 -0.2816526017361272
1678766 -0.8961433157647516 -0.27976492883529935
1683669 -0.9019826393767886 -0.2804634626178263
1688572 -0.8982269045773364 -0.2782213258102648
1693475 -0.9015111599556517 -0.27465656838089064
1698378 -0.8992803086627786 -0.2751976665877431
1703281 -0.8979646012326025 -0.27450111635750135
1708184 -0.8987527281348614 -0.27695908679985654
1713087 -0.9017877265683522 -0.27261419262365927
1717990 -0.8995067420573883 -0.2736147886713073
1722893 -0.8979956395665889 -0.27002722133528856
1727796 -0.9002739300872221 -0.26845451817955573
1732699 -0.8994092676615372 -0.27245998027114104
1737602 -0.9030422807014993 -0.26934585777790643
1742505 -0.9046209330394333 -0.26881595985875145
1747408 -0.9046894708902016 -0.2669229131664365
1752311 -0.9014401573673994 -0.2676877570900877
1757214 -0.904492991299878 -0.26753662163092884
1762117 -0.9024773245295863 -0.26596281573524394
1767020 -0.9031138885195162 -0.26731571485103023
1771923 -0.9042564533217834 -0.26315487878452576
1776826 -0.906306930419001 -0.2659266946034787
1781729 -0.90680622313053 -0.26182785557215904
1786632 -0.8981751148693737 -0.2619172983271603
1791535 -0.9043232525965236 -0.26164629805200285
1796438 -0.9028726736593693 -0.2675025130860239
1801341 -0.8997268453525928 -0.2594281133052355
1806244 -0.9065242360922317 -0.25793587742191293
1811147 -0.9042852492751539 -0.25561426795192493
1816050 -0.9083196831463997 -0.25634093895351845
1820953 -0.904616651100911 -0.26072156023433884
1825856 -0.905035359724153 -0.2542510407739772
1830759 -0.9045276030873652 -0.2584340595732714
1835662 -0.9028527706930536 -0.25335265299113363
1840565 -0.9046788885925229 -0.2541501677321333
1845468 -0.9080730967163398 -0.25649648734348285
1850371 -0.9063445623042121 -0.25352679896076424
1855274 -0.9057584020484768 -0.2538336620006339
1860177 -0.9049028455549961 -0.253392835600805
1865080 -0.9063495406337742 -0.25329290055256004
1869983 -0.9080180822573326 -0.2563868116923063
1874886 -0.9044803977576684 -0.2507243512050629
1879789 -0.9085329122520795 -0.2526437889527931
1884692 -0.9070035566200101 -0.2525926100516766
1889595 -0.9108335172526051 -0.25126342054308587
1894498 -0.9054132967800904 -0.2479584242985612
1899401 -0.9108973955324313 -0.2479673019979083
1904304 -0.9103216523105314 -0.24767398211582406
1909207 -0.9128033020479606 -0.24975448647706963
1914110 -0.9106514342501454 -0.24560520804403782
1919013 -0.9135224080739752 -0.2452956429998675
1923916 -0.9106338207375836 -0.2473986395586812
1928819 -0.9084920200969314 -0.24735678672399308
1933722 -0.9085882184067319 -0.2423616631874495
1938625 -0.9132529597428206 -0.24142226577388728
1943528 -0.9101944072859817 -0.24557305651774688
1948431 -0.9080013909704424 -0.24343107268651396
1953334 -0.9131536437619572 -0.23977446479087608
1958237 -0.9096912956554729 -0.2427766962123838
1963140 -0.9076777477225649 -0.24387708785243278
1968043 -0.9069742892792145 -0.24342976395691318
1972946 -0.9077252079941959 -0.23918637490409253
1977849 -0.9119261456936679 -0.2433166187649214
1982752 -0.90641794630071 -0.23960560789187585
1987655 -0.9128677418626048 -0.23718766429751215
1992558 -0.9128998186340055 -0.23884618782727196
1997461 -0.9100540830525523 -0.24135615096441504
2002364 -0.9097167262554794 -0.240630326312636
2007267 -0.9096664169689919 -0.23695906114124782
2012170 -0.9125572486709842 -0.2376940515823498
2017073 -0.9116731924288854 -0.23977490939509905
2021976 -0.9137117975140543 -0.2385388102485664
2026879 -0.9159078300031623 -0.23851356509149294
2031782 -0.911942388312421 -0.23363083878479182
2036685 -0.9149763931048528 -0.2360851415024388
2041588 -0.9108988392321652 -0.23377821606678495
2046491 -0.9171354588612316 -0.2355613898329037
2051394 -0.9165656515101552 -0.23452178648353922
2056297 -0.9180719695246943 -0.23429981026074695
2061200 -0.9136744417354385 -0.23388875480161692
2066103 -0.9175936177931263 -0.22525889378120767
2071006 -0.9159762541378814 -0.2288094907286588
2075909 -0.9164938386802604 -0.22857864451039145
2080812 -0.9109748151546633 -0.22807468787568036
2085715 -0.9183100170024853 -0.23046957449383057
2090618 -0.9175577219323175 -0.2321902528784092
2095521 -0.9147589890609803 -0.22332582336453816
2100424 -0.912775538617238 -0.22938162007083793
