# HZ S RI R 50
100000 0.542349752317002 -0.7199788943543098
104903 0.515055313999464 -0.7364379931323426
109806 0.48700010362837765 -0.7519143816134956
114709 0.4581348126066369 -0.7676817757154817
119612 0.4333395188220474 -0.7789554834291587
124515 0.40725794238397617 -0.7912768172157162
129418 0.37994057309338025 -0.803847513130442
134321 0.3536316357645113 -0.8110374596716643
139224 0.3288283762036378 -0.8221303184615812
144127 0.30035617757843985 -0.8280927172142635
149030 0.2774671018298367 -0.835943555857237
153933 0.2513120181652421 -0.8410900614964287
158836 0.23186979544776382 -0.8494705007350726
163739 0.2063207069397428 -0.8542582461900067
168642 0.1810547844708075 -0.8570176695259031
173545 0.16192978677901354 -0.8605197897448991
178448 0.14131302386023398 -0.8628960064446219
183351 0.11888847898678319 -0.8641019245351278
188254 0.095689443870296 -0.8664387389990007
193157 0.07430239869961348 -0.8671985732683414
198060 0.05702402711671474 -0.8671131623551213
202963 0.0346724415013015 -0.8712631094672156
207866 0.015978959518852975 -0.8727790355693149
212769 -0.0038208380349212287 -0.8681730172704623
217672 -0.02081483495818849 -0.8693028048278815
222575 -0.03894334054434934 -0.8697088220965444
227478 -0.055229893135967725 -0.8662687833619622
232381 -0.07258898483004725 -0.8677216753995789
237284 -0.0863387128778278 -0.8642063518124231
242187 -0.10663975543479688 -0.8647729036730024
247090 -0.12124666698783729 -0.8591255123563892
251993 -0.13694557345091724 -0.8632554043288937
256896 -0.14968673982496256 -0.8559657543726203
261799 -0.1666617537576258 -0.8538014682086583
266702 -0.18224671330116796 -0.8528309650683671
271605 -0.19713168951237225 -0.8460370638704077
276508 -0.2079904717495186 -0.8441192412098028
281411 -0.22368271956762392 -0.8424741965674257
286314 -0.23687220361820463 -0.8395496685231737
291217 -0.24563555904274612 -0.8350681294727229
296120 -0.2603722503918044 -0.8328180316730783
301023 -0.27078440073389104 -0.8268074897689106
305926 -0.2860841138668835 -0.8254744228140829
310829 -0.2920477141021149 -0.823936496453734
315732 -0.3061168625922472 -0.8181672219018854
320635 -0.31867672379703893 -0.815670207718237
325538 -0.3278190424883601 -0.8071131649515302
330441 -0.3378108655337127 -0.8073116389043894
335344 -0.34861577161008717 -0.799956917933847
340247 -0.35985044502233765 -0.8001916472243241
345150 -0.3658423519743682 -0.7945798589267177
350053 -0.37929834044798943 -0.7914980515966321
354956 -0.3861561236872313 -0.7854281264910399
359859 -0.39780448481179637 -0.7828040002750413
364762 -0.40482235285278867 -0.7782090545613879
369665 -0.41356363542720614 -0.7731915906503277
374568 -0.4219239318189597 -0.7713320987952569
379471 -0.4329809611487154 -0.7658309388343227
384374 -0.4384702952488797 -0.7669234918062324
389277 -0.44332786022815496 -0.7593777310894182
394180 -0.4545696305258247 -0.7533084670136422
399083 -0.4606295995103726 -0.7513228275175955
403986 -0.4689728544864433 -0.7462416902843125
408889 -0.4760827292936828 -0.7429413209502507
413792 -0.4844398819539406 -0.7390180322202522
418695 -0.4917127436812305 -0.7339550155293648
423598 -0.49716305653839504 -0.7296161908573098
428501 -0.5057796634532177 -0.7241580697112221
433404 -0.5107271039210264 -0.7253136680492005
438307 -0.5182730044756327 -0.7161553952343815
443210 -0.5219025094291865 -0.717173412247072
448113 -0.5262436147747248 -0.7110677481323476
453016 -0.5364666951208229 -0.7099706215408892
457919 -0.5402007777443122 -0.702236870173542
462822 -0.5477494642649565 -0.7012361969559178
467725 -0.5509245335262044 -0.6949449071115026
472628 -0.5585156311333564 -0.6926049134812743
477531 -0.5618111866839643 -0.6891470209393029
482434 -0.5670169037830957 -0.6830887419807499
487337 -0.5726266329530763 -0.6843040202872808
492240 -0.5792703875813185 -0.6769977097068101
497143 -0.5843193463490667 -0.6751092612005739
502046 -0.5888236695087268 -0.6705859574698723
506949 -0.5925774291937279 -0.666760554083776
511852 -0.5967484363223413 -0.664234064013546
516755 -0.6034256290585847 -0.659345857634853
521658 -0.6077946660588422 -0.6573914170274227
526561 -0.6108958684976361 -0.6530249157929547
531464 -0.6142450564946413 -0.6494121609609904
536367 -0.6217415902061998 -0.645746995864653
541270 -0.6223602695580693 -0.641927162241761
546173 -0.6260465359973045 -0.6420775517483158
551076 -0.6301464223965431 -0.6370470262686506
555979 -0.6369714700512998 -0.6333668814095389
560882 -0.6363342150277125 -0.6310837445939917
565785 -0.643184628724088 -0.6231281536475421
570688 -0.6485268506043423 -0.6214639405278659
575591 -0.654702912242444 -0.6198509132706417
580494 -0.6516239620828236 -0.6138660822950229
585397 -0.6555846595580472 -0.6135114688866401
590300 -0.6598233620548082 -0.6097479129469595
595203 -0.6668276924153939 -0.6070596207197554
600106 -0.6677361718090986 -0.6043698066741511
605009 -0.6743306854755727 -0.6036180596000261
609912 -0.6748145020395705 -0.5987742826526858
614815 -0.6767417204485343 -0.595541136846886
619718 -0.6808118767475868 -0.5916728963962229
624621 -0.6836351574517439 -0.5880290295255189
629524 -0.6865252196793984 -0.5877226077737836
634427 -0.689186134974247 -0.5854161805248852
639330 -0.6944709829468242 -0.5817028041431127
644233 -0.6954924494987925 -0.577341871683614
649136 -0.6981068814850592 -0.5774006659220717
654039 -0.6999330662155628 -0.5708243063532332
658942 -0.709254479805906 -0.5680007296081996
663845 -0.7072177285138325 -0.5681603970241635
668748 -0.7094316030433985 -0.5640531279506024
673651 -0.7134208986510616 -0.5612143043834267
678554 -0.715506527491979 -0.5574777648636962
683457 -0.7161637876079986 -0.5587823690339829
688360 -0.7180023293755173 -0.5519967143588634
693263 -0.7251838868333308 -0.5487141475379054
698166 -0.7255693932037076 -0.549491257160391
703069 -0.7286929481114305 -0.5437603850011163
707972 -0.7307793875044075 -0.544931535305009
712875 -0.7318336701896173 -0.5397147262945426
717778 -0.7330303929990268 -0.5388849338848872
722681 -0.7352281427377885 -0.5333122474284065
727584 -0.737336318882556 -0.5339671161155248
732487 -0.7400023681184861 -0.5308950243828818
737390 -0.7452150800520622 -0.5262474784758714
742293 -0.7438917379892854 -0.5265858554998988
747196 -0.7484100681624641 -0.5216273186270258
752099 -0.750872384879311 -0.5195763079914579
757002 -0.7539250846621478 -0.5179223823462564
761905 -0.7530005988071129 -0.5148226757960404
766808 -0.7524757706182779 -0.5140299215456862
771711 -0.7576276711942438 -0.512570429276407
776614 -0.7600908610213974 -0.5092504473918402
781517 -0.7616706347015614 -0.5052856842805297
786420 -0.7643156702308552 -0.5054432557728541
791323 -0.7678374564339384 -0.5052327496888325
796226 -0.7662114327288282 -0.4994179416643411
801129 -0.7694481206514867 -0.49956841562861687
806032 -0.7727105745793783 -0.49624613571737175
810935 -0.7741247116768353 -0.4948492564633946
815838 -0.7721046203527203 -0.4928184392208857
820741 -0.77619797001765 -0.4907708558249056
825644 -0.7753350774045935 -0.48845032681487266
830547 -0.7801216180143394 -0.4868145853396143
835450 -0.7806027041189961 -0.4835267393701489
840353 -0.7807257138919755 -0.48291311328177855
845256 -0.7807672947484806 -0.4780513269702288
850159 -0.7846173533626661 -0.47800112267406925
855062 -0.787368524343439 -0.4768087550301675
859965 -0.7865071201485038 -0.4744521742415657
864868 -0.7884338326863288 -0.4714788953885119
869771 -0.7904810224242464 -0.4710041237414768
874674 -0.7939646507814181 -0.4682242149634059
879577 -0.7920053779300372 -0.4671453819581261
884480 -0.7926588689610763 -0.4617791888287954
889383 -0.7954632343678301 -0.4601721800080481
894286 -0.7977946664027173 -0.4613418310078349
899189 -0.8002514811871362 -0.45873069892994917
904092 -0.8010217465300351 -0.4543809063280943
908995 -0.8018609240047049 -0.4540662553895521
913898 -0.8029969357435506 -0.453629627875719
918801 -0.8051642241077172 -0.4506633937971972
923704 -0.8017122460278797 -0.44559488433404726
928607 -0.8062910546040989 -0.44796826099494225
933510 -0.8054508391423723 -0.4467383027441536
938413 -0.8117890281171963 -0.4420475955208897
943316 -0.8095618588257975 -0.44113876137490265
948219 -0.8125460829414788 -0.44148531445994516
953122 -0.8138229912759956 -0.4396547011711661
958025 -0.8107488444626932 -0.4360444996882114
962928 -0.814906804207775 -0.43655078638503886
967831 -0.8159574394358505 -0.43364938624442634
972734 -0.8188679035976385 -0.432490703296484
977637 -0.81700769746796 -0.4334179335125387
982540 -0.8195399584360343 -0.42764040070267356
987443 -0.822978183755969 -0.4279123093605348
992346 -0.8240102290065362 -0.4252500621540602
997249 -0.8214307677983835 -0.42667347455411103
1002152 -0.8237192592617396 -0.42181779096959077
1007055 -0.8242361603106148 -0.4226330013639683
1011958 -0.8238128034469214 -0.4192421061372688
1016861 -0.8281883600034812 -0.4182954082070072
1021764 -0.8283187928680568 -0.4177403133158748
1026667 -0.8288778267984522 -0.4132541943078337
1031570 -0.8301838485858329 -0.41563236287484956
1036473 -0.8294113510352983 -0.4110855217510515
1041376 -0.8341071268311697 -0.4104602276268981
1046279 -0.8321997806395278 -0.4094995837286561
1051182 -0.8344336983753502 -0.4092742088363327
1056085 -0.8363042986031614 -0.40805405924527227
1060988 -0.8356138588527053 -0.40614480969097744
1065891 -0.8384718943887753 -0.40473720611289654
1070794 -0.8357826707024771 -0.4029114566178225
1075697 -0.8378747938226676 -0.4000119635518963
1080600 -0.8412818298657219 -0.4007623991327833
1085503 -0.8401194631982587 -0.39582063741019013
1090406 -0.8403028981498096 -0.3952506406294959
1095309 -0.8429846757051065 -0.395601232698476
1100212 -0.842899419725992 -0.39840482740337707
1105115 -0.8450909989387914 -0.39070267253621394
1110018 -0.8419450796045121 -0.3933842476458448
1114921 -0.8453647387743789 -0.3873451924842504
1119824 -0.8462774759965042 -0.3935417256894127
1124727 -0.8468710336004801 -0.3888616907221476
1129630 -0.8478407198752004 -0.38511860185510755
1134533 -0.8483498999164122 -0.384979148144749
1139436 -0.847842893941505 -0.38903125691937795
1144339 -0.8497669953096022 -0.38188411132723954
1149242 -0.8517628560946596 -0.38081554680444074
1154145 -0.8544835762353794 -0.380518199231372
1159048 -0.8526853814289899 -0.38037550192037806
1163951 -0.8547498084876349 -0.3774458585096884
1168854 -0.8491720353206581 -0.37903412400697367
1173757 -0.854570843631922 -0.37419321911066544
1178660 -0.855736605646482 -0.37475856576287525
1183563 -0.8536031644799233 -0.3730673479599274
1188466 -0.8552901281142957 -0.3716569118509877
1193369 -0.8585070410773672 -0.3752411360021995
1198272 -0.859666057330319 -0.3692577184873018
1203175 -0.8600204928713889 -0.36740434758308455
1208078 -0.8593119381534087 -0.363094007106472
1212981 -0.8596007168719162 -0.3652183540735815
1217884 -0.8593358950609772 -0.36476620960189876
1222787 -0.8631893604861594 -0.36088263873257487
1227690 -0.8645666260313293 -0.36165890234694587
1232593 -0.861156085501425 -0.36221701241403925
1237496 -0.8627020585376647 -0.36020853663024366
1242399 -0.8648343320249364 -0.3617625528200582
1247302 -0.8619618693025026 -0.35952726226650955
1252205 -0.8658615476012634 -0.356420469147294
1257108 -0.8685735207884511 -0.3551988148338801
1262011 -0.8687791659582842 -0.35632681371253244
1266914 -0.8684296999141353 -0.3530934420549143
1271817 -0.8704796665322895 -0.3567570679997774
1276720 -0.870049597886981 -0.35077573972741527
1281623 -0.8686931457472338 -0.3487538302393173
1286526 -0.8684152036626444 -0.3495563320798498
1291429 -0.8721789971912918 -0.34932684863537283
1296332 -0.8718845632268777 -0.3464995899237261
1301235 -0.8719848580361633 -0.34597334415667
1306138 -0.8736476638019207 -0.34909155820918686
1311041 -0.8696383342786419 -0.34224915063253125
1315944 -0.8715479305870126 -0.3421362528431475
1320847 -0.8716549209388124 -0.3408878141219609
1325750 -0.8747137472368104 -0.3408632789431953
1330653 -0.8739730976145671 -0.34034948166222045
1335556 -0.8778672644556057 -0.33941138917702274
1340459 -0.875961135702828 -0.3404871620458112
1345362 -0.8731663304390614 -0.3396785222862943
1350265 -0.8734608435429181 -0.33404745286215176
1355168 -0.8774195255935465 -0.335751262653212
1360071 -0.8799511980640947 -0.3332300248460797
1364974 -0.879090552199194 -0.33362756906830476
1369877 -0.8791577828085978 -0.3344613175627957
1374780 -0.8803992052379696 -0.3336918009171226
1379683 -0.8834506975059998 -0.3302356161285203
1384586 -0.8786171732773345 -0.331013545483537
1389489 -0.8801460789850181 -0.32943554729130686
1394392 -0.8833431287880529 -0.327675303679077
1399295 -0.8792752993569023 -0.33066076618274026
1404198 -0.8809235671236092 -0.3250793863239983
1409101 -0.8821490250089309 -0.3258177331258373
1414004 -0.8855440916441483 -0.3249750035657714
1418907 -0.8807385316451611 -0.3255993978526703
1423810 -0.8814680353336797 -0.3211131693574292
1428713 -0.8864440716106106 -0.32253733870873913
1433616 -0.8834225569201418 -0.32471811681698004
1438519 -0.8848119014405396 -0.3211026435018984
1443422 -0.8871719205055505 -0.31762555214368215
1448325 -0.8887419912421245 -0.3186244644212248
1453228 -0.8836409525386303 -0.31779896164361904
1458131 -0.8885676732188724 -0.31487075969925493
1463034 -0.8891313779367768 -0.3175234761364602
1467937 -0.8866768667206961 -0.3154167675096921
1472840 -0.8866363631987778 -0.31547263429561134
1477743 -0.8881968752797831 -0.3130955540269378
1482646 -0.8890715194034412 -0.3119263107463649
1487549 -0.8909628361844297 -0.3118001641186942
1492452 -0.8899568054471925 -0.31200509473791915
1497355 -0.8937761296618145 -0.3088170679555887
1502258 -0.8902749913926878 -0.30876282632490576
1507161 -0.8904423443187724 -0.30798034264486146
1512064 -0.8918443043290752 -0.3110693665261803
1516967 -0.8926471791622517 -0.30809727269534304
1521870 -0.8912791217417271 -0.30481685641088907
1526773 -0.8919941344677479 -0.30340046863420395
1531676 -0.8920657588168276 -0.30361794594372543
1536579 -0.8906202208035597 -0.3026521500015345
1541482 -0.8926353790562108 -0.3049698211841524
1546385 -0.89365203549255 -0.3023464583400858
1551288 -0.8957720563818826 -0.2989161966511959
1556191 -0.8942430474247667 -0.30153748406513997
1561094 -0.8959580531114113 -0.3010952299813004
1565997 -0.8943631606168337 -0.3018261764482036
1570900 -0.898008484819197 -0.2974781703093849
1575803 -0.8975246391426333 -0.30131713766768664
1580706 -0.8950774009723115 -0.2990863269523381
1585609 -0.8978170506059173 -0.29695165062747486
1590512 -0.8974805239057302 -0.29565163651897614
1595415 -0.8968995384223497 -0.29557431526496636
1600318 -0.896891469738069 -0.2931360007088529
1605221 -0.9002385749607338 -0.2934529397365782
1610124 -0.8987789177348926 -0.2956009249024527
1615027 -0.8976547150370876 -0.29137063418088716
1619930 -0.8975457582918254 -0.29070125373532874
1624833 -0.8960928396190663 -0.2914741785911116
1629736 -0.9020175511112853 -0.2907327265105179
1634639 -0.9001812571794303 -0.28719656953977063
1639542 -0.9005758591121087 -0.2885786842481895
1644445 -0.9021432606933144 -0.2906247785841156
1649348 -0.9035767638273046 -0.28630625694941214
1654251 -0.9040511428001979 -0.2893496743819574
1659154 -0.9025981846365128 -0.2842573622951119
1664057 -0.9025113240807565 -0.2848514593349861
1668960 -0.9055774449358607 -0.28336884053689165
1673863 -0.9049045646020829 -0.28506986951925667
1678766 -0.9020108285706296 -0.286981826858779
1683669 -0.9065067182838907 -0.28431855164254255
1688572 -0.9018733328863859 -0.28095753214833924
1693475 -0.9082048926746253 -0.2808258751095132
1698378 -0.9025168714558829 -0.28075510936836967
1703281 -0.9035606472219518 -0.27803159574607933
1708184 -0.9025059941951382 -0.28183912439265707
1713087 -0.9055164450701471 -0.2779387852285555
1717990 -0.90760307940311 -0.2785809966294353
1722893 -0.9059051106847005 -0.27749673994769886
1727796 -0.9057838171343214 -0.27675746932275286
1732699 -0.9047638749775635 -0.27656348322386753
1737602 -0.907388727915244 -0.27716903156084227
1742505 -0.9053063423527239 -0.2754174093622912
1747408 -0.9062101906590531 -0.27223153820255536
1752311 -0.9051136342087442 -0.27352573406833325
1757214 -0.9113735398961416 -0.2745879513836003
1762117 -0.9049984680637282 -0.27641387776253895
1767020 -0.9101758531541528 -0.27264829126593615
1771923 -0.9102418879955473 -0.27301514929929405
1776826 -0.9096395577230251 -0.2746286989055011
1781729 -0.9116238887045262 -0.26701559164475824
1786632 -0.9102575815898724 -0.2676894617160467
1791535 -0.9111470343839722 -0.27044923765360296
1796438 -0.9086959493512203 -0.2724488161573063
1801341 -0.9088478773744909 -0.266099627261653
1806244 -0.9092838058215751 -0.2652301758499987
1811147 -0.9105718598377561 -0.26301351118958544
1816050 -0.9143020429172911 -0.26474146980371893
1820953 -0.9153126956782205 -0.2677258323511525
1825856 -0.9117676882595376 -0.2634738033568532
1830759 -0.9138322783086282 -0.264721927438111
1835662 -0.9101605101117815 -0.2630422211834734
1840565 -0.9136794219440538 -0.26393531564576417
1845468 -0.9149349808622351 -0.26428425350684404
1850371 -0.91246778064821 -0.2597506259231515
1855274 -0.9144068761507719 -0.2630836116212409
1860177 -0.9085957767900054 -0.26019166877929056
1865080 -0.9143771297604143 -0.2579775779469235
1869983 -0.912117352734251 -0.2647430351153075
1874886 -0.9138926214689658 -0.26251791269226776
1879789 -0.9121972982466963 -0.2613904488722924
1884692 -0.9150120256365193 -0.2578112354070299
1889595 -0.9150807691162692 -0.2592936238265674
1894498 -0.9151144086397547 -0.25474748876996955
1899401 -0.9175926176360797 -0.2568020364599545
1904304 -0.9147820105227126 -0.25497059399130867
1909207 -0.9193714563703839 -0.25755325452868094
1914110 -0.9128151625487453 -0.25442109887681424
1919013 -0.9206008545465931 -0.25308264924871865
1923916 -0.9149128353568684 -0.2536600221839579
1928819 -0.9162070472633129 -0.25483527386610527
1933722 -0.9178008641312725 -0.25191060198836257
1938625 -0.9154252963851484 -0.2536779260816591
1943528 -0.9192839674568679 -0.255233983615518
1948431 -0.9158924823648189 -0.2525237069881195
1953334 -0.9186561461560223 -0.24858648309013795
1958237 -0.9155935597124577 -0.2507985539676556
1963140 -0.9185163649053875 -0.2530411522126357
1968043 -0.9174237187717108 -0.2527386588194252
1972946 -0.9185576260245666 -0.24851236967376375
1977849 -0.9199113361651646 -0.25176103923539134
1982752 -0.9174448403389324 -0.2509426221729941
1987655 -0.9194612910688624 -0.25055694793568667
1992558 -0.9211708838492043 -0.24717729718172632
1997461 -0.9226878905124147 -0.24890773433697283
2002364 -0.9203240316879266 -0.24932190246287977
2007267 -0.9187386309498176 -0.24465810699380738
2012170 -0.9194919777547028 -0.24444465261560858
2017073 -0.9177310841650839 -0.2454501119273164
2021976 -0.9202608412405364 -0.24457829878375117
2026879 -0.9231290842703628 -0.247403107514298
2031782 -0.919940744393529 -0.24275001469589472
2036685 -0.9208764075095719 -0.24375941059824183
2041588 -0.9221925713493561 -0.24172413852281957
2046491 -0.9243808423346134 -0.24258966025012652
2051394 -0.9205824952230118 -0.2410826322310014
2056297 -0.9220918326479398 -0.240138547023316
2061200 -0.9219274033477348 -0.2404032869159534
2066103 -0.9241685565888299 -0.23861123482671565
2071006 -0.9217732976774283 -0.2401547369874612
2075909 -0.9231051723975374 -0.23978832628526184
2080812 -0.916061376806138 -0.24277814454816826
2085715 -0.921670658655086 -0.23685859558244243
2090618 -0.9264465151915443 -0.23984259196128307
2095521 -0.9223124974318861 -0.23635739607932438
2100424 -0.9199283605080452 -0.23811660990757552
2105327 -0.9214314747549793 -0.23516464718258576
