# HZ S RI R 50
100000 0.5345209184864922 -0.7161415421329321
104903 0.5076489329849556 -0.7320384684253641
109806 0.47985646398727805 -0.7486608985060438
114709 0.4478006736777297 -0.7639290499650198
119612 0.42212448864354074 -0.7765874493162782
124515 0.3933511610930275 -0.7879474535391333
129418 0.36242173004558936 -0.8002352551963654
134321 0.33368457356006087 -0.8067698341085595
139224 0.30599500974848565 -0.8174660124544794
144127 0.2783527823071064 -0.8259197589898853
149030 0.24560956232546796 -0.8278877009285456
153933 0.21780563679875828 -0.832187557250086
158836 0.1890112446437732 -0.836317776215849
163739 0.1582506912355559 -0.8358241112879836
168642 0.12905818336118755 -0.8285454088160966
173545 0.10465660232307042 -0.8283733852096197
178448 0.078803305990379 -0.8208429381385791
183351 0.04750558584670759 -0.8102783844522495
188254 0.021096009632971313 -0.7955031082843231
193157 -0.00572967040188065 -0.7774650706367535
198060 -0.0269270188449444 -0.7528768176718144
202963 -0.042964669011935956 -0.7100707856757077
207866 -0.03002805163442733 -0.6716857006502006
212769 0.0065100973395280015 -0.6299033427295567
217672 0.07071043272831695 -0.6246678749653269
222575 0.13143972391225603 -0.6839133536406548
227478 0.12503404953382632 -0.7544618380309782
232381 0.09231020681987584 -0.7945687021706006
237284 0.059247378576180225 -0.8178514344567372
242187 0.028175191714553693 -0.8324343100078742
247090 0.003147358246139485 -0.8375135509822482
251993 -0.018856193628106473 -0.8507706518875714
256896 -0.042789894663346525 -0.8491517813942756
261799 -0.06798203681309363 -0.8552995776061806
266702 -0.0887380911728029 -0.856943426451754
271605 -0.11140498505509774 -0.8524019524092614
276508 -0.13216416686739868 -0.8546752340268721
281411 -0.15032543870554907 -0.8516901120731493
286314 -0.16572684454102962 -0.8479441430070399
291217 -0.17954268755424355 -0.8421454866517997
296120 -0.19581596588830416 -0.8412616435732154
301023 -0.20866210457654155 -0.8349233244029906
305926 -0.222253731933095 -0.8283436244626677
310829 -0.23122776209183138 -0.8277213187750017
315732 -0.2415674233167798 -0.8261513819112486
320635 -0.25450492264867175 -0.8228861551052414
325538 -0.26673757132990983 -0.8221107207910376
330441 -0.2768737966296756 -0.8232269651007291
335344 -0.2937420982532327 -0.8187335295557971
340247 -0.30529450163107574 -0.817121047072516
345150 -0.3148003094581965 -0.8136298099446184
350053 -0.32906578009195575 -0.8093267483327283
354956 -0.33868002280785015 -0.8043880434888383
359859 -0.34950606218117897 -0.7992625860816688
364762 -0.3589768451608663 -0.7965065646704101
369665 -0.36954938086028943 -0.791047803769855
374568 -0.3784457030213286 -0.7893291000465453
379471 -0.39051880604404166 -0.7851620264964635
384374 -0.39847826358730876 -0.7841793393318559
389277 -0.40664267363580026 -0.7756689537299144
394180 -0.4151917985945707 -0.7719169450229111
399083 -0.42524091434360306 -0.7692335047520347
403986 -0.43417459144917586 -0.7629803302402612
408889 -0.4429525543111665 -0.7618910321959639
413792 -0.4479205761834226 -0.7548013334618213
418695 -0.4571159698557721 -0.7501371029298047
423598 -0.4660451354952306 -0.7473617722388904
428501 -0.47438476995415185 -0.7427937860845172
433404 -0.4810731573514372 -0.7410621373435055
438307 -0.4889328811569492 -0.731422451967683
443210 -0.49389950745063554 -0.7328814013612853
448113 -0.5003342531998789 -0.7272493147087907
453016 -0.5061300758606124 -0.723064116397949
457919 -0.5129482429585162 -0.7173425314364662
462822 -0.5209732630926778 -0.7142165347630485
467725 -0.5263921379122471 -0.7092463762429396
472628 -0.5355516392565971 -0.7039498250423889
477531 -0.5409452022632779 -0.7007106741571679
482434 -0.543961358706239 -0.6932970424716698
487337 -0.5514965872183849 -0.6940512222102841
492240 -0.5556451681287967 -0.6856596122450166
497143 -0.5619895460590377 -0.6843563239093048
502046 -0.5669147327764292 -0.6774322080031242
506949 -0.5724125244269905 -0.674711841836124
511852 -0.5729214600649675 -0.6707135677493107
516755 -0.5815093342270334 -0.6646103357663496
521658 -0.586985443577972 -0.662993414350832
526561 -0.5913992477436546 -0.6539184582123954
531464 -0.5955220998272753 -0.6510328487683549
536367 -0.602754791106583 -0.6461947819773863
541270 -0.6036600006427008 -0.6411813314916246
546173 -0.6086639997813663 -0.6375918385346016
551076 -0.6129554170892387 -0.6296651038081911
555979 -0.6187903108978096 -0.6223895994913738
560882 -0.6151118621893809 -0.61541721769792
565785 -0.6199822562607112 -0.6029321476728843
570688 -0.6207646877712909 -0.5948421398136358
575591 -0.6125886657987213 -0.5895990057599972
580494 -0.5986586801760728 -0.5847478741375014
585397 -0.5881834425211758 -0.5918572628511949
590300 -0.5876775347161006 -0.6028332324158447
595203 -0.5963044384300011 -0.6131834790796798
600106 -0.6005066425511391 -0.6221698128212223
605009 -0.6113249473396773 -0.6239468848948099
609912 -0.6189558426639048 -0.623068988628708
614815 -0.625639140453802 -0.6248308797963333
619718 -0.6340942219306549 -0.6210964458509844
624621 -0.6404493102326261 -0.6185181781108424
629524 -0.6463551118838261 -0.6169600111268932
634427 -0.6522373521332323 -0.6117019390303294
639330 -0.6570463775999197 -0.6094963326399679
644233 -0.6634299770546624 -0.6036453240337353
649136 -0.6654990728871643 -0.6038590050950474
654039 -0.6706385725040593 -0.5985525989570973
658942 -0.6791332482891149 -0.5954830827273965
663845 -0.6791712603635764 -0.5928376546045077
668748 -0.6822292495540326 -0.5873075718320048
673651 -0.6874074010911868 -0.583513355833319
678554 -0.6902828562042265 -0.5795597403636022
683457 -0.6904830039674429 -0.5814838175811466
688360 -0.692915120945286 -0.5740361766267317
693263 -0.7014531893502147 -0.5724738706929691
698166 -0.70346553906159 -0.5719348519152753
703069 -0.7043073696302571 -0.5685557332891481
707972 -0.7079031456725026 -0.5671661478665395
712875 -0.7138768758830691 -0.5633928118889145
717778 -0.7168605891602211 -0.557931848705568
722681 -0.7147377578782144 -0.554209338661646
727584 -0.7197657158524912 -0.5532510859241784
732487 -0.7227037206586122 -0.550973894399781
737390 -0.7246208986708526 -0.5459145222711774
742293 -0.7304399754128299 -0.5450132333841258
747196 -0.7311828742484536 -0.5417053351531281
752099 -0.7326773700286242 -0.5376496823743279
757002 -0.7354666569156137 -0.5357265405645866
761905 -0.7394873964755135 -0.5335938984539952
766808 -0.7374486487813082 -0.531430112115416
771711 -0.7402084331254623 -0.5279540454312234
776614 -0.7448527057078889 -0.526735957342329
781517 -0.7433816644304015 -0.5242859913600838
786420 -0.7501512201043048 -0.52125234435447
791323 -0.7515669725402615 -0.5189512407794261
796226 -0.75420822623987 -0.5144502916572313
801129 -0.7536721573620558 -0.5147587224733219
806032 -0.7567733768134526 -0.5070107158430572
810935 -0.760614248193462 -0.507907345805341
815838 -0.7591917076066563 -0.5053859472132423
820741 -0.7603763118018766 -0.5044327271126144
825644 -0.7632469652901652 -0.5011389350901339
830547 -0.7666968697112269 -0.4989536270634728
835450 -0.7707702600511138 -0.4945039065633337
840353 -0.7668980212340856 -0.494610769773952
845256 -0.7684850130814466 -0.4906175703258382
850159 -0.7722554200237711 -0.4913380637306475
855062 -0.7725820957603035 -0.48662555228339865
859965 -0.7767222494411755 -0.48541570161379094
864868 -0.7786041281060847 -0.481403463110727
869771 -0.7813684572191442 -0.4802664061821716
874674 -0.7813985463781278 -0.4790903343771582
879577 -0.7799582642878241 -0.4767404479777818
884480 -0.780883211318993 -0.47144566213485056
889383 -0.7848765439721562 -0.4678769762936431
894286 -0.7890587852217075 -0.468820230762726
899189 -0.7875338356454837 -0.465463288182262
904092 -0.7903357738527166 -0.45904236427810136
908995 -0.7913250347985962 -0.4561370102808252
913898 -0.7909269161465348 -0.4589028649480057
918801 -0.7908288734318765 -0.4510135969392495
923704 -0.7906615460844426 -0.4459208947340856
928607 -0.7946655822023168 -0.44705753721248087
933510 -0.790255018864847 -0.44356452035655697
938413 -0.7903543415181917 -0.43741693998105446
943316 -0.7889220945370108 -0.4403454497208924
948219 -0.7880667563283504 -0.4405486807913058
953122 -0.7877330185055195 -0.44012732163427626
958025 -0.7817241978737387 -0.44086247816584945
962928 -0.7866589470433702 -0.4424650714142209
967831 -0.7879570192999013 -0.4441382343962759
972734 -0.7909054094744545 -0.44286626657217565
977637 -0.7917665957923383 -0.44380052524109936
982540 -0.7950734167257442 -0.44477614400064613
987443 -0.7991557751755232 -0.44492753072373037
992346 -0.8021599219803744 -0.44408793803626817
997249 -0.8023115456418781 -0.440471946736357
1002152 -0.8047155091511085 -0.43629012997759287
1007055 -0.8063989863619484 -0.4402368253419495
1011958 -0.8098120723868317 -0.43698785783882377
1016861 -0.8133550966940486 -0.43365638880185814
1021764 -0.8137817716745176 -0.4312324797609612
1026667 -0.8138986630983646 -0.4290195955702525
1031570 -0.8186420543982214 -0.4298059218140585
1036473 -0.8167809076219761 -0.4219354877432176
1041376 -0.8197044778341346 -0.4248495780071146
1046279 -0.8189650138639379 -0.4212499015868842
1051182 -0.8223220596890906 -0.4189173101376278
1056085 -0.8264597345313651 -0.4233156359524364
1060988 -0.8253751370599672 -0.4198726687148745
1065891 -0.8265040244955052 -0.4169492144407789
1070794 -0.8277846975961548 -0.41381722928142317
1075697 -0.8259197342333863 -0.41385340006406174
1080600 -0.8280549426988895 -0.4110700365621125
1085503 -0.8296769587786812 -0.40628539482130044
1090406 -0.8302521872451543 -0.4087917066131709
1095309 -0.8326654770449597 -0.40780280239758865
1100212 -0.8347845440442243 -0.4068866140112084
1105115 -0.8346496275395181 -0.3995377539883354
1110018 -0.837149167270865 -0.4018412911438083
1114921 -0.8346688526737397 -0.3945247006868239
1119824 -0.8386297612721869 -0.40002274337336513
1124727 -0.839722250034937 -0.39678796423845897
1129630 -0.8417460609929254 -0.39088737981764565
1134533 -0.8403922396583821 -0.3925767250634448
1139436 -0.8432024046837074 -0.3943046491708237
1144339 -0.8420797636182403 -0.3893201875638271
1149242 -0.8440207154540476 -0.38793994046276664
1154145 -0.8449142206088055 -0.3854298222592338
1159048 -0.8441750476496201 -0.3899730071244426
1163951 -0.8459412016573252 -0.3829713147788158
1168854 -0.8445453016035129 -0.3817936101480579
1173757 -0.8462727526339631 -0.3788059037327184
1178660 -0.8484749099057555 -0.3775029161760285
1183563 -0.8464703616873843 -0.378407890054809
1188466 -0.8472507657998599 -0.3761496681888986
1193369 -0.8502268452226598 -0.3781132561256801
1198272 -0.851992229559759 -0.3711719225942014
1203175 -0.8503261968989156 -0.37008978237618084
1208078 -0.8521310515365048 -0.36658983773842624
1212981 -0.8525528701545354 -0.36751265111589954
1217884 -0.8502863236384403 -0.3661601453662003
1222787 -0.8546690042451592 -0.3657471087746925
1227690 -0.8521816531080764 -0.3623465336954946
1232593 -0.8537237341523177 -0.364480542855186
1237496 -0.8566523553443594 -0.36225721968093233
1242399 -0.8548443743206365 -0.3631963133697912
1247302 -0.8557276190020031 -0.35914251172215705
1252205 -0.8577924925147723 -0.3570279055972008
1257108 -0.8591624354661578 -0.3556909217142334
1262011 -0.8588017974438797 -0.358175377422556
1266914 -0.8609967703098658 -0.35295145009291923
1271817 -0.8571486159242426 -0.3526655859751768
1276720 -0.8580857666335813 -0.3482464766914546
1281623 -0.8553108296235301 -0.3479145027568684
1286526 -0.857498957171261 -0.34782084413917325
1291429 -0.8576980359128492 -0.34535113548385554
1296332 -0.8549662583977672 -0.34215359504590825
1301235 -0.8577291992201412 -0.34358359560821244
1306138 -0.8581323897896365 -0.3461465878041455
1311041 -0.855272549735063 -0.3409052867057179
1315944 -0.8530660794906246 -0.3458182776567918
1320847 -0.8549507252162747 -0.34747088851134705
1325750 -0.8562862017453079 -0.34763931388057995
1330653 -0.8586314153332903 -0.34397939115143505
1335556 -0.8625816793220853 -0.3469108980863295
1340459 -0.8622561001224452 -0.34532379511780614
1345362 -0.8642990338626805 -0.3424184533662342
1350265 -0.8618150814233376 -0.34449303425510025
1355168 -0.8655416551883723 -0.3407596234903658
1360071 -0.8698411938718054 -0.3394062863156856
1364974 -0.8697046259164094 -0.3397556500744177
1369877 -0.867513468720741 -0.3382860298169962
1374780 -0.8682015450458341 -0.3361240634250267
1379683 -0.8736841323341087 -0.3351122521058841
1384586 -0.868164659198477 -0.33501548649593466
1389489 -0.8728542403344981 -0.3323780305353455
1394392 -0.8717725088966711 -0.33287778666234247
1399295 -0.870438822443097 -0.3312040964202202
1404198 -0.8750622786958612 -0.33017593639998033
1409101 -0.8731244992977926 -0.32968509724950096
1414004 -0.8759064990802836 -0.32629754770473063
1418907 -0.8717445209473652 -0.3244331020936335
1423810 -0.8768951176337519 -0.32296314779863067
1428713 -0.8785714291165166 -0.32488103518027395
1433616 -0.8741967817274016 -0.32332794358802913
1438519 -0.8756629044146977 -0.3228876425263752
1443422 -0.8777488250380859 -0.31697188499852286
1448325 -0.8775029057486935 -0.32068019235959533
1453228 -0.8762878045621066 -0.317201088370083
1458131 -0.8776658780169011 -0.31823349805428947
1463034 -0.8795181923510295 -0.3173297985141377
1467937 -0.877855249866075 -0.31414132498337305
1472840 -0.8791686301814269 -0.3133809256670084
1477743 -0.8788053407172924 -0.31258866008040814
1482646 -0.8802981905238584 -0.3105648859470464
1487549 -0.8825526120786882 -0.3108420291246863
1492452 -0.881814637021359 -0.30910069627854764
1497355 -0.8831926908885117 -0.3084463995509719
1502258 -0.8814751674690421 -0.30546197431913685
1507161 -0.8845984143211031 -0.3063260448448107
1512064 -0.8815662862540496 -0.30779210713694294
1516967 -0.8853089801139713 -0.3038300443544116
1521870 -0.8817729139999564 -0.3052565663725839
1526773 -0.8822585490960204 -0.30098101646161046
1531676 -0.8797291414555579 -0.2993616990954597
1536579 -0.8844170965175195 -0.2995994860586209
1541482 -0.8858906477476917 -0.3021989586906609
1546385 -0.8847872167823759 -0.29695618879564095
1551288 -0.886811049786141 -0.29578768743042844
1556191 -0.882955928752066 -0.2945923210613041
1561094 -0.8864069071153444 -0.2965432310461548
1565997 -0.8868145147290687 -0.29340136147241846
1570900 -0.8876358889850313 -0.29505356038415
1575803 -0.8835891391055816 -0.29415401087881826
1580706 -0.8857845632119764 -0.2913714281205849
1585609 -0.8839448843129419 -0.290933195863508
1590512 -0.8825714282593048 -0.2884073268773297
1595415 -0.8846470582251471 -0.29272051222687
1600318 -0.8806325649484049 -0.29050042864950015
1605221 -0.8866659263923203 -0.2881567739877323
1610124 -0.8845750088725699 -0.2894915734555647
1615027 -0.8881094555723776 -0.28821518571743215
1619930 -0.8876325665434969 -0.28840958514340553
1624833 -0.8854922276142779 -0.2897673995648476
1629736 -0.888291633508892 -0.291444056540964
1634639 -0.8890141664654094 -0.2845274514263981
1639542 -0.8943770916729559 -0.28554634718770705
1644445 -0.8897738657828075 -0.2884141234758428
1649348 -0.8952066644883513 -0.28477711025255864
1654251 -0.8912605052338595 -0.28627756529704795
1659154 -0.8924660795841806 -0.2777853143743454
1664057 -0.8949473809580534 -0.2796649730740393
1668960 -0.8952092677710506 -0.28189326805994047
1673863 -0.8925732772861493 -0.2852248314138357
1678766 -0.8934472860774054 -0.278147803702723
1683669 -0.896659644351404 -0.2797816634175011
1688572 -0.8936246664825261 -0.2791969263993962
1693475 -0.8982828129792613 -0.27368688395858143
1698378 -0.8973999387486864 -0.2743805523720042
1703281 -0.893457123311843 -0.2762073575343082
1708184 -0.8940213143553318 -0.2744989487194333
1713087 -0.8961478111401878 -0.2731418684214461
1717990 -0.8970343921078822 -0.2722728960334558
1722893 -0.8951794514891611 -0.26831721353121407
1727796 -0.8997322142903811 -0.26856018974935897
1732699 -0.8950982316983044 -0.2711825730723309
1737602 -0.8975645937082356 -0.2665479468692481
1742505 -0.8995476343993618 -0.26926981691002566
1747408 -0.9004083026223311 -0.26368307835019456
1752311 -0.8956323829290939 -0.2670239945268412
1757214 -0.900032071181466 -0.26560287110421144
1762117 -0.8972086927441915 -0.26611390935344736
1767020 -0.8961290899229076 -0.26451986692807566
1771923 -0.9004910913523222 -0.25890488843279796
1776826 -0.9000516711995743 -0.26439802750953484
1781729 -0.9019572727266074 -0.26010722551868337
1786632 -0.8962051471031931 -0.2582562989307446
1791535 -0.901794419731092 -0.25835461744576627
1796438 -0.8970263279206518 -0.2634361148160243
1801341 -0.8983105690791738 -0.2538108211932683
1806244 -0.8978339684866968 -0.2544468359435885
1811147 -0.8978864953751954 -0.25162731193680365
1816050 -0.8993425407764492 -0.2538917848977958
1820953 -0.8970488003030529 -0.25816355208079755
1825856 -0.897544826641341 -0.25811289955982014
1830759 -0.8977120444296017 -0.255918285007508
1835662 -0.8975913691361161 -0.2549559940836732
1840565 -0.8989287591208959 -0.2558555641530377
1845468 -0.9027201134283862 -0.2548535675835925
1850371 -0.9003879513993065 -0.25243205217208314
1855274 -0.9045170057464388 -0.25549136078239904
1860177 -0.900960295482125 -0.25329393224473956
1865080 -0.9053502861331293 -0.25286308011371167
1869983 -0.9000091573477347 -0.25277773914404367
1874886 -0.9012905058021273 -0.2531166379855319
1879789 -0.9040449946346183 -0.25118828188983494
1884692 -0.9034213543009965 -0.2482331178296796
1889595 -0.9041291471527414 -0.2483960982891685
1894498 -0.9025564283640274 -0.24420471417708706
1899401 -0.9049583055528467 -0.24529509938699706
1904304 -0.9057737286320703 -0.24483137524950585
1909207 -0.9084180817060626 -0.24762561957400092
1914110 -0.9034520815503141 -0.2441426452347132
1919013 -0.9068294992417296 -0.24266135025218308
1923916 -0.9032665238909651 -0.24309608918806808
1928819 -0.9057364256475738 -0.24235728364071554
1933722 -0.9070323170141135 -0.24176235970114834
1938625 -0.9041857142504919 -0.24026386055654544
1943528 -0.9040859462638401 -0.24100518365427356
1948431 -0.9035507742868716 -0.23930652486470885
1953334 -0.9032915435370635 -0.23817678354285857
1958237 -0.9023570064093971 -0.2396053201164089
1963140 -0.9024636481933871 -0.23855298654512594
1968043 -0.9021250372835011 -0.24283568947115264
1972946 -0.9017148945179171 -0.23960207097142117
1977849 -0.9068347487681717 -0.23909611280280735
1982752 -0.9025321693731764 -0.24131363209128856
1987655 -0.9064931585069963 -0.23813754843558754
1992558 -0.9070086170366969 -0.23712902851560982
1997461 -0.908391602480446 -0.23637495098484834
2002364 -0.9086073204596081 -0.23866416638075907
2007267 -0.9078171467398852 -0.2329517174758762
2012170 -0.9123095302583738 -0.2358306627215633
2017073 -0.9078425729630464 -0.2351188026092382
2021976 -0.9066898691733328 -0.23553014176800047
2026879 -0.9091262311057102 -0.23490231855065025
2031782 -0.9109085695442907 -0.2328355062760494
2036685 -0.9103781017752363 -0.23184395209037703
2041588 -0.9111190239620072 -0.23013532625392
2046491 -0.9127812111780771 -0.23351574244281897
2051394 -0.9109126896886746 -0.2288169247066202
2056297 -0.9124386508656983 -0.22752501319421925
2061200 -0.9113751491446456 -0.22854529387005137
2066103 -0.9121694575149617 -0.22755255585149023
2071006 -0.9112239365826882 -0.2276192027947129
2075909 -0.914760287763989 -0.226591059391056
2080812 -0.9091129500710433 -0.22424987180311987
2085715 -0.9137640264672007 -0.2209755154468182
2090618 -0.9149224711942646 -0.22841615021213077
2095521 -0.9134636489377297 -0.21966296603725574
2100424 -0.9086315436800806 -0.22581403487346843
2105327 -0.9141772104542987 -0.2194429048162111
