# HZ S RI R 50
100000 0.542867313599943 -0.7051108448648506
104903 0.5163353190348215 -0.72120981265131
109806 0.4873911080143058 -0.738348802384404
114709 0.45527878645531655 -0.7549736884369327
119612 0.42601359459699656 -0.7670846710718464
124515 0.39531171668848697 -0.7787217107469072
129418 0.36413996130805054 -0.7908861533701848
134321 0.3330576358474759 -0.797827458986381
139224 0.30177604043744116 -0.8081820820875163
144127 0.269576900720406 -0.8156109765258484
149030 0.232861355296681 -0.8159091736835611
153933 0.1979570067517363 -0.818151887497605
158836 0.1629746881784554 -0.8186391663136556
163739 0.12423796006204191 -0.8117640401412589
168642 0.08960611309833678 -0.7973277670711343
173545 0.05973935813545773 -0.7837308235678689
178448 0.029006746030101466 -0.7661352541187304
183351 -0.005169859921264954 -0.7401145688799733
188254 -0.03545392578674571 -0.7090259614238178
193157 -0.06077240165693432 -0.6667397584473296
198060 -0.07831000957865045 -0.6125768654769692
202963 -0.0711607617741152 -0.5332470530386814
207866 -0.018430148043511722 -0.4723135173187499
212769 0.0638669530510011 -0.4199187179909363
217672 0.18055860423024028 -0.4258021609132428
222575 0.2841486171947219 -0.5193768428288795
227478 0.29455164248656684 -0.6346783279644557
232381 0.2578742102231115 -0.7076849683987229
237284 0.2188395706032437 -0.7547791659044897
242187 0.18114274625108379 -0.7854260997493081
247090 0.14765494645259994 -0.8017965602406087
251993 0.1222990465309679 -0.8229936566083456
256896 0.09177419116486593 -0.8345856865994151
261799 0.06232712970398801 -0.8459413942076728
266702 0.03334196400645687 -0.8534167752737221
271605 0.003905831581010436 -0.8570211074364441
276508 -0.020193218358931782 -0.8599337545175915
281411 -0.04624161904977165 -0.86085758606535
286314 -0.06627462049488823 -0.8589381713159382
291217 -0.08395188881348972 -0.8532101314011935
296120 -0.10204818948238724 -0.850676751514334
301023 -0.11939921960388747 -0.8444119638287355
305926 -0.135934688621115 -0.8410003432021868
310829 -0.14214992104391164 -0.8361893008160086
315732 -0.1544788279046545 -0.8386533252442308
320635 -0.1687023841714341 -0.8387034011642225
325538 -0.18148239177135092 -0.8394268301048148
330441 -0.1946287883879493 -0.8414108732909433
335344 -0.21219483296968952 -0.8395895281363268
340247 -0.22577984964712025 -0.839687479809304
345150 -0.2388753660999859 -0.8380919436345172
350053 -0.2553256797557857 -0.8321664111357802
354956 -0.26620147335782024 -0.8289934468494778
359859 -0.2818910480245643 -0.8256211109255212
364762 -0.29215692856384673 -0.8221398347820532
369665 -0.3039649423119081 -0.8176908078104891
374568 -0.31553857736624313 -0.8137973329249635
379471 -0.3285810750718067 -0.8116370082919708
384374 -0.3390746679676207 -0.8119672677761004
389277 -0.34548897350791913 -0.803346909741149
394180 -0.35830348012700053 -0.7993644600854906
399083 -0.36844309475360915 -0.7944468373671233
403986 -0.37833409427798653 -0.7884391895147679
408889 -0.38628209666809743 -0.7899286077522538
413792 -0.3957883991014584 -0.77826429088302
418695 -0.4050523440110973 -0.7767220132563256
423598 -0.4123615184200073 -0.7742170826623609
428501 -0.42435509030483504 -0.7675777478182392
433404 -0.4305271411834734 -0.7651040876957561
438307 -0.4423735716419894 -0.7587643244081085
443210 -0.44594846860120374 -0.7575904030240018
448113 -0.4537325154048082 -0.7509414854737555
453016 -0.4636414632067804 -0.7482432305955534
457919 -0.4690787455028341 -0.7402692008865002
462822 -0.4783687920684375 -0.7389361698644954
467725 -0.4870462368765279 -0.7303374741038231
472628 -0.49353466016898734 -0.730541984400459
477531 -0.5000940984017146 -0.7227705534534286
482434 -0.5059855902392715 -0.715011584777551
487337 -0.5136725895377542 -0.715172933863892
492240 -0.5208647220529099 -0.7064987680999935
497143 -0.527751223061648 -0.7026367921470508
502046 -0.5324598764687882 -0.6956403924111544
506949 -0.5385137789772992 -0.6916135700856832
511852 -0.5421053827472823 -0.6860264316162726
516755 -0.5523488511162051 -0.6783858027539811
521658 -0.5575747264420883 -0.676634519071527
526561 -0.5615928021044135 -0.664085249358688
531464 -0.5702765987304312 -0.6557364457642869
536367 -0.5768327111601531 -0.6503571716686835
541270 -0.5765810834735368 -0.6367764027244444
546173 -0.5813426464341029 -0.6292792052492964
551076 -0.5852230629077442 -0.6154507084996952
555979 -0.5836209409457319 -0.5987828453378777
560882 -0.575754962553792 -0.5853605982448248
565785 -0.5684834170806303 -0.5657782642479354
570688 -0.5477461183904505 -0.5565716448348003
575591 -0.51911691665572 -0.5598502310601546
580494 -0.4946888342933093 -0.5766965959359088
585397 -0.48847331390069315 -0.6021851586779188
590300 -0.4923750792104806 -0.6274804569423966
595203 -0.5076719424498424 -0.6454039477958126
600106 -0.5204266437691191 -0.6550517810135517
605009 -0.535601224411563 -0.6612507141824698
609912 -0.5483383473576483 -0.6647946177570299
614815 -0.5607984921902904 -0.6629562475804198
619718 -0.5731461633348421 -0.6619941688683412
624621 -0.5828929814275521 -0.6618534714734545
629524 -0.5918602500504062 -0.6570594160358574
634427 -0.5999393204263571 -0.6538750945648814
639330 -0.609482487864099 -0.6505968750258859
644233 -0.6165099568118247 -0.6439637110638535
649136 -0.6195487144281296 -0.6444000095236961
654039 -0.6270017480321404 -0.6360479873635281
658942 -0.639117879671401 -0.6321540618739164
663845 -0.6379782442489703 -0.6316686034492087
668748 -0.6426991858092437 -0.6240021892297833
673651 -0.6463430422199717 -0.6201888513277715
678554 -0.6493901625317703 -0.6159254959793975
683457 -0.6535745376701214 -0.6144825462834159
688360 -0.6546403998689274 -0.6101423869176713
693263 -0.6646432741371063 -0.6067478040595625
698166 -0.6666429604884501 -0.6051205714059609
703069 -0.6674039628545424 -0.6004196203057103
707972 -0.6703144224055048 -0.6026071215081831
712875 -0.6747615325107966 -0.597322095576967
717778 -0.6840226044658546 -0.597504793256442
722681 -0.6858438928650613 -0.5884469282272722
727584 -0.6882156350132593 -0.5875880718108886
732487 -0.6904051688709385 -0.5806100074104295
737390 -0.6956764831364735 -0.5775211074564152
742293 -0.6956778120408473 -0.5764740760544833
747196 -0.7023142787507668 -0.5722154942060556
752099 -0.7031605296319839 -0.5691197323619052
757002 -0.7092939471241922 -0.5686667240459096
761905 -0.7087954796243794 -0.5658222348429346
766808 -0.7101838435932292 -0.5624401782056951
771711 -0.715153056905898 -0.5596197680509799
776614 -0.7164701554916085 -0.5545440865809252
781517 -0.7203887609152494 -0.551586016190836
786420 -0.7229248982805913 -0.5482428613291076
791323 -0.7258936175854878 -0.548885005722323
796226 -0.7307466400617053 -0.5441064347852761
801129 -0.7290998326255246 -0.5401629809712059
806032 -0.7324937030728161 -0.5370171221588783
810935 -0.7365926567967044 -0.535414420478389
815838 -0.737133910534591 -0.5331937743829378
820741 -0.7367780791909877 -0.5286528935422556
825644 -0.7400685336676714 -0.5255814627518679
830547 -0.7424899416935054 -0.5232266553520678
835450 -0.7449213574180782 -0.5177985385828624
840353 -0.7465658382007034 -0.5183924588148926
845256 -0.7484653743560127 -0.5131273984670495
850159 -0.752531613002886 -0.5126974746234908
855062 -0.7518790830453187 -0.5088787891730261
859965 -0.7580862624829193 -0.5061904214398713
864868 -0.7574884782512182 -0.5032719526719518
869771 -0.7608729789716494 -0.5005243417299422
874674 -0.7621795046912208 -0.49807587491745414
879577 -0.7606899820061436 -0.4919150022138564
884480 -0.7608458748333302 -0.4889232594411836
889383 -0.766245634834789 -0.48173910439341433
894286 -0.7693506115832016 -0.4839197402948823
899189 -0.7662670394006371 -0.47758643244339766
904092 -0.7693563495123704 -0.4734289678840213
908995 -0.771728311797409 -0.46811393050920985
913898 -0.7706826521964192 -0.46387127893032126
918801 -0.7670307653882258 -0.45435388698563484
923704 -0.7618750882806663 -0.4516115299813729
928607 -0.7573983505652352 -0.45117623510151156
933510 -0.7491497631965655 -0.449565725896912
938413 -0.7426849416695186 -0.44602698943016644
943316 -0.7398798825586983 -0.45578892051456077
948219 -0.7385516536306685 -0.4637273094465401
953122 -0.7453897189258223 -0.46825629787476236
958025 -0.7431825751481624 -0.474372845176954
962928 -0.7531392470511729 -0.4777169306198974
967831 -0.7561265089157745 -0.4774713011461046
972734 -0.7637244253739619 -0.47761399218653056
977637 -0.7631834986982344 -0.47923472029999997
982540 -0.767553010468238 -0.4714144571771568
987443 -0.7728382057309625 -0.4758074940540807
992346 -0.7790908312343074 -0.47127604784401445
997249 -0.7789406710911315 -0.4734114891759265
1002152 -0.7810645448892423 -0.4646486648778241
1007055 -0.7850753699979517 -0.4657752461872767
1011958 -0.7895649784412261 -0.464926905470682
1016861 -0.7918393807022085 -0.4614774946909536
1021764 -0.79196770111934 -0.4578452199264863
1026667 -0.7941765235490421 -0.45437043178307335
1031570 -0.7982482318993194 -0.4551176047539821
1036473 -0.7954755012480828 -0.4494427076279922
1041376 -0.8013706550289691 -0.45070784195429653
1046279 -0.8008592162162748 -0.45014336178870773
1051182 -0.805282675554393 -0.4451346137701682
1056085 -0.8049880315867576 -0.4440037488846719
1060988 -0.804043904649548 -0.44327003392327724
1065891 -0.8091261392717135 -0.4432642493841781
1070794 -0.8081857325822601 -0.4394724863539296
1075697 -0.8106103234878195 -0.4372748152550735
1080600 -0.8123950193273256 -0.43416294837787606
1085503 -0.8115181049554896 -0.43235762270476713
1090406 -0.8176371599989937 -0.43085305437095894
1095309 -0.8152326405359495 -0.4302316484127392
1100212 -0.8190896658551111 -0.4280707060091873
1105115 -0.8191872979927364 -0.4207453138146683
1110018 -0.8207233375143465 -0.42477146838884616
1114921 -0.8200905114457542 -0.4193172226471133
1119824 -0.8223346190703723 -0.4235199655756842
1124727 -0.8217597933821232 -0.4158453561384578
1129630 -0.8259209568796388 -0.4116054589148295
1134533 -0.8272293246708466 -0.4113147549488061
1139436 -0.8286520359744818 -0.414987565315656
1144339 -0.8265343255932408 -0.4102454136678665
1149242 -0.8303784254181162 -0.4070948056582884
1154145 -0.8334548081232749 -0.40752973777182533
1159048 -0.8320095607729812 -0.40763482492579545
1163951 -0.8317048375961154 -0.4019361794269874
1168854 -0.8319143919897716 -0.4002636502622754
1173757 -0.8348072696543248 -0.3983404556222728
1178660 -0.8336608625745444 -0.39547451743945894
1183563 -0.8364915734894239 -0.3933261355123917
1188466 -0.8346578409196307 -0.39230657380600115
1193369 -0.838564774201372 -0.39336900218560056
1198272 -0.8399091784835138 -0.3884814181292637
1203175 -0.8420199817689518 -0.38626868552696225
1208078 -0.8363008530423915 -0.3829207520595362
1212981 -0.8390634010365313 -0.38204441031717656
1217884 -0.839557919035007 -0.38247102217644224
1222787 -0.8412263919972374 -0.37874672070088417
1227690 -0.8394648906633392 -0.3743659587382564
1232593 -0.8436275362205672 -0.3745811253469299
1237496 -0.8405542727853702 -0.37372892064027236
1242399 -0.8424013197877239 -0.36839072990140725
1247302 -0.8415107326225271 -0.3709013244006001
1252205 -0.8416545771497672 -0.36654720135529567
1257108 -0.8407677355893383 -0.3620094171445376
1262011 -0.8400043130097588 -0.36101426942867765
1266914 -0.837767535358815 -0.3613648739798349
1271817 -0.8350895276053834 -0.35937161845744886
1276720 -0.835597096588067 -0.35982034231281224
1281623 -0.8300401161879716 -0.35873846402414056
1286526 -0.8273345505564909 -0.3612596292539894
1291429 -0.8303258240784661 -0.3654991878003568
1296332 -0.8331400874572082 -0.36513563836963064
1301235 -0.8347755919897385 -0.366347212674856
1306138 -0.8386083676366202 -0.3712345572973097
1311041 -0.83623441528265 -0.3656036186066036
1315944 -0.835740399534872 -0.36651175233583516
1320847 -0.8433082760388267 -0.3652394201777033
1325750 -0.8444080086381692 -0.3671470012191531
1330653 -0.8451114927967128 -0.3650683175517066
1335556 -0.8503716174054676 -0.36321349962341315
1340459 -0.8489752674552478 -0.3632259243144494
1345362 -0.8510458014679096 -0.3599097016810302
1350265 -0.8500580073882625 -0.3588520885986545
1355168 -0.8536123561389531 -0.35913625374398145
1360071 -0.8544227778807184 -0.35627911839062354
1364974 -0.855897604459002 -0.35418940034578705
1369877 -0.8571107010643466 -0.35552040536264395
1374780 -0.8579348003544093 -0.35371263512290674
1379683 -0.8610345887989772 -0.34964193559035994
1384586 -0.8585837178440772 -0.3483259630155755
1389489 -0.8613482190966403 -0.3455755178415488
1394392 -0.8601986015910564 -0.34467789210118155
1399295 -0.860631986717578 -0.34595204063507384
1404198 -0.8645699311845433 -0.3441631490543175
1409101 -0.863780114186021 -0.34258652574834264
1414004 -0.8673148135925176 -0.34167000397799885
1418907 -0.8650382394242115 -0.3404877171751273
1423810 -0.8667116523370981 -0.336775259046454
1428713 -0.868323911321854 -0.3373348415011821
1433616 -0.8679791980902453 -0.33659271874589425
1438519 -0.8664181959988012 -0.33592184775732975
1443422 -0.8698380624860209 -0.328267580976604
1448325 -0.8711439955854902 -0.3300234380682141
1453228 -0.8691797346891933 -0.32750586789877867
1458131 -0.8676372598395087 -0.3285717649116994
1463034 -0.8746762432121845 -0.325378898263189
1467937 -0.8682241686517975 -0.3250015409832549
1472840 -0.870497633188866 -0.3256218932089347
1477743 -0.8688839412317997 -0.3225887218566502
1482646 -0.8728524169441302 -0.322326555916274
1487549 -0.8716109696833063 -0.32099669937083314
1492452 -0.8708040646870397 -0.3155925329755083
1497355 -0.8757296580099067 -0.3155154903644379
1502258 -0.8733657573000772 -0.3149808272203212
1507161 -0.871935543651515 -0.3130777749592376
1512064 -0.8768087353346757 -0.3151373013414664
1516967 -0.874686233309172 -0.31016580964803714
1521870 -0.8721392037923508 -0.31265003951303527
1526773 -0.8771332083219014 -0.306874770605559
1531676 -0.8723833330680856 -0.304292352363489
1536579 -0.8734609500476623 -0.303274194728474
1541482 -0.8729566656829405 -0.3051070927100336
1546385 -0.8715507499094383 -0.30019336496445237
1551288 -0.875147089547422 -0.299735664803217
1556191 -0.87153815956757 -0.2990793261344048
1561094 -0.8697214923873126 -0.3002812177165373
1565997 -0.8658147018133574 -0.2998248507188699
1570900 -0.8693549061753224 -0.3017639826562577
1575803 -0.8650481642062291 -0.3076592092476764
1580706 -0.8674000278186896 -0.3065525499488708
1585609 -0.8666904019120603 -0.3072647575382027
1590512 -0.8680659478861422 -0.3017836408229941
1595415 -0.8749330679888342 -0.3059967399056766
1600318 -0.8735142842982971 -0.30753676099894844
1605221 -0.875957602495821 -0.3041036600627001
1610124 -0.8787224200886404 -0.3019264367672936
1615027 -0.8796731079543018 -0.306064790817462
1619930 -0.8791211065457308 -0.3014668965822041
1624833 -0.8807855039166272 -0.29622781729819764
1629736 -0.8834750568237845 -0.2979236716961635
1634639 -0.8826215887673396 -0.29430210884156743
1639542 -0.8816760123559921 -0.2934571996728256
1644445 -0.8854075527971089 -0.29533289224809406
1649348 -0.8872929025123761 -0.2924135835392425
1654251 -0.8866947848858223 -0.29185832914308996
1659154 -0.8858744393017759 -0.2890607774070324
1664057 -0.888914059146136 -0.28676259862939146
1668960 -0.8894452465706614 -0.28523634091257377
1673863 -0.8884722613603692 -0.2877252600174329
1678766 -0.887332258743016 -0.2851942454718411
1683669 -0.8894969132081619 -0.2844495834400056
1688572 -0.8891244837310015 -0.28304014060729765
1693475 -0.8953664333771116 -0.2796425079064728
1698378 -0.8883276116938194 -0.28120222653875654
1703281 -0.8876912756446383 -0.2762472887035231
1708184 -0.8893221451653219 -0.278952386243939
1713087 -0.8905105695423607 -0.2754319630281057
1717990 -0.8882288096762297 -0.27659062257648803
1722893 -0.8893199379114042 -0.27052888086724813
1727796 -0.8916081878758693 -0.270401812774069
1732699 -0.8853949704322728 -0.26936607470027374
1737602 -0.892093917425929 -0.2704654638480763
1742505 -0.8900501549084923 -0.2677923872056153
1747408 -0.8910812387960302 -0.2633058810448241
1752311 -0.8865013968092988 -0.2629265565008358
1757214 -0.8904541428106202 -0.26536188473801553
1762117 -0.8861707617681095 -0.264840998852212
1767020 -0.8863315001886847 -0.2650470803580213
1771923 -0.8862288583543655 -0.26561794721462983
1776826 -0.8842096238589012 -0.26447522176676447
1781729 -0.8880556328454685 -0.2661456931834859
1786632 -0.8853506025225334 -0.2612199345913675
1791535 -0.8876265115343841 -0.2639321676827036
1796438 -0.8863580697785486 -0.2674415547668867
1801341 -0.8844052377710812 -0.26223120786021653
1806244 -0.8880924592223703 -0.26475332101731347
1811147 -0.8920506703636429 -0.2584701307571061
1816050 -0.8941178300944889 -0.2589468296146694
1820953 -0.8936087400054546 -0.2627637329129147
1825856 -0.8917087891938824 -0.25806491948226645
1830759 -0.8933028869708314 -0.2578418011922383
1835662 -0.8920869393214286 -0.254872247972158
1840565 -0.8921191626212273 -0.25758590016387795
1845468 -0.895388653403447 -0.2556791300249364
1850371 -0.8959472653002002 -0.25237698058410457
1855274 -0.8937103146336387 -0.25380044068765817
1860177 -0.8910619622024314 -0.25264348954605675
1865080 -0.8935640003024267 -0.25027215993353175
1869983 -0.8935035237038311 -0.25311926777292026
1874886 -0.8936214698001066 -0.25059184896872005
1879789 -0.8949123112308186 -0.2493004445603539
1884692 -0.8933182893955104 -0.2470251733249559
1889595 -0.8956936079925997 -0.2453488672995983
1894498 -0.8904328236330762 -0.2412668790503945
1899401 -0.8963272651800421 -0.24570359552531387
1904304 -0.8947263828638898 -0.24369103477128481
1909207 -0.8952383952605804 -0.24393337842334414
1914110 -0.8920790410502042 -0.2412335182811942
1919013 -0.8950891910140775 -0.24410199733101903
1923916 -0.8920628176962423 -0.24639055705901697
1928819 -0.892614959558651 -0.24377086442905313
1933722 -0.8933702604525755 -0.2432365965122798
1938625 -0.8974210460446006 -0.24348481829474033
1943528 -0.8955350542475708 -0.24639829319878243
1948431 -0.8945160764830242 -0.24285797682599666
1953334 -0.898526444767927 -0.24146569758315864
1958237 -0.8982763028063405 -0.24111676591239473
1963140 -0.8975586128915842 -0.24352926583283252
1968043 -0.8994272928890905 -0.2427222899861689
1972946 -0.9023004373395852 -0.2412326681417072
1977849 -0.8986387473654315 -0.2419448652979029
1982752 -0.9008945840429647 -0.2397370812338807
1987655 -0.9017709062963751 -0.2373336711363858
1992558 -0.9054783586656033 -0.23654373329831954
1997461 -0.904144747991584 -0.2360321782454604
2002364 -0.9052630046689982 -0.2358057837936182
2007267 -0.9012873232864013 -0.232082927546969
2012170 -0.9051415111679362 -0.23163645894745588
2017073 -0.9057970449794239 -0.2334643098627476
2021976 -0.9046663143100311 -0.23107693169925914
2026879 -0.9041450564202841 -0.22937148769820134
2031782 -0.9062468631230337 -0.2242267495488041
2036685 -0.9077422029358158 -0.22785010768898165
2041588 -0.9049045649390379 -0.2242917486902909
2046491 -0.9085303232678477 -0.2214326675859753
2051394 -0.9082284357318632 -0.22366076192420625
2056297 -0.9099776857755717 -0.2237332890848922
2061200 -0.9067084753854885 -0.220632132234427
2066103 -0.9125520652592638 -0.21939518240491726
2071006 -0.905757086368757 -0.22163858968348257
2075909 -0.9101043787701691 -0.21946404516285553
2080812 -0.9046913803056431 -0.21872242478659537
2085715 -0.9070145191664741 -0.2172083611993996
2090618 -0.9111842175851306 -0.2173042664424909
2095521 -0.9112351723332504 -0.2125721996050346
2100424 -0.910772809896204 -0.21590855985469676
2105327 -0.9102923685234271 -0.2157856292730145
