# HZ S RI R 50
100000 0.5353878514354027 -0.7138281572734286
104903 0.5062561360828992 -0.7308500089391833
109806 0.4795819174903201 -0.7462298414040731
114709 0.4459423023754361 -0.7621872543420098
119612 0.4215605892452532 -0.7749135650463196
124515 0.3913160666176091 -0.785405424495479
129418 0.3611470197353591 -0.7980762892682257
134321 0.33237063230682784 -0.8049882247822232
139224 0.30327015465258217 -0.8160267518105301
144127 0.27526908638992126 -0.8230457429786953
149030 0.24155138887031827 -0.8262411372591093
153933 0.2114834021104943 -0.8288690116940131
158836 0.18069801668272042 -0.8318953148401127
163739 0.14990151587570819 -0.8299839999586094
168642 0.11729387658234995 -0.8215172952822837
173545 0.09356010079655624 -0.8178151767046691
178448 0.06454975318495287 -0.809199060568216
183351 0.034085706909576685 -0.794508172867883
188254 0.005113746564959216 -0.7752604061719744
193157 -0.021200683315971577 -0.7530269649355162
198060 -0.0428726509897593 -0.7206594555418264
202963 -0.05492655387157166 -0.6694082043289834
207866 -0.03230587847004682 -0.6223240522541476
212769 0.015817813701836787 -0.5781170998579382
217672 0.09618507430561565 -0.5733596271877864
222575 0.16955518212959342 -0.642535673248152
227478 0.1658596941830901 -0.7281585847512345
232381 0.12995298825347404 -0.7760726870735248
237284 0.09622738728087327 -0.804664027481517
242187 0.061180234633791686 -0.8233616521013412
247090 0.03495059870357317 -0.8308524804282562
251993 0.010042585207736045 -0.8448505500288053
256896 -0.013136304923368697 -0.8484884844627784
261799 -0.03929071520797555 -0.853435678910521
266702 -0.06302903003429683 -0.8571516615524739
271605 -0.08633107524651382 -0.8549305640505002
276508 -0.10801620599759577 -0.8554827493925283
281411 -0.12815402419709063 -0.8528747413830641
286314 -0.14542331230035252 -0.8500565046043206
291217 -0.15920063303861293 -0.8455813111143303
296120 -0.17610082205972422 -0.8413468345578339
301023 -0.19070456485077017 -0.8366025421073021
305926 -0.20577148962269168 -0.8330863097379457
310829 -0.2116997109176651 -0.8282554162010531
315732 -0.2236767438223957 -0.8278858800892863
320635 -0.23673894979014895 -0.8282239091965679
325538 -0.2469178912777963 -0.8246180532914181
330441 -0.2607783544651742 -0.8279699410425249
335344 -0.2749127023717538 -0.8210800924800955
340247 -0.2889794184229318 -0.8232491709894603
345150 -0.29862568474643314 -0.8181957514356328
350053 -0.31596029881673926 -0.8164863285562306
354956 -0.324220448200738 -0.80937419791657
359859 -0.33843654826253233 -0.8055093940040365
364762 -0.3454808290823876 -0.8022472973175886
369665 -0.35742907815360137 -0.7968192340339709
374568 -0.36572826086869525 -0.7960672892351861
379471 -0.37869751572786536 -0.7878133565715707
384374 -0.3876058094139886 -0.7904308034288694
389277 -0.3948878323322381 -0.7810366265289863
394180 -0.4036754141225695 -0.7777821453106872
399083 -0.41375729574780695 -0.772127098660745
403986 -0.42328551993610397 -0.7684392681752245
408889 -0.4289961687572696 -0.7646905070923252
413792 -0.43859349988236895 -0.759764197924837
418695 -0.44637526542551476 -0.7555814611480011
423598 -0.4554178703970129 -0.752450861639517
428501 -0.46531038746163084 -0.7469005132327944
433404 -0.47125518393460425 -0.7448009934080881
438307 -0.48191229678922765 -0.7379512248646647
443210 -0.4833519495677279 -0.7372085467049241
448113 -0.49138114438278946 -0.7311975624439351
453016 -0.4991441444487051 -0.7270259614473407
457919 -0.5047915499299397 -0.7233204285717953
462822 -0.5117243899055207 -0.7178570548878388
467725 -0.5191691988193704 -0.7127669638955125
472628 -0.5255652500876021 -0.7097670996679357
477531 -0.5317686380397826 -0.7037498704167909
482434 -0.5369474076259928 -0.6972249004585347
487337 -0.54298070204669 -0.6981299780139033
492240 -0.5503961953994869 -0.6911078936169259
497143 -0.5562473923151414 -0.6872011677099331
502046 -0.5591616727252313 -0.6821602016308347
506949 -0.5646016577550373 -0.6770313670527968
511852 -0.5679889171899792 -0.6729850511036578
516755 -0.576966518514901 -0.6661164729563801
521658 -0.5822753186416988 -0.6665555608990374
526561 -0.5851770803714027 -0.6554561917098959
531464 -0.5914235098875494 -0.6521583809980728
536367 -0.5954549130975585 -0.6454357975407545
541270 -0.5987816785803903 -0.6402649217981223
546173 -0.60387466102195 -0.6373736632604274
551076 -0.6094766885315022 -0.6274219029414676
555979 -0.6128313788038556 -0.6179371127710734
560882 -0.6097913496175321 -0.608830209697551
565785 -0.610230140174578 -0.5968233861877941
570688 -0.6075823287987907 -0.5858007026415224
575591 -0.5952083900347609 -0.5809800201408367
580494 -0.5761187381755306 -0.5767514068224251
585397 -0.5686733881773918 -0.5919968071180451
590300 -0.5658358902589389 -0.6077252967660168
595203 -0.5751061518525052 -0.6197531721100413
600106 -0.5814352584898372 -0.6271625233470821
605009 -0.5970938169465871 -0.6332181841138338
609912 -0.6031026769598918 -0.6305158962895197
614815 -0.611711691868932 -0.631750221252585
619718 -0.6217647538193461 -0.627160580757499
624621 -0.6307033562740005 -0.6277511078301808
629524 -0.6361765872021349 -0.624414933746644
634427 -0.6423392414238033 -0.6210226401421166
639330 -0.6488870304040595 -0.6177128130839743
644233 -0.6562583649358867 -0.6132699172515526
649136 -0.6561525559719048 -0.6126277055534721
654039 -0.6620421391422167 -0.6063318089041033
658942 -0.6719851883563391 -0.6035900193691722
663845 -0.6715511837225477 -0.5981764086178694
668748 -0.6755899626500319 -0.5926485117760837
673651 -0.6780257002181101 -0.591861524265742
678554 -0.6806252635867438 -0.5892151868213229
683457 -0.6849759028879512 -0.5874271550365574
688360 -0.6860015197390409 -0.5821855771270997
693263 -0.6950118610645507 -0.5801134142759923
698166 -0.6945903549013653 -0.5780769024219805
703069 -0.6980807378396858 -0.574289265709806
707972 -0.7007932385275698 -0.5747022395097893
712875 -0.7036547280925942 -0.5726039878893467
717778 -0.7107957387871545 -0.5669184906765917
722681 -0.7115028913449316 -0.5625872884486117
727584 -0.7135086265351607 -0.5596466806759965
732487 -0.7156306403504213 -0.5560432947110486
737390 -0.7204745657175332 -0.5516178848064892
742293 -0.7230683571689369 -0.5518121732244154
747196 -0.7263506888722776 -0.5458321957093095
752099 -0.7296425884638547 -0.5451542723382466
757002 -0.7315475177612589 -0.5413333342610269
761905 -0.7326461642852384 -0.5384054840387124
766808 -0.7314192894828278 -0.5360987657676486
771711 -0.7366912280706694 -0.5357369326941505
776614 -0.7380503195249215 -0.5318513121416825
781517 -0.7406314738652804 -0.5305734359030416
786420 -0.7452681605935829 -0.5239582914832078
791323 -0.7485566492610444 -0.5202208621329687
796226 -0.7481217611819658 -0.5190151926312362
801129 -0.7511475475489847 -0.5181746389138822
806032 -0.7517964206765552 -0.5147536255882327
810935 -0.756035001926907 -0.5125906629543492
815838 -0.7561423896868983 -0.5131216773906083
820741 -0.7550676606150128 -0.507653099070272
825644 -0.7597774014420262 -0.5068948089637005
830547 -0.7624456102815892 -0.5029666054953194
835450 -0.7663081190620079 -0.5004290917287447
840353 -0.7615510811533218 -0.49997377656444303
845256 -0.7663456287085918 -0.49439115169977954
850159 -0.7674423333307522 -0.4939494000358152
855062 -0.7704579720411706 -0.49018510881309424
859965 -0.773158671079551 -0.4893807782792166
864868 -0.774388907480512 -0.48463427616020593
869771 -0.7773121040830091 -0.4868912127049861
874674 -0.7773996304719065 -0.47994789719558245
879577 -0.7766922110696824 -0.4778632063581539
884480 -0.7766211548217861 -0.47367539672260817
889383 -0.7850951189885442 -0.4726385298653915
894286 -0.7838056285883573 -0.47135167872389033
899189 -0.7869390765232883 -0.4660280992415769
904092 -0.7845971051476384 -0.4621340829036805
908995 -0.78734692788918 -0.45897397068909745
913898 -0.7882001476236054 -0.4575109747280728
918801 -0.7899071241404838 -0.4530651896426495
923704 -0.7854350447775443 -0.44826946708417065
928607 -0.7884334583210171 -0.4475029857334844
933510 -0.7865626413798228 -0.4442490352736787
938413 -0.7838211909292246 -0.43827233828021805
943316 -0.777411186112617 -0.4381505743994191
948219 -0.7782940510818656 -0.4421693835306155
953122 -0.7784723861022903 -0.4438370506366444
958025 -0.7735853342396602 -0.4450856206564385
962928 -0.7787232244989145 -0.4491378755651105
967831 -0.7831127369261387 -0.45234924833592965
972734 -0.785268014137957 -0.4499403006390192
977637 -0.7850170200207668 -0.44996340393946455
982540 -0.7885366585839348 -0.4477993226145057
987443 -0.7949996992802255 -0.45019066558448373
992346 -0.7939462339300729 -0.446556712909011
997249 -0.7996656934865528 -0.44760497101967267
1002152 -0.7976287278108835 -0.44527543896795724
1007055 -0.8026318430606713 -0.44422574627955164
1011958 -0.8078014012000025 -0.44137877339805415
1016861 -0.8086919776277594 -0.43984212893151636
1021764 -0.8114107869502148 -0.43761464829837243
1026667 -0.8095927391523909 -0.43499562768109473
1031570 -0.8143339350466599 -0.43357032060397765
1036473 -0.8117105306403261 -0.42945210877934253
1041376 -0.8177824497214079 -0.43093295006061505
1046279 -0.8169580061874702 -0.42673166361038356
1051182 -0.8172209730339607 -0.4251590442432627
1056085 -0.8235331732696332 -0.4255752719714834
1060988 -0.8205783762085485 -0.4248912695791692
1065891 -0.8261992905524514 -0.421858345261642
1070794 -0.8226234321746497 -0.4178318166081968
1075697 -0.8247458935166703 -0.4174692576372229
1080600 -0.8266185621236117 -0.41375641044193967
1085503 -0.8263353328330019 -0.41191824113114794
1090406 -0.8287320676053553 -0.4125215701430116
1095309 -0.8299668864135086 -0.40955413697553555
1100212 -0.830357628652876 -0.41293640692326816
1105115 -0.8316874880806991 -0.40350298728295575
1110018 -0.8315208630534224 -0.4065377060182249
1114921 -0.8324101118677081 -0.4003255292628531
1119824 -0.8351976852568974 -0.40269509091080347
1124727 -0.8353446018522424 -0.3998083786427358
1129630 -0.8373923031446878 -0.3948378627063734
1134533 -0.838469070028775 -0.3970501119384586
1139436 -0.8396383382213987 -0.39814667030466405
1144339 -0.8375271013552253 -0.39194737725940765
1149242 -0.8415282827492957 -0.3920211920033358
1154145 -0.842279247540207 -0.3919038609538635
1159048 -0.8412495909401799 -0.39323406625364826
1163951 -0.8419289453648466 -0.3839806131536113
1168854 -0.841979588433644 -0.383300365523294
1173757 -0.8448589436651972 -0.38544496291421976
1178660 -0.8447881466916918 -0.3799495681158887
1183563 -0.8433658003977573 -0.381438564190149
1188466 -0.8450465455590449 -0.3798557564439676
1193369 -0.8470432360860861 -0.38260542447120693
1198272 -0.8466929417126172 -0.3753693644287419
1203175 -0.8508390838770501 -0.3746164848040784
1208078 -0.846617450885634 -0.3691223044161824
1212981 -0.8494638925523779 -0.37204608700715114
1217884 -0.8487436101028406 -0.3726079345604388
1222787 -0.8535816987438807 -0.3691802937334425
1227690 -0.8500532845400219 -0.36617364689429094
1232593 -0.8544779305092663 -0.36736994214079793
1237496 -0.8537416120261433 -0.36582355477057044
1242399 -0.8543358544715718 -0.3629845665982796
1247302 -0.8543606171382149 -0.3620004273175209
1252205 -0.8557129109167694 -0.3576514919727508
1257108 -0.8572848633806951 -0.35759593557419117
1262011 -0.8550872938631068 -0.3572851504760817
1266914 -0.8585203029288171 -0.35144692663342453
1271817 -0.8543259536864732 -0.35337200331722074
1276720 -0.8558255474231391 -0.3481325212112837
1281623 -0.8526376537247724 -0.3469424637465022
1286526 -0.8531371303506865 -0.34675110936844905
1291429 -0.851564386354222 -0.3481224826386434
1296332 -0.8527358510224456 -0.34514543713966556
1301235 -0.8483465302223049 -0.34676499132549093
1306138 -0.8517280020544414 -0.35155677085874903
1311041 -0.8510287662510181 -0.349306549703643
1315944 -0.8503155724488475 -0.3493936508682411
1320847 -0.8519669999495388 -0.3497130879620331
1325750 -0.8521641792495123 -0.3499184317813475
1330653 -0.8547117182337015 -0.3482190790940244
1335556 -0.8592621556449737 -0.3470593744973465
1340459 -0.8621174654182879 -0.3496423945802367
1345362 -0.8591702838142361 -0.3450316536639914
1350265 -0.8617358851221651 -0.344543205981624
1355168 -0.8623354398734031 -0.34577260527107495
1360071 -0.8676626980005572 -0.34371858698566177
1364974 -0.8654230901348041 -0.34135769095201807
1369877 -0.8666585393785223 -0.3405710290782094
1374780 -0.8665228410523798 -0.3416164928985507
1379683 -0.8718733143126354 -0.3370447257424505
1384586 -0.8663412042426379 -0.334572272536244
1389489 -0.8671538001920472 -0.3347885354269895
1394392 -0.8706189427939369 -0.33296793722108514
1399295 -0.8673622855755994 -0.3365397354811322
1404198 -0.8734440556241566 -0.3332501781261753
1409101 -0.8721887633570052 -0.33095359444617256
1414004 -0.8752543097643906 -0.3297864909116124
1418907 -0.8698758809695832 -0.32826826214872623
1423810 -0.8731290646212231 -0.32422968831221416
1428713 -0.8761108101312728 -0.32806667096803505
1433616 -0.8731818308766696 -0.3270757073755406
1438519 -0.872634473935973 -0.32175332173415555
1443422 -0.8769993010770321 -0.32131725944850426
1448325 -0.8780208446841182 -0.3200448024208088
1453228 -0.8744595518188407 -0.3176261406093083
1458131 -0.8785335807569238 -0.32088460197776114
1463034 -0.878006638795391 -0.31869403775181754
1467937 -0.8755972011786535 -0.3169142886859719
1472840 -0.8794734684310181 -0.31402118448266886
1477743 -0.8784726836442962 -0.3158680595360778
1482646 -0.8779628505525812 -0.3114850791040656
1487549 -0.8801056366239753 -0.3124424708346669
1492452 -0.8820897469134319 -0.3075843967869861
1497355 -0.880944069673251 -0.30868817523749936
1502258 -0.8802737218291943 -0.30612491579192136
1507161 -0.8837348526421345 -0.3079655765446291
1512064 -0.8835508120349848 -0.31115168270301774
1516967 -0.8854943176130163 -0.304224902118923
1521870 -0.8795775360573522 -0.30531555029746127
1526773 -0.8851043301492325 -0.30170675547662684
1531676 -0.8834905513115151 -0.3038720601855353
1536579 -0.88283705289023 -0.29913432939433376
1541482 -0.8833975315458809 -0.30285041499917137
1546385 -0.8855605313561784 -0.298028425730166
1551288 -0.8871742036040526 -0.29855985144391184
1556191 -0.881316328978814 -0.29667248152149484
1561094 -0.8860172332786811 -0.29584726230072683
1565997 -0.8822969370767239 -0.29380615019235096
1570900 -0.8859558293538925 -0.29221559005832154
1575803 -0.8812927484261442 -0.2935360396048569
1580706 -0.8804663041769102 -0.2904918803363604
1585609 -0.8810862529639174 -0.29135329436727814
1590512 -0.8788809115792946 -0.2903150618675142
1595415 -0.8820624535745748 -0.29079909389513586
1600318 -0.879591335851417 -0.2920422323290911
1605221 -0.8831245523429788 -0.29106521564273025
1610124 -0.8846242235636974 -0.29276571210198493
1615027 -0.8837280260835115 -0.2911550291296098
1619930 -0.8810389044296815 -0.2941756730438275
1624833 -0.887809331969085 -0.2924496735497415
1629736 -0.8880942720704493 -0.28823823138325644
1634639 -0.889446004200448 -0.2864932900465408
1639542 -0.8909499279452724 -0.2892280515490602
1644445 -0.8904302562706704 -0.28692219328284546
1649348 -0.8922146397330538 -0.2846490143002968
1654251 -0.8913838812838619 -0.28527979614086285
1659154 -0.8901943766676175 -0.2824567974209165
1664057 -0.8949957519970841 -0.27906140907452964
1668960 -0.8928556575630858 -0.2806906277095021
1673863 -0.8914284251328028 -0.28311144988803677
1678766 -0.8954093122551149 -0.2822706718208793
1683669 -0.8982920417912658 -0.27917211120907043
1688572 -0.8942861099386213 -0.28068758881964606
1693475 -0.8983957373354717 -0.2762449982691596
1698378 -0.8955907204472305 -0.2751208235642254
1703281 -0.89467010898024 -0.27663707904066087
1708184 -0.8928867662633889 -0.27591223254959973
1713087 -0.8942073776145001 -0.27242444737323734
1717990 -0.8953505083780996 -0.2731673906143545
1722893 -0.8950039217458847 -0.2682115767819909
1727796 -0.8976355027499873 -0.26686606024866977
1732699 -0.8931404837823667 -0.2687033458216589
1737602 -0.8962565249285125 -0.26716657252259035
1742505 -0.8966245630319506 -0.2684514636253511
1747408 -0.8993059091828032 -0.26328988174384615
1752311 -0.8971017330231603 -0.2667514391665454
1757214 -0.9018922822742419 -0.26383014432670077
1762117 -0.896488773767868 -0.2680537293289702
1767020 -0.8956561461336178 -0.2639544613791981
1771923 -0.8959497920862617 -0.26138497143852973
1776826 -0.8988526783359823 -0.26184814796895034
1781729 -0.9024530550669871 -0.2607198365278834
1786632 -0.8948785931934542 -0.25600893996120655
1791535 -0.8986353210530192 -0.2580450799673465
1796438 -0.8929327549299192 -0.26180762868965674
1801341 -0.8935202735781816 -0.2591725501129406
1806244 -0.8932448684373716 -0.254509544530005
1811147 -0.8966145465088066 -0.2546022477734393
1816050 -0.8956822772478052 -0.2569396884560437
1820953 -0.8989305024722936 -0.25786142722567634
1825856 -0.8972958024400491 -0.25581301492714187
1830759 -0.8996315503334893 -0.2574979919858544
1835662 -0.8973739681521393 -0.25334975778191215
1840565 -0.8996708138833794 -0.25684782881272794
1845468 -0.9022197162867657 -0.2549407696654986
1850371 -0.9003759703377577 -0.25390597354864375
1855274 -0.9000991345577481 -0.25352066412262664
1860177 -0.8988738782734705 -0.25266006785125383
1865080 -0.9046907020962844 -0.2529497108092337
1869983 -0.9008669734425665 -0.25370776328508826
1874886 -0.9030349683875066 -0.2507431362766392
1879789 -0.9041246527819828 -0.2528524113767019
1884692 -0.9047142930358788 -0.24528715287061525
1889595 -0.9040141953684088 -0.24560501000855844
1894498 -0.9028015091232297 -0.24208119088625601
1899401 -0.9033134042479726 -0.2474249913785344
1904304 -0.9043299423021613 -0.24123141500771966
1909207 -0.9072229416663273 -0.24663179958149606
1914110 -0.9002627295288218 -0.24207945042744614
1919013 -0.9068551028614537 -0.24047389326999322
1923916 -0.9024710270244781 -0.2413713880925437
1928819 -0.9029679022526595 -0.2420282489888915
1933722 -0.904386041392172 -0.23906943366632202
1938625 -0.9035282305139065 -0.23822164707098611
1943528 -0.9031822999043695 -0.2414388105065657
1948431 -0.9025195771343457 -0.23964253245204437
1953334 -0.9015917873714744 -0.23580195534809148
1958237 -0.9004851672310108 -0.23925604451791133
1963140 -0.9002223984886695 -0.2410032611779554
1968043 -0.904445643404457 -0.2409705639123845
1972946 -0.9027347528821392 -0.23940944078408047
1977849 -0.9050512133718583 -0.24124938508323626
1982752 -0.901329348518286 -0.2406196288944993
1987655 -0.904963591785171 -0.2368705261846467
1992558 -0.9069218751274875 -0.23845676615343836
1997461 -0.9082104955342382 -0.2362199635200653
2002364 -0.9068178978726233 -0.2365897878007553
2007267 -0.9041402222299515 -0.2333740401539881
2012170 -0.9098947047558751 -0.23671623859086344
2017073 -0.905002309185323 -0.23280114232869598
2021976 -0.9091106302078464 -0.2328948514811383
2026879 -0.9097362519845019 -0.23277578491865958
2031782 -0.9120099572654843 -0.23085976728515928
2036685 -0.9103381083874272 -0.23204274466622302
2041588 -0.9099763125704001 -0.2285091823873049
2046491 -0.9121818084555383 -0.22766685094191572
2051394 -0.9131441229968227 -0.22857521306665043
2056297 -0.9125836882702012 -0.22946467912958168
2061200 -0.9114257786122456 -0.22692570457429034
2066103 -0.912967355408093 -0.2226515955484609
2071006 -0.9112496432961212 -0.22599326752055288
2075909 -0.911989018258388 -0.2262958424699934
2080812 -0.9063633540264476 -0.22261138416478946
2085715 -0.9143761200704357 -0.22323719383822982
2090618 -0.9135550254439551 -0.22358784406429064
2095521 -0.9135182321202653 -0.21837789528893733
2100424 -0.9129284188352705 -0.22056604809856875
