# HZ S RI R 50
100000 0.5360578567221111 -0.7187378689941013
104903 0.5089861820547344 -0.7362048238258276
109806 0.4806581066532216 -0.7507767561635946
114709 0.44841853453238717 -0.7671099935444413
119612 0.41855487024716787 -0.77920375453841
124515 0.3981393531574328 -0.7893842171308509
129418 0.36863793651548366 -0.8022969025883887
134321 0.34185748682921857 -0.8081029012416097
139224 0.31708847210126634 -0.8192116697704187
144127 0.2901940540818928 -0.8292566510818599
149030 0.2619355094374656 -0.8335811874630622
153933 0.23456869052824353 -0.8373988135947448
158836 0.2121464103180329 -0.8430479613787978
163739 0.18362520286306427 -0.8465442283877884
168642 0.1596824529113884 -0.8477932285471117
173545 0.1367636383181967 -0.847303156781866
178448 0.11284600234732228 -0.846414739388301
183351 0.08653458922789682 -0.8446071470106832
188254 0.06236612991146505 -0.839541608555709
193157 0.03700194407450927 -0.8335504121069487
198060 0.018498277428110155 -0.8257947956189284
202963 -0.0016480671867476647 -0.8100396821363508
207866 -0.009224571882437922 -0.7923898545210487
212769 -0.008382517497962568 -0.7704376132278488
217672 0.010163822965013015 -0.7659623266967367
222575 0.02966793966771625 -0.792649956899943
227478 0.014019670703629503 -0.8224679045777952
232381 -0.008894598705117263 -0.8398534270630619
237284 -0.03255109447344882 -0.8463545532836019
242187 -0.05690796749382751 -0.8522095408883326
247090 -0.07645326504782139 -0.8515893902439952
251993 -0.09528585287347634 -0.8583972144071107
256896 -0.11189735382758052 -0.8522591734403784
261799 -0.13185461202307452 -0.8534106105493893
266702 -0.14884624247566583 -0.8509324827691518
271605 -0.16626774662973073 -0.8486784090853385
276508 -0.18072816009951032 -0.8444552359585004
281411 -0.19958585912287788 -0.844781751444435
286314 -0.2124209941896657 -0.8401780270049707
291217 -0.22384555174200066 -0.8352184023921546
296120 -0.2381159013068706 -0.8343722382650283
301023 -0.25209198722219556 -0.828688309294052
305926 -0.2635229145163819 -0.8252889509689924
310829 -0.2713735318544344 -0.8214775939667179
315732 -0.2819745076133931 -0.8211386355867047
320635 -0.2964900217631327 -0.8151096706251258
325538 -0.3087136507422193 -0.8125885581315044
330441 -0.31840563337854294 -0.8098849816142649
335344 -0.3294678174433703 -0.8061251569571645
340247 -0.34265403174716397 -0.8045669435878702
345150 -0.34847744282488224 -0.8003110051027873
350053 -0.3625937035145997 -0.7954928307498033
354956 -0.37054306864282466 -0.7910670122816571
359859 -0.3798811997167693 -0.7847444539872803
364762 -0.38923375770923674 -0.7839349925376542
369665 -0.3972739569976519 -0.7766351778860929
374568 -0.4088332654352853 -0.7759111794906779
379471 -0.41699931971724197 -0.7718951050476742
384374 -0.4259025227131388 -0.7711558661404881
389277 -0.43252068711766994 -0.7632518098617341
394180 -0.44304882499619264 -0.7595940559020962
399083 -0.44969528073169907 -0.7558806321829553
403986 -0.45836839596861534 -0.7488699080016995
408889 -0.4628225795107129 -0.7484129417847339
413792 -0.47259398798504115 -0.742478420159844
418695 -0.4814557437378536 -0.7386754179075354
423598 -0.4856559776794967 -0.7322505709665693
428501 -0.49609619606236266 -0.7306382448982065
433404 -0.5007437968961542 -0.7250649493079774
438307 -0.5108739673160148 -0.7205477411597195
443210 -0.5122905919732355 -0.7212503336764026
448113 -0.51934034140154 -0.7146764585532281
453016 -0.5256217582925704 -0.7118105676245926
457919 -0.5319385788164155 -0.7054399279394519
462822 -0.5376320649998927 -0.7017507145755335
467725 -0.5442651305623545 -0.6960745587243216
472628 -0.5504904403654765 -0.6946433850826257
477531 -0.5576178441552019 -0.6889170529107962
482434 -0.5609114532644996 -0.6833142460696987
487337 -0.5666208096303427 -0.6825636788982901
492240 -0.5683362319471335 -0.6767805665685801
497143 -0.5761694036280741 -0.6736976788000589
502046 -0.5809715018904933 -0.6712003924629124
506949 -0.5844497702918618 -0.6664962233988361
511852 -0.5864028056358946 -0.6640929038568338
516755 -0.5929560951469725 -0.65859216418328
521658 -0.6011376857501253 -0.6602521572398963
526561 -0.6016387857568505 -0.6526365456324734
531464 -0.6097859573600483 -0.6492128973208858
536367 -0.6138385413465952 -0.6463922402289465
541270 -0.6175149977983682 -0.6399777371339133
546173 -0.6200081773175982 -0.6392507230535597
551076 -0.6263810515650713 -0.6336545800823244
555979 -0.6293479405555945 -0.6273270565789907
560882 -0.6308079379802815 -0.6234443519726613
565785 -0.6375981836793266 -0.6156308547905801
570688 -0.6397132558702304 -0.610918834989519
575591 -0.6408539167217493 -0.6075789096447689
580494 -0.6383158924376782 -0.5985639630761355
585397 -0.6339254309810849 -0.5991622144671638
590300 -0.6357693529291044 -0.601629622896749
595203 -0.6403693348629974 -0.6069342413707426
600106 -0.6437369886228724 -0.606748173141229
605009 -0.6478636734709429 -0.6061991378971155
609912 -0.6529878285125472 -0.6030237638109498
614815 -0.6571694555282243 -0.6048795456910893
619718 -0.6610300230800317 -0.6004914498040985
624621 -0.6686994115470836 -0.5981954741014452
629524 -0.6724824327049079 -0.5949445597724584
634427 -0.6756494523723762 -0.592013204577357
639330 -0.680341639548667 -0.5910074502165225
644233 -0.6884461862187808 -0.5856285545475947
649136 -0.684778413624688 -0.5855694326363216
654039 -0.6903337551109655 -0.5801820796394337
658942 -0.6987580485336432 -0.5772473441364564
663845 -0.6968354250637835 -0.5737245353545345
668748 -0.6973562324810721 -0.5702143886662461
673651 -0.7014558149402327 -0.5667725769296273
678554 -0.7061709024221918 -0.5649540175932142
683457 -0.7072413997561627 -0.5635664941870622
688360 -0.7071380492812948 -0.5590716063821911
693263 -0.7168712554890777 -0.5558003119405136
698166 -0.7198152876474403 -0.5553944530536608
703069 -0.7202457113127673 -0.5520485413085717
707972 -0.7247307223387062 -0.5501190904017067
712875 -0.7265711053073906 -0.5453669703628746
717778 -0.730517086489219 -0.5440398543881778
722681 -0.7268774731830167 -0.5404002958232862
727584 -0.7317820262524407 -0.5371517308581499
732487 -0.7335838890489166 -0.5339079394409102
737390 -0.7373767541372588 -0.5295364491450018
742293 -0.7415660723121975 -0.528147401779062
747196 -0.7409943608753271 -0.5250985799970523
752099 -0.7463357455976982 -0.5246429010507404
757002 -0.7473290730095875 -0.5215118842375698
761905 -0.748771180553938 -0.5211585746379291
766808 -0.748131969804827 -0.5189192909981684
771711 -0.7532241751079327 -0.5139551098014411
776614 -0.7553481550925908 -0.5121930730405635
781517 -0.758166326094035 -0.5109629645958035
786420 -0.7602885625226014 -0.5071885909482069
791323 -0.7623978993698662 -0.5046376302506497
796226 -0.7642079385892392 -0.5043230998616373
801129 -0.7638215921893122 -0.5001956343024461
806032 -0.7687521374740826 -0.4970736985297151
810935 -0.7706741720608661 -0.49738277296420674
815838 -0.768332631988264 -0.497600083214099
820741 -0.7680489582379996 -0.49178571739517213
825644 -0.7720368391697017 -0.4901899577895494
830547 -0.7724503341185306 -0.48821793960535664
835450 -0.7777351128200531 -0.48300956022790237
840353 -0.774764852516393 -0.4835937800265952
845256 -0.7778035708691493 -0.4795349891931443
850159 -0.7821299073189251 -0.4784876992152912
855062 -0.7802741773284936 -0.4757047439952236
859965 -0.7847823256338138 -0.47799346462253395
864868 -0.7868864403086462 -0.4731242497606742
869771 -0.7874823820334467 -0.47494546024277184
874674 -0.788787579776837 -0.4704723046403448
879577 -0.7879907969007451 -0.4672282147441255
884480 -0.787577133998891 -0.4659977887090818
889383 -0.7935011558197932 -0.46028270790697257
894286 -0.7963128151251792 -0.4622374736076865
899189 -0.7979741352236658 -0.45714118269802134
904092 -0.7941294130593666 -0.4547753632037221
908995 -0.7973280638092566 -0.4524318910474945
913898 -0.8013555153742098 -0.4530126706824906
918801 -0.8003518593122989 -0.4477759685836417
923704 -0.800175811681909 -0.44697782438893424
928607 -0.8031495940093626 -0.44746420955210275
933510 -0.8022900644245989 -0.44494508212448103
938413 -0.8056917565974503 -0.43858465644414324
943316 -0.8028347148869526 -0.4379159745429302
948219 -0.8050196293856459 -0.4364376976695198
953122 -0.8070039856833724 -0.4359298510911961
958025 -0.8022383356159029 -0.43422327704186536
962928 -0.8051164214218951 -0.43096318094255265
967831 -0.8065140867309724 -0.4349363516133121
972734 -0.8103848797673343 -0.4320846939196178
977637 -0.8069197182404235 -0.43259760771764055
982540 -0.8082624681051718 -0.43052562167785036
987443 -0.8146926351252367 -0.4276325699340734
992346 -0.8164423812549414 -0.42846771482335105
997249 -0.8148276882210055 -0.4300090118736224
1002152 -0.813681116949343 -0.42459869439333203
1007055 -0.8157564098643059 -0.42646025780847696
1011958 -0.8189027489994537 -0.4212091345400173
1016861 -0.8207755612682153 -0.4199075404735997
1021764 -0.8224648220216827 -0.4192116486198392
1026667 -0.8213196019472322 -0.41540001834486767
1031570 -0.8279728999673401 -0.4196723852908398
1036473 -0.8232180442555695 -0.41242939896231273
1041376 -0.8288083280269739 -0.41400112756847784
1046279 -0.8290726261051967 -0.4137533760996152
1051182 -0.8317175011795284 -0.41245666038254303
1056085 -0.8309338759283862 -0.4085800098213278
1060988 -0.8304400016195442 -0.408500256664498
1065891 -0.8347385813626857 -0.4056482314078473
1070794 -0.8357589024031962 -0.4031368295140098
1075697 -0.8338317297792405 -0.4039315903360005
1080600 -0.8354164568647404 -0.4002544242372827
1085503 -0.8329804673590654 -0.39916897947058666
1090406 -0.8359544936979166 -0.3993095054272621
1095309 -0.8388105979702726 -0.3963025666584673
1100212 -0.84168249194897 -0.39820380426913327
1105115 -0.8400162655131983 -0.3932870146433812
1110018 -0.8408343036750117 -0.3939161401505668
1114921 -0.8420004166606143 -0.38999424593850834
1119824 -0.8453777019651557 -0.3901602056645554
1124727 -0.8409801704718438 -0.3861010647849647
1129630 -0.8434002142211827 -0.38203776407570256
1134533 -0.8477894712823639 -0.3837418983940306
1139436 -0.8446349906543946 -0.3852690403038875
1144339 -0.8460634495562872 -0.3819009290935865
1149242 -0.8458673304235231 -0.38102521125726496
1154145 -0.8517152581283524 -0.38056791476383867
1159048 -0.8467279880790342 -0.38192705387021453
1163951 -0.8512258868633451 -0.3768329023944961
1168854 -0.8469672447003675 -0.3776908942927132
1173757 -0.8526312734518733 -0.37392951839121424
1178660 -0.8526301136658343 -0.37166654479148864
1183563 -0.8520456410019089 -0.3716712155902876
1188466 -0.8505462779040097 -0.36993624816907417
1193369 -0.8583324853607577 -0.37072718989827963
1198272 -0.8536323887192586 -0.36665910101433485
1203175 -0.855629720516581 -0.3665485472023745
1208078 -0.8549483329490388 -0.36274086133620076
1212981 -0.8553124383579577 -0.3619662419651834
1217884 -0.8559419469877946 -0.3631748674281886
1222787 -0.8587074931723683 -0.3613939779949313
1227690 -0.8577267163888154 -0.36066024631835514
1232593 -0.8588890453312855 -0.36022006694728215
1237496 -0.8600880660010621 -0.36026374928493443
1242399 -0.8586350919568758 -0.3568386482558692
1247302 -0.861651327872066 -0.35793063605799846
1252205 -0.8595034246058627 -0.3534408552705339
1257108 -0.8638923504556613 -0.3519773337110245
1262011 -0.862736210692053 -0.35356637871505553
1266914 -0.8650684566737795 -0.34927315960809774
1271817 -0.8632931466400958 -0.3518588493991903
1276720 -0.8651574063712755 -0.3452960105119455
1281623 -0.8636229777742714 -0.34784776217420377
1286526 -0.8664403469297616 -0.34525381786353393
1291429 -0.8644556816736979 -0.3462572165328521
1296332 -0.8674970660438155 -0.34142061925775413
1301235 -0.8648174120356791 -0.339647159607532
1306138 -0.8679774431914236 -0.3436360646664508
1311041 -0.8651858999638142 -0.34074745978732324
1315944 -0.8642658850219284 -0.33804456392958027
1320847 -0.8642038786574341 -0.3379874008223942
1325750 -0.8641793842761099 -0.33979428568874986
1330653 -0.8672360981313649 -0.33879297239478995
1335556 -0.8699521175962959 -0.3377187502226863
1340459 -0.8688522199903067 -0.34168816411684994
1345362 -0.8677869475162621 -0.33482786584241814
1350265 -0.8716238489357625 -0.33580032837919166
1355168 -0.8714334316063024 -0.3339335657376844
1360071 -0.8772784637222788 -0.3328496164310928
1364974 -0.8722491079231647 -0.3319365142602411
1369877 -0.875843204526564 -0.3340865342707062
1374780 -0.8733595290902916 -0.3305127537238428
1379683 -0.8805887885279801 -0.3300724073359645
1384586 -0.8732354378006608 -0.32958981206029403
1389489 -0.8778633657549527 -0.3249629203310807
1394392 -0.8761604668238476 -0.3262114065582484
1399295 -0.8773870532501589 -0.32548073192939836
1404198 -0.8774494813154391 -0.3257134323737002
1409101 -0.8764184235562199 -0.3252544380937886
1414004 -0.8822342258260449 -0.3244010967469157
1418907 -0.8746025253539972 -0.3220680299054479
1423810 -0.8792745671201997 -0.32009338550814787
1428713 -0.8812085164049754 -0.3211512682140013
1433616 -0.8783670876628001 -0.32232327162139807
1438519 -0.8781266650182338 -0.31718282386144053
1443422 -0.8829249294778548 -0.3158674822709389
1448325 -0.879037703785073 -0.3166660229829533
1453228 -0.880675251136718 -0.31418574536361565
1458131 -0.8823395735826636 -0.3137223127451775
1463034 -0.8835420955798189 -0.31447379165279227
1467937 -0.8793775584546576 -0.3102037217708942
1472840 -0.8847500735606674 -0.312226165568964
1477743 -0.8829215079206308 -0.3109234360136496
1482646 -0.8846860640443414 -0.3108061457782133
1487549 -0.885198012501158 -0.30867666888326883
1492452 -0.8834986675726629 -0.30772846179424146
1497355 -0.8859704933749273 -0.3062733357133219
1502258 -0.8868879737926029 -0.3043316585496563
1507161 -0.8855737784546939 -0.30637078211606406
1512064 -0.8862220774976495 -0.3094500723742507
1516967 -0.8890337654735347 -0.3010588203085894
1521870 -0.8874057371790597 -0.3043293275963214
1526773 -0.8890675352587917 -0.3007651691783993
1531676 -0.887315674472145 -0.3000279220440641
1536579 -0.8882325042620566 -0.299598988176054
1541482 -0.8894234294505917 -0.30033848334769775
1546385 -0.8898979401160846 -0.2982284301425436
1551288 -0.8904459616691325 -0.2972506468783177
1556191 -0.8872650287339483 -0.2938849909237051
1561094 -0.8919521988446227 -0.2959026405612524
1565997 -0.8917129134244897 -0.2963244737789873
1570900 -0.8933697766876947 -0.29236745123007923
1575803 -0.8913684772412661 -0.296178255581739
1580706 -0.8892635216874292 -0.2932722321240014
1585609 -0.8891894858777294 -0.2932821431807519
1590512 -0.8905434077675356 -0.2884252249994469
1595415 -0.8932823314025545 -0.2896224192905442
1600318 -0.8935842616516154 -0.2886591291535651
1605221 -0.8926388840098021 -0.28874298843949353
1610124 -0.8946789604944898 -0.28833331244286237
1615027 -0.8919398803002025 -0.28432583624420193
1619930 -0.8895670459028862 -0.2880416433041474
1624833 -0.8924173901079528 -0.2889527604787405
1629736 -0.8952818253774517 -0.28556483164279894
1634639 -0.8929111422712963 -0.2847328901139169
1639542 -0.8937073356058551 -0.28612768180493725
1644445 -0.8959557458714286 -0.2873493523051948
1649348 -0.8983149768897766 -0.2830872012128649
1654251 -0.8936064151093859 -0.2838329453025219
1659154 -0.8963524069859045 -0.28019769013673634
1664057 -0.8966695281764075 -0.2820046877247142
1668960 -0.8987101933621303 -0.2811187343982669
1673863 -0.8960095535273681 -0.28113821172424397
1678766 -0.8987970354360204 -0.27828727823390886
1683669 -0.9007761255661278 -0.2789450574882495
1688572 -0.8990220865101665 -0.2791916070399739
1693475 -0.9002763602010574 -0.2765026663447545
1698378 -0.8987043042315063 -0.2763219456731615
1703281 -0.8970578808495482 -0.2743802432839829
1708184 -0.8974757213650323 -0.27587920457610243
1713087 -0.9014075288893857 -0.27418447227220927
1717990 -0.8977097434017366 -0.2755882406165483
1722893 -0.9010247968278505 -0.2707467671785593
1727796 -0.8996956451112538 -0.270810996961513
1732699 -0.8981155663096817 -0.2704141263448818
1737602 -0.8996676430929992 -0.2720675525404092
1742505 -0.9045225240588392 -0.2719173567624401
1747408 -0.9012126541297546 -0.26684613403130797
1752311 -0.9016090212055246 -0.26748760574192143
1757214 -0.902700102665353 -0.2686649140437915
1762117 -0.903046342500286 -0.26895854718372947
1767020 -0.9040458771600792 -0.26585696525410524
1771923 -0.9051592666351954 -0.2669274453963656
1776826 -0.904518728683206 -0.26788707709675535
1781729 -0.9063354646387337 -0.2642608598811587
1786632 -0.9029497754355337 -0.26481310776758366
1791535 -0.90447484083655 -0.26240829144727285
1796438 -0.9032619258027192 -0.26638718138056083
1801341 -0.9036277223059959 -0.2599374409870598
1806244 -0.9069314862843838 -0.25954216471275826
1811147 -0.9049507418222935 -0.255368646649852
1816050 -0.9075272989214317 -0.25848387499164555
1820953 -0.9071169701779797 -0.2628389835706643
1825856 -0.9025213905949567 -0.25626772314031626
1830759 -0.9031836266983221 -0.2603688223480265
1835662 -0.9004610708829085 -0.25567085498309033
1840565 -0.9079513605895247 -0.25811124872116376
1845468 -0.9070431187862786 -0.2551164624329311
1850371 -0.9070544644448356 -0.2561129651658263
1855274 -0.9063570763624061 -0.2555774222362036
1860177 -0.9073324924522621 -0.2573005404339224
1865080 -0.9070817910262685 -0.2544874927177431
1869983 -0.9059140601467376 -0.25629968587895896
1874886 -0.9038603144499924 -0.25773077822538715
1879789 -0.9080488950332833 -0.2549458916596675
1884692 -0.9074137170233904 -0.2525317042934077
1889595 -0.9075173815881594 -0.2513088472061504
1894498 -0.9075153279580894 -0.2475449730471106
1899401 -0.9108789860104537 -0.2519697154762921
1904304 -0.9079522750876904 -0.24857263804300955
1909207 -0.9130724572303428 -0.25110861984538596
1914110 -0.9098327573363246 -0.24839380748197964
1919013 -0.9106577338539702 -0.2464928576689196
1923916 -0.9076888284821146 -0.2471159134781034
1928819 -0.9118501589382 -0.24867286540839764
1933722 -0.910654998620039 -0.24580191350143238
1938625 -0.9098969188750455 -0.24384142113458943
1943528 -0.9094909923881714 -0.24604239923931018
1948431 -0.9107948463860084 -0.24493615431081492
1953334 -0.9092590158908406 -0.2426231240218961
1958237 -0.909024112843601 -0.24235250992569837
1963140 -0.9094173783778655 -0.2425479224385939
1968043 -0.9100387927173126 -0.24535317973665155
1972946 -0.912446539953982 -0.24069324492492394
1977849 -0.9130171166154963 -0.24366854123992102
1982752 -0.9088867490990051 -0.2419429841830034
1987655 -0.9107623729228017 -0.23879177575091443
1992558 -0.9132237774122444 -0.23937400945325782
1997461 -0.9125180339123966 -0.24059494544923285
2002364 -0.9117093078635491 -0.24199923528069128
2007267 -0.9099437717670249 -0.23906691889565515
2012170 -0.9157642258910056 -0.2400139311582331
2017073 -0.9106582401598089 -0.24297070495968254
2021976 -0.9119581134336217 -0.2382905051130432
2026879 -0.9124481606570078 -0.2392928794508614
2031782 -0.9151664057333554 -0.23801344875353328
2036685 -0.9141535460366833 -0.23758271940589235
2041588 -0.9125742543690604 -0.23400318738064654
2046491 -0.9166487456541113 -0.23636334577359705
2051394 -0.914573298906443 -0.2360325621163465
2056297 -0.9182411648624113 -0.23853786491069356
2061200 -0.9150573546607724 -0.23287519569942172
2066103 -0.9187314999680013 -0.23070061365719272
2071006 -0.9117682671777656 -0.23677950543956824
2075909 -0.9183763188522794 -0.23436777208552959
2080812 -0.9126625413603991 -0.2290185622981104
2085715 -0.9172349805180203 -0.23050551086738424
2090618 -0.9167653332502604 -0.23525388036749775
2095521 -0.9158781837973734 -0.2257611638965522
2100424 -0.9147527556744675 -0.2313390278104202
