# HZ S RI R 50
100000 0.5414725440839786 -0.7066179297514285
104903 0.5139613800413705 -0.7238406803513608
109806 0.4855211948540186 -0.740354954533796
114709 0.4528296287453387 -0.7566637030124588
119612 0.41949868666692375 -0.7681188658456592
124515 0.3952308418612515 -0.7810902226448433
129418 0.3624907571580268 -0.79317119830713
134321 0.3329697094370723 -0.800319686911915
139224 0.3006475224572658 -0.8094594290679221
144127 0.26912013912546234 -0.8175185908593687
149030 0.2338888852236964 -0.819444436687956
153933 0.20019945957107035 -0.8203457530971957
158836 0.1656053530813526 -0.822233377468187
163739 0.1272431518870675 -0.8165194103828827
168642 0.09669776133325682 -0.8005232664865783
173545 0.06486772194091489 -0.7905489844167529
178448 0.03396011571238729 -0.7748215861318544
183351 0.0007402438797330736 -0.7523464040022757
188254 -0.028952153869537374 -0.7206509661074394
193157 -0.05480576266068172 -0.6804743301265043
198060 -0.07488189505444008 -0.6332030670169082
202963 -0.06968192681151524 -0.5570533037646098
207866 -0.023266505494813374 -0.49703036145833146
212769 0.05443053870050793 -0.446376585240641
217672 0.16632238513631337 -0.44953362835431276
222575 0.26566168839901777 -0.5390341928760033
227478 0.27295244297345456 -0.6512984360956038
232381 0.23719157264340077 -0.7205463296829835
237284 0.19773499962316604 -0.7642551932458869
242187 0.16005482493849538 -0.7923302514111984
247090 0.12818783398465888 -0.8092925597552955
251993 0.10395985671053314 -0.8268412465865018
256896 0.07239909430482733 -0.8374961876099313
261799 0.04361185483492893 -0.8495394014941589
266702 0.0180010416089033 -0.8563819664114516
271605 -0.011814793934620206 -0.858349308026573
276508 -0.036475470621054426 -0.8611109858077268
281411 -0.060233424347012066 -0.8608886779721935
286314 -0.0815128052671794 -0.8585561801032888
291217 -0.09821061732802856 -0.8534790239834091
296120 -0.11739317285207032 -0.8522244901795317
301023 -0.1325983058669213 -0.846239435468059
305926 -0.1491534990417606 -0.8406995847204146
310829 -0.15610495176076164 -0.8375631924926935
315732 -0.16715362344807025 -0.838580660288934
320635 -0.1803325647356339 -0.8375893287844852
325538 -0.19361567365143253 -0.8374105497615538
330441 -0.20692540790518826 -0.8409696998833126
335344 -0.22261996607104206 -0.8388605688491104
340247 -0.23891094370966529 -0.8393168584841486
345150 -0.2512205840674014 -0.8349005527399501
350053 -0.267342037849822 -0.8337883798062923
354956 -0.2790597263752667 -0.8265380360846599
359859 -0.2927867226932476 -0.8225978064171802
364762 -0.3031225973833666 -0.8223403016357123
369665 -0.3117767816358989 -0.8145678526874625
374568 -0.326181599520714 -0.812692569868516
379471 -0.33755465062861795 -0.8092822246069818
384374 -0.34739961691929955 -0.8082018593107666
389277 -0.354684177987414 -0.8011173492526462
394180 -0.3684615366203509 -0.796812204224934
399083 -0.3766079999421707 -0.7941272511044672
403986 -0.3878183503631095 -0.7878521356523691
408889 -0.39591200324344805 -0.7849695556955232
413792 -0.40436256667773607 -0.7782688808864778
418695 -0.41462735565330433 -0.7746237924031365
423598 -0.4231331926084137 -0.7708806674687698
428501 -0.4337420264923005 -0.7666401013425521
433404 -0.43825885599048275 -0.7620216608999852
438307 -0.4504401162664495 -0.7546716868070137
443210 -0.45445168334822733 -0.7571296456103811
448113 -0.4633140591969885 -0.7490167243841793
453016 -0.4706776839840665 -0.7452289074366514
457919 -0.4776442227187999 -0.7394535048053034
462822 -0.48710145594352744 -0.7360329687951437
467725 -0.4925711847092395 -0.7291541097892933
472628 -0.5017340352546378 -0.7275576470790809
477531 -0.508561761970119 -0.7212552207884083
482434 -0.5141435015460156 -0.7138424980357032
487337 -0.5211498107770683 -0.7125076992616264
492240 -0.5267625765656683 -0.7035653394519901
497143 -0.532126674420669 -0.7020375672633947
502046 -0.539543945218048 -0.6960273655100973
506949 -0.5431577217555935 -0.6896250043957555
511852 -0.5482493358255202 -0.6840828322281185
516755 -0.5574642983466929 -0.677715556180068
521658 -0.5633669368362394 -0.6744413213365208
526561 -0.5689066706372928 -0.665003527846827
531464 -0.5738371768603606 -0.657921796132952
536367 -0.5815979753396328 -0.6505943615776177
541270 -0.5834171450383702 -0.640237365897577
546173 -0.5885729482601901 -0.6344834804656362
551076 -0.5915513322304855 -0.6196349129063786
555979 -0.5930508355522187 -0.6042343014709888
560882 -0.584100489679065 -0.5908089296931802
565785 -0.5786316516328194 -0.5719335154723696
570688 -0.5595330316821076 -0.563596499998006
575591 -0.5373821499362239 -0.564641228399911
580494 -0.5096606034335566 -0.5760563686136331
585397 -0.5035993787105806 -0.5998863549124476
590300 -0.5063453373812927 -0.6245274206971071
595203 -0.5209997364888064 -0.6446769731181796
600106 -0.5316350450965582 -0.6527805073487002
605009 -0.5472754484156529 -0.6584493943146242
609912 -0.5600924891602743 -0.6593614317786475
614815 -0.5732051511403815 -0.6599239916475588
619718 -0.5837066094326702 -0.6592437081178776
624621 -0.592521296631383 -0.6562430504340105
629524 -0.6020099963147396 -0.6521330680321581
634427 -0.6091877983269102 -0.6504999886535523
639330 -0.6181878069872726 -0.6472102074011861
644233 -0.6264085591015188 -0.6405750639923166
649136 -0.6270456476995394 -0.6397303426713637
654039 -0.6347492643965488 -0.6311714398123881
658942 -0.6461111968009571 -0.6303133559649172
663845 -0.6470135097878206 -0.6244423685796423
668748 -0.6505356222463429 -0.6207137639575151
673651 -0.655496943704913 -0.6145035801166286
678554 -0.6586624029533235 -0.6129964614039688
683457 -0.6591977528783647 -0.6117168886412009
688360 -0.6641870823424718 -0.6046067838149909
693263 -0.670352386412144 -0.6014330879419737
698166 -0.6752683347538572 -0.6027666907073639
703069 -0.6741895718794135 -0.5972712366648414
707972 -0.677285457470125 -0.5982806643903925
712875 -0.6812825624320434 -0.5953125194005818
717778 -0.6903820184193513 -0.5924344267508671
722681 -0.6922976877542331 -0.5837932845690466
727584 -0.6959269994137115 -0.5823649037619124
732487 -0.695887654505429 -0.5801753678028345
737390 -0.7009264274216324 -0.5729487410608654
742293 -0.7044522049582076 -0.5741567078058835
747196 -0.7067940630015064 -0.5696663894096474
752099 -0.7114813753739413 -0.5679585982734718
757002 -0.7129781669776124 -0.5650400788550898
761905 -0.7156012594664637 -0.5637927651332688
766808 -0.7175018129849947 -0.5590984711408453
771711 -0.7214050863651035 -0.5566260021617853
776614 -0.7234335132388126 -0.5495494843218373
781517 -0.726251847752793 -0.5494003846876654
786420 -0.7293259511152951 -0.5473415396163634
791323 -0.731753864241577 -0.5471541198917556
796226 -0.7340161630930467 -0.5393541282883879
801129 -0.7372924338971294 -0.5366860622832796
806032 -0.738091728189213 -0.5351869905600859
810935 -0.7421308580703115 -0.5335735308660648
815838 -0.7402381119814531 -0.530133269962003
820741 -0.7441568373850805 -0.5271477012347946
825644 -0.7438308981958848 -0.525787826658115
830547 -0.7500395522933728 -0.5228794171981648
835450 -0.753353693646361 -0.5203551170956213
840353 -0.7480354175342239 -0.5155120553194421
845256 -0.7520497473637475 -0.5108119180488331
850159 -0.7567407669260281 -0.512016045881767
855062 -0.7580607841563954 -0.5078287902565553
859965 -0.7603859552039918 -0.5034888946894243
864868 -0.7667135143259162 -0.5010010050712078
869771 -0.7660046260354808 -0.5026953664833747
874674 -0.7654463601522243 -0.49575292986231595
879577 -0.764015566134599 -0.49191786028098056
884480 -0.7682363077221538 -0.48866612817049926
889383 -0.770194464679599 -0.482157879224918
894286 -0.7747639496500293 -0.48096124722910444
899189 -0.7749755533654127 -0.47686833536471734
904092 -0.773488717234558 -0.47049711551927315
908995 -0.7722688598048437 -0.46724058950735564
913898 -0.7756522838397739 -0.4652036722965804
918801 -0.771305673986006 -0.4570805732343851
923704 -0.7673612745710373 -0.45380356756645557
928607 -0.7668582020412706 -0.45227490287643585
933510 -0.7576481040188675 -0.449141391487014
938413 -0.7549109060420972 -0.44826373846291506
943316 -0.7482821000893369 -0.45066331415511557
948219 -0.7500083846769136 -0.46198950608936695
953122 -0.7501516372445398 -0.46539491943672673
958025 -0.7514327875995898 -0.4689716033553223
962928 -0.7586992193017137 -0.4752059276793527
967831 -0.7649959387133507 -0.47585069277620007
972734 -0.7671781950013611 -0.4721211405525542
977637 -0.7721214494078826 -0.4724064717418141
982540 -0.7754114062156114 -0.4725630050323431
987443 -0.779290775833836 -0.4699402738384727
992346 -0.782863765787308 -0.4663033966117149
997249 -0.7840561040863513 -0.4703689684164281
1002152 -0.7856503315811921 -0.4633429597857096
1007055 -0.7917528010365321 -0.4641097293044003
1011958 -0.7921827463188562 -0.46295233534118296
1016861 -0.7981647458007725 -0.4592564883977972
1021764 -0.7991983718969711 -0.45709449531705193
1026667 -0.8003318757639263 -0.45103547568621816
1031570 -0.8027471650257807 -0.454630068045492
1036473 -0.7980602520968088 -0.44728062477979663
1041376 -0.8066717149441085 -0.44912741371686044
1046279 -0.8055010395142904 -0.4464717550349696
1051182 -0.8061986502340179 -0.4448095046486413
1056085 -0.8114089161279956 -0.4423568383016189
1060988 -0.8103048337790892 -0.44010795441934236
1065891 -0.816335108119321 -0.44150572958010925
1070794 -0.8141330303269617 -0.4350110648212848
1075697 -0.8141717016847497 -0.43294678644235285
1080600 -0.8176644936178491 -0.43353087566649307
1085503 -0.8165015022656971 -0.4338277109540587
1090406 -0.8193291468319116 -0.4287689022341197
1095309 -0.8246192087822044 -0.4266746221070575
1100212 -0.8218868224541859 -0.42534004370897677
1105115 -0.8223843056818567 -0.42034612949794364
1110018 -0.8248794084562648 -0.4209448199048991
1114921 -0.8264529229497208 -0.418507508880542
1119824 -0.8247840389602339 -0.41959520636051917
1124727 -0.8297400045540606 -0.416472234224117
1129630 -0.8285458812509024 -0.4104472875508351
1134533 -0.831690987659764 -0.4103928753970133
1139436 -0.8326123369658726 -0.4114083315896187
1144339 -0.8337438378168509 -0.40803713464426966
1149242 -0.8334684769444182 -0.4055129049466675
1154145 -0.8373147517738901 -0.4017169164455124
1159048 -0.8384495382621794 -0.4052873991800401
1163951 -0.8377358745399457 -0.3989880081062557
1168854 -0.8343493722843035 -0.3976865458847479
1173757 -0.838413568442268 -0.39729120580307703
1178660 -0.8404140836283462 -0.3936240787127304
1183563 -0.8374708821344249 -0.3924750641728197
1188466 -0.8400216392172738 -0.3906038188353279
1193369 -0.8405316956880986 -0.39370292413602237
1198272 -0.8410289517263846 -0.3884257045744312
1203175 -0.8420088596801754 -0.38468372075106594
1208078 -0.8441811003428317 -0.38261069518903373
1212981 -0.8439697740164289 -0.3818023026626074
1217884 -0.8449727506453674 -0.3797921394533784
1222787 -0.8463606822361035 -0.37784143677327753
1227690 -0.8449627596810074 -0.3731351404556532
1232593 -0.8455110988064941 -0.37365964254948236
1237496 -0.8498451956198564 -0.3715862153676482
1242399 -0.844063827530767 -0.37170959269632614
1247302 -0.8465934725185277 -0.3686800811228226
1252205 -0.8474408636598891 -0.36485093240978894
1257108 -0.8492473382291498 -0.36474927509773836
1262011 -0.845695024395179 -0.3606013636075652
1266914 -0.8466715019398341 -0.35858402180258053
1271817 -0.841570457340476 -0.3617042234038052
1276720 -0.8400154662844602 -0.35650319463498914
1281623 -0.8388080280993636 -0.3571117742889368
1286526 -0.8351115836183208 -0.35862559209211337
1291429 -0.8378251092565451 -0.36248878989985195
1296332 -0.8385878743828761 -0.3608465941648343
1301235 -0.836856228916796 -0.3646546711029003
1306138 -0.8440719009368343 -0.36973270900509403
1311041 -0.8415831881230026 -0.36289390681024786
1315944 -0.8440048148699579 -0.36413544438880263
1320847 -0.8490668263626941 -0.3641466600414163
1325750 -0.8452210461665993 -0.36348684277109555
1330653 -0.8507240931104235 -0.36164392271129686
1335556 -0.85494655291002 -0.36184784428453115
1340459 -0.8544263199205366 -0.3605200214882092
1345362 -0.8529801219732853 -0.35746819452836787
1350265 -0.8531180030598116 -0.35766830775216585
1355168 -0.8576558270792282 -0.3553055782844783
1360071 -0.8607300581840072 -0.35672975068075397
1364974 -0.8600004656937427 -0.3536385560722834
1369877 -0.8632802853176773 -0.3526621703198203
1374780 -0.864293080201571 -0.3520670914832508
1379683 -0.8666443051299206 -0.34999864778753925
1384586 -0.8618919423176593 -0.34902179236062225
1389489 -0.8664753809551295 -0.3462773624766084
1394392 -0.8652557151312865 -0.34648320781110953
1399295 -0.864857608885524 -0.34309638155955186
1404198 -0.8682917610332803 -0.34314509227034357
1409101 -0.8695241714932636 -0.3410813275921379
1414004 -0.8711506939376872 -0.3393349493745085
1418907 -0.8668328706568476 -0.33831858364986184
1423810 -0.8711388536548764 -0.33758718200698845
1428713 -0.8739092679586954 -0.33932139860942356
1433616 -0.8709454709515221 -0.336909865942703
1438519 -0.8693521452917317 -0.33570447599950864
1443422 -0.875799293219392 -0.32973327922133944
1448325 -0.8729868906416298 -0.3294340745619574
1453228 -0.871512510024775 -0.3278820446746883
1458131 -0.8697407623410283 -0.3277626429508032
1463034 -0.8762325292484955 -0.3237688664563938
1467937 -0.8739947596171069 -0.32691390266892334
1472840 -0.8763649547691982 -0.32231931948032627
1477743 -0.8730736463175457 -0.3237152052878854
1482646 -0.8758558160745075 -0.31762764359966467
1487549 -0.87911854302398 -0.32210449007101927
1492452 -0.874762570669343 -0.3155844553673084
1497355 -0.8788139302517822 -0.315538308802289
1502258 -0.8775035877943402 -0.3158677123876716
1507161 -0.8759602413666817 -0.31341928846281036
1512064 -0.8784428137887804 -0.3132868320721267
1516967 -0.8807513228383707 -0.3102642611486163
1521870 -0.8747837824212092 -0.31019252135919434
1526773 -0.8797649426638128 -0.3063908103148811
1531676 -0.8785969027752916 -0.3076662608143564
1536579 -0.879541986654529 -0.30544790674355227
1541482 -0.877100784520143 -0.3050526464509372
1546385 -0.8789078719606701 -0.2995641079446108
1551288 -0.8773899358273998 -0.30226715494477174
1556191 -0.8748470898574633 -0.2968270388855175
1561094 -0.8754035265646917 -0.2995838676734811
1565997 -0.8736372061989733 -0.2993729017187488
1570900 -0.8739687180598915 -0.3001518090694314
1575803 -0.8713401784709573 -0.30183955687097086
1580706 -0.8715817503392649 -0.3066675012244697
1585609 -0.874152374371591 -0.3041996433440409
1590512 -0.8707484516380154 -0.3043438653991575
1595415 -0.8769030291907012 -0.30781731630973097
1600318 -0.8739076121659612 -0.3022870676359216
1605221 -0.8817373848617405 -0.3041921830559233
1610124 -0.8813741569450413 -0.3046196691980312
1615027 -0.8823614426037331 -0.30026773775549753
1619930 -0.883113371300209 -0.30274593856034865
1624833 -0.8845853643516292 -0.2988220079926038
1629736 -0.8870128844851213 -0.2975142077128581
1634639 -0.8866225002604576 -0.29238033995384105
1639542 -0.887948544884269 -0.2941621203699187
1644445 -0.8881309963202513 -0.2953338235542743
1649348 -0.8904716277066972 -0.29120411952623376
1654251 -0.8883468668944551 -0.29138865496513233
1659154 -0.8896889651125995 -0.28940609495975267
1664057 -0.8909620706055748 -0.28656503039532105
1668960 -0.8925547888601285 -0.2860500744150944
1673863 -0.8887524937835412 -0.29013905801924506
1678766 -0.8958061451532451 -0.2870215774143968
1683669 -0.8950822240507311 -0.2837368838247256
1688572 -0.8904804966451835 -0.2840716093537641
1693475 -0.8959255434951762 -0.2776416944083694
1698378 -0.8943394226469076 -0.2817059808740052
1703281 -0.8910069001336312 -0.27681192708461777
1708184 -0.8915695269994498 -0.278126516659594
1713087 -0.8930620525406334 -0.27655735334358716
1717990 -0.8957319774366767 -0.27908970701904995
1722893 -0.8922236897161419 -0.2719957669424875
1727796 -0.8957944318203169 -0.27081608281922664
1732699 -0.8924902529249708 -0.27038087699620356
1737602 -0.8942288279301461 -0.2679846219791877
1742505 -0.8945357207245525 -0.2705335377096036
1747408 -0.8935834068958092 -0.2681911677829673
1752311 -0.8914576120713847 -0.2666617285904353
1757214 -0.896790666500111 -0.2638849174097843
1762117 -0.8903368946311369 -0.26913628756814423
1767020 -0.8916892008701625 -0.26104866816213596
1771923 -0.8926635608668414 -0.2653698704169639
1776826 -0.8920751843633513 -0.2640340836369438
1781729 -0.8920925297294171 -0.2611904855281486
1786632 -0.8861476651601332 -0.2611150815718626
1791535 -0.8902978616914866 -0.2651526909323661
1796438 -0.8914222117497135 -0.2685377160985064
1801341 -0.8905765053452476 -0.2624755289100524
1806244 -0.8924529842706189 -0.26028332259068
1811147 -0.8933904143516891 -0.26189563693975276
1816050 -0.8965973916721525 -0.25921581486393186
1820953 -0.8973647145567646 -0.2613331551488934
1825856 -0.8937637441643715 -0.260578957480426
1830759 -0.8965561505609989 -0.26147194099604276
1835662 -0.8933477818521708 -0.2582173645556577
1840565 -0.8967656392071923 -0.2555104992683935
1845468 -0.901290470911167 -0.25754347083190554
1850371 -0.8987528133610205 -0.2536757112698519
1855274 -0.9012516437935482 -0.2539948694690135
1860177 -0.8959471107502143 -0.2505667854611506
1865080 -0.8994595339616636 -0.2498451667378004
1869983 -0.8975640175276987 -0.2547221735332626
1874886 -0.8963471995719886 -0.2514898573524773
1879789 -0.8985183093023775 -0.24923241394661844
1884692 -0.8993052297110592 -0.24769403764896078
1889595 -0.8983216996267118 -0.24730637566105304
1894498 -0.8982254384666853 -0.24098158884125745
1899401 -0.8981279261619844 -0.2447286560274937
1904304 -0.8985877772087998 -0.2455611249546673
1909207 -0.8980797727838563 -0.24367998346000616
1914110 -0.8963356702206746 -0.24372215702683983
1919013 -0.899250978647677 -0.24405245084816002
1923916 -0.8955163243931406 -0.2444881379961765
1928819 -0.8978915401431157 -0.24490630871308847
1933722 -0.8994870767771722 -0.24299605832054633
1938625 -0.8993178761487146 -0.24500457104495627
1943528 -0.8979217903180107 -0.24412116444795384
1948431 -0.9001173016117741 -0.2436313069840424
1953334 -0.9028466516277662 -0.24243388478888578
1958237 -0.899039953400425 -0.24550255295911202
1963140 -0.9026192258436361 -0.24512402139604844
1968043 -0.9009893672256034 -0.24556126492712707
1972946 -0.9012919565620838 -0.24229681043538417
1977849 -0.9072599638725338 -0.24262685523027908
1982752 -0.9047247696996239 -0.24216229545022294
1987655 -0.9075838642815598 -0.23575250560859493
1992558 -0.9067645904777555 -0.23832439345424752
1997461 -0.9076077233310929 -0.23620366915986346
2002364 -0.9077672087238484 -0.24166304120100374
2007267 -0.9032424221221452 -0.23211373998247306
2012170 -0.9114128444749204 -0.23194422059417658
2017073 -0.9062106472963759 -0.23228761721989472
2021976 -0.9081588423202026 -0.23235518026207516
2026879 -0.909180276746617 -0.23010060404941932
2031782 -0.9129930368868633 -0.22868738344285405
2036685 -0.9092565752867272 -0.22817186663980193
2041588 -0.9108337001772118 -0.2262180113367772
2046491 -0.9130366849131051 -0.22994805223238587
2051394 -0.9140117062292469 -0.22327039493008258
2056297 -0.9096791025516264 -0.2245854306309141
2061200 -0.9095002533334186 -0.22365132612613092
2066103 -0.9131034462742433 -0.2200325489600712
2071006 -0.9074753681021354 -0.22245572930165725
2075909 -0.9111006170919178 -0.21757928235442828
2080812 -0.9035921551452802 -0.22097664793171864
2085715 -0.9084407561470897 -0.2160857072272459
2090618 -0.9110275500778975 -0.21962552673600902
2095521 -0.9118846148263245 -0.21546079946345295
2100424 -0.9072635689526358 -0.21592362255058872
2105327 -0.910558436810054 -0.21756582215286108
