# HZ S RI R 50
100000 0.5361783429337386 -0.7185807183017643
104903 0.5091897096500623 -0.736258856229747
109806 0.4809985328192032 -0.7509918503742226
114709 0.4495635247158406 -0.7661189369002745
119612 0.4200376483806074 -0.7776376055134221
124515 0.39836978032045034 -0.7904530719821986
129418 0.36889361285504807 -0.8017909376388759
134321 0.34231375473414627 -0.8097705994260878
139224 0.3174388689137706 -0.8202731103952159
144127 0.28859887930842065 -0.8266739868091565
149030 0.2631396172241929 -0.8336003481677661
153933 0.23727583638976407 -0.8379314181110972
158836 0.214703711391215 -0.8449169003986591
163739 0.18736914512566522 -0.8466478873448423
168642 0.16432359858111134 -0.8475371541157577
173545 0.14043818461133115 -0.8504544984034064
178448 0.11664111439435326 -0.8487528440197377
183351 0.09265258383818 -0.8470222777693331
188254 0.06820797158947703 -0.8438505640448241
193157 0.044510910844743526 -0.8385064669597425
198060 0.024122918796624173 -0.8336003378106969
202963 0.00579530585660691 -0.8232134990541895
207866 -0.0056795980103533285 -0.8071249634505413
212769 -0.00888316052241923 -0.7899489673376756
217672 0.003885678418648124 -0.7835150944988188
222575 0.014929208400517043 -0.8079309276246335
227478 0.0009473459776885587 -0.8288554632686038
232381 -0.022368130277888466 -0.8464016212429817
237284 -0.04560064538260022 -0.8496035351567254
242187 -0.06727636136738031 -0.8534634199777336
247090 -0.08515043457187493 -0.8529806007225179
251993 -0.10312790554606228 -0.8570886450809795
256896 -0.12084968497862143 -0.852763864747089
261799 -0.14023737630250357 -0.8528595996520966
266702 -0.15690383685907278 -0.8521162955261113
271605 -0.1738721584840021 -0.8484000225086601
276508 -0.18780043603900523 -0.8442336077329863
281411 -0.20563509052388182 -0.8429744202146084
286314 -0.21828626958066202 -0.8394656553032861
291217 -0.22864628475970813 -0.8340436375146028
296120 -0.24362833143464865 -0.8335843803912824
301023 -0.2550017977156865 -0.8259423444322618
305926 -0.2691513612904529 -0.824770255274735
310829 -0.2767246849421751 -0.8203511388786728
315732 -0.2880701516526659 -0.8203600830891855
320635 -0.30114831589763524 -0.8154220656584207
325538 -0.3133448046813486 -0.8108274977292061
330441 -0.32237872777781157 -0.8098632303248015
335344 -0.3334620427916649 -0.8037277749957813
340247 -0.34534780576643354 -0.8020303590393948
345150 -0.35410739052465845 -0.7991111412522482
350053 -0.3664619616428584 -0.7941304466177894
354956 -0.3751550807476934 -0.7874635637799199
359859 -0.3842350021725535 -0.7821899692873625
364762 -0.3947987272504225 -0.7823215113842112
369665 -0.40080156614116774 -0.7768313583375908
374568 -0.41187686061408835 -0.7723378540386602
379471 -0.42276247890160823 -0.7706422881076973
384374 -0.42729031849062343 -0.7689743160524036
389277 -0.4356885069478046 -0.7610830743948597
394180 -0.44501583000479666 -0.7591391554163089
399083 -0.4526406700730823 -0.7551891896838556
403986 -0.45921560284644763 -0.7487563017532204
408889 -0.4682887876458758 -0.7477792369302025
413792 -0.4755671098615212 -0.7414455710210415
418695 -0.48172477841728967 -0.735101216641461
423598 -0.49082871960775937 -0.7330455855453457
428501 -0.49863908461865464 -0.7277479429970083
433404 -0.5024616481962153 -0.725327504647848
438307 -0.5103935525703714 -0.7165965928202653
443210 -0.515748013356052 -0.7192819184548582
448113 -0.5206188813893611 -0.7134556960590469
453016 -0.5289032018938421 -0.7108049280948735
457919 -0.5327005940209951 -0.703518077776734
462822 -0.5401692067060706 -0.7003726196610577
467725 -0.5453092961736635 -0.697215226931923
472628 -0.5522118876908718 -0.6936328797867517
477531 -0.5603880566299996 -0.6903652769751464
482434 -0.5615909882628821 -0.6821649877245806
487337 -0.5658580161314483 -0.6832762360923079
492240 -0.5739644255616545 -0.67590951475369
497143 -0.5777152913104914 -0.6757304332101621
502046 -0.5830778683586544 -0.6701476434300786
506949 -0.5862493218616293 -0.6673920419975097
511852 -0.5872250354155785 -0.6651159750235855
516755 -0.5959318622138046 -0.6586622596997598
521658 -0.6010425564813462 -0.6594135493151507
526561 -0.606042096691314 -0.6512590754581743
531464 -0.6097133691560432 -0.650187456832563
536367 -0.6170650111920539 -0.6461557633154036
541270 -0.6170314913902729 -0.6422542911332747
546173 -0.6233553981530116 -0.6401310916644617
551076 -0.628396616022288 -0.6349003832574796
555979 -0.6340807021469913 -0.629621647136455
560882 -0.633836973684127 -0.6248513410830143
565785 -0.638640161660201 -0.6179096361514054
570688 -0.6421349868281653 -0.615136931946366
575591 -0.6452863852885563 -0.6083866271673409
580494 -0.6415284324770474 -0.6021073892513683
585397 -0.6410022401082218 -0.5997331564560104
590300 -0.641266331451236 -0.6010166698653596
595203 -0.6427074475750477 -0.6050335658283971
600106 -0.6491362592796588 -0.6078642039791369
605009 -0.6538287454317686 -0.6050363497128839
609912 -0.6576216153833464 -0.6029337631838272
614815 -0.6619492226851182 -0.600062907601855
619718 -0.6681937970816546 -0.5980335454126321
624621 -0.6703017731043572 -0.5963137868062718
629524 -0.6774605729637372 -0.591952259338426
634427 -0.6800721209414732 -0.590027818962464
639330 -0.683474842392261 -0.5874448009370669
644233 -0.6865553734801073 -0.5817161944180926
649136 -0.6904015609532952 -0.5838916142456877
654039 -0.6944186974106447 -0.5774902056222284
658942 -0.7001187881391606 -0.5752936137695831
663845 -0.7023581368425175 -0.5731973628156847
668748 -0.7006801989149605 -0.5677049651928582
673651 -0.7055638122230363 -0.5676214398175998
678554 -0.7100795440138972 -0.5621148872856749
683457 -0.7123666853844859 -0.5629713452940639
688360 -0.7103223150994697 -0.5581548603543045
693263 -0.7194175877401787 -0.5547669108410067
698166 -0.721038693200359 -0.5532851629909735
703069 -0.7234667092585545 -0.5485351498729871
707972 -0.725457940915725 -0.5500463551563427
712875 -0.7268040427854954 -0.5419003380286159
717778 -0.7322666307353163 -0.5435484207625833
722681 -0.731276646164639 -0.537859195686927
727584 -0.7357368556163477 -0.535667197768277
732487 -0.735225367531522 -0.5335136857854414
737390 -0.7420283283778574 -0.5311708851200946
742293 -0.7417510977920073 -0.5271568718614009
747196 -0.7474428546968519 -0.5238691577036453
752099 -0.7458545129358081 -0.5234814166187085
757002 -0.7494978813126871 -0.5198725231651447
761905 -0.7519188405180246 -0.5203312634550542
766808 -0.7512204991776241 -0.5144850334126913
771711 -0.7516091090242744 -0.5131001443140345
776614 -0.7563081348969811 -0.5111221885710168
781517 -0.7566690388914662 -0.5093313565644435
786420 -0.7603594835837969 -0.5050471283455538
791323 -0.7638777030268171 -0.5041958272806557
796226 -0.7664738287941758 -0.5030892953950201
801129 -0.7672123920142615 -0.5010401055154239
806032 -0.7663874578244829 -0.4948656797754379
810935 -0.7719365033008762 -0.494717652259233
815838 -0.770639428180205 -0.49804537738097016
820741 -0.7707601921170324 -0.49390145363434906
825644 -0.7728071641208138 -0.48948946263636584
830547 -0.7752982071739108 -0.487262916416152
835450 -0.7800384838983819 -0.482793978428888
840353 -0.7756454333089245 -0.4826889797431047
845256 -0.7806334129561971 -0.4807623152965241
850159 -0.7818636450246017 -0.4810562005059757
855062 -0.7824124860567485 -0.476970867842582
859965 -0.7855739804328651 -0.47468417731812657
864868 -0.7878603481855 -0.4728077552120804
869771 -0.7871382254917431 -0.47337316935353985
874674 -0.7895762736739175 -0.46891605802379777
879577 -0.7885196051525541 -0.4674888265911717
884480 -0.7917858217568814 -0.4630488266127972
889383 -0.793458671068176 -0.4600699556443781
894286 -0.7968967610701598 -0.4581714485229166
899189 -0.7986446203140607 -0.4595833396395488
904092 -0.7944239598301273 -0.45466497808116274
908995 -0.800644323042109 -0.4542963904422553
913898 -0.8006649509003017 -0.4512867992737123
918801 -0.8023677042799503 -0.4515341792400752
923704 -0.8007020024451276 -0.4454857697179857
928607 -0.8047231543299419 -0.4457061050351267
933510 -0.8014399405317617 -0.4469629903150913
938413 -0.8026620976623046 -0.4380776329652393
943316 -0.8044391742465333 -0.43865329467239
948219 -0.8097851299813584 -0.43926441790719045
953122 -0.8066204154081472 -0.43574832087424875
958025 -0.8024685085270733 -0.4326892109327298
962928 -0.8088253775785899 -0.4343937700384537
967831 -0.8078703518102913 -0.4339928999048055
972734 -0.8115936870139198 -0.43355378783981385
977637 -0.8090840058399452 -0.43034865963744073
982540 -0.8122703067784118 -0.42862342607757153
987443 -0.8150802039451004 -0.43088752811309033
992346 -0.8184471464133791 -0.4279248753222123
997249 -0.818650626939554 -0.4289659152207966
1002152 -0.816154833098959 -0.4245564960184998
1007055 -0.8203240845106112 -0.4231423876516535
1011958 -0.8219483307289259 -0.4238988279588481
1016861 -0.8237578959951002 -0.41837208926718805
1021764 -0.828444356546552 -0.41830211125459754
1026667 -0.8247293649473934 -0.4190035981729874
1031570 -0.8289369166778239 -0.41556968439613234
1036473 -0.8250058611113067 -0.4134662972162597
1041376 -0.8304967161352146 -0.4112258166883162
1046279 -0.8298211044647092 -0.4111074831993809
1051182 -0.8309959037863796 -0.41152851729853146
1056085 -0.8345078190269963 -0.40726783656935345
1060988 -0.8333999440457487 -0.409236924244927
1065891 -0.837842216219691 -0.40548264400162903
1070794 -0.8339745169435021 -0.4022573780810098
1075697 -0.8375098626985875 -0.4027655796457471
1080600 -0.8375407601071642 -0.40160521712884006
1085503 -0.8368619034831015 -0.3969277694691798
1090406 -0.8387426522101532 -0.39667197232346874
1095309 -0.8409723631409247 -0.39592561700909457
1100212 -0.8407094024697249 -0.39604711001246046
1105115 -0.842999278442997 -0.3886514915752166
1110018 -0.8404416764425341 -0.3949818989536776
1114921 -0.8429067523624088 -0.3864594574134457
1119824 -0.8433980475759665 -0.3916063694466625
1124727 -0.8426225235358554 -0.38812140690092306
1129630 -0.8458767004149716 -0.3817611177917322
1134533 -0.8456893114337735 -0.38391241824083444
1139436 -0.8469609459159126 -0.38773038374721325
1144339 -0.8453424241123635 -0.3800614598871597
1149242 -0.8500628647636651 -0.3804598987496529
1154145 -0.8507366925967031 -0.37989033423551194
1159048 -0.8491723999469106 -0.3823919962683581
1163951 -0.8514767669229797 -0.37545678049178094
1168854 -0.8486958831876791 -0.3764857018978936
1173757 -0.8529034760969123 -0.3742186382635901
1178660 -0.8540276044041589 -0.3720335798540814
1183563 -0.8521016521005047 -0.37216614713731394
1188466 -0.8529276846430882 -0.36832350568698846
1193369 -0.8565087621997494 -0.37191928048091616
1198272 -0.857340412938614 -0.3658517380133488
1203175 -0.8563369554595223 -0.36753192693888304
1208078 -0.8558997867315902 -0.36013109722823117
1212981 -0.858762587566808 -0.36254298102805205
1217884 -0.855134889264524 -0.36452252299204874
1222787 -0.8612806264291065 -0.360126545752831
1227690 -0.8605104041618485 -0.35656545313640975
1232593 -0.8595529669795501 -0.3616872448056623
1237496 -0.860911903478334 -0.35990568283623076
1242399 -0.8618449374394436 -0.3553192495587047
1247302 -0.8623163467621676 -0.35918555269720065
1252205 -0.8632182399713453 -0.3520355465218766
1257108 -0.8656929399774056 -0.3522469830977495
1262011 -0.8649897722083665 -0.352910458610292
1266914 -0.8642533685811545 -0.35021343091447743
1271817 -0.8637559126432991 -0.3524560390064721
1276720 -0.8665988611484498 -0.3495661679120166
1281623 -0.8652857456972035 -0.34467052111246294
1286526 -0.8648877334921631 -0.3479182456607981
1291429 -0.869028168278668 -0.3453423468761383
1296332 -0.8677100456843606 -0.34181916112867394
1301235 -0.8687518648628917 -0.3397819880875874
1306138 -0.8701722382779682 -0.34487268315111935
1311041 -0.8677440072130294 -0.33758877857883923
1315944 -0.8663299718706368 -0.34016363842381153
1320847 -0.8652889925324224 -0.339980373800527
1325750 -0.8688243424898081 -0.3396606847643094
1330653 -0.8670826295244259 -0.3357577087618927
1335556 -0.8723985439481472 -0.3343347174711691
1340459 -0.8698018278520804 -0.3405922781277838
1345362 -0.8693993963232114 -0.33412881465920646
1350265 -0.8696812564585037 -0.3364585177591753
1355168 -0.8741949068126291 -0.3328871431972312
1360071 -0.8768858884742087 -0.33561371393945805
1364974 -0.8755845943810273 -0.32925355104018555
1369877 -0.877267796139377 -0.3317712936347421
1374780 -0.8738862032433583 -0.33071666477555783
1379683 -0.8796366671921257 -0.33187005365989314
1384586 -0.8774159721891989 -0.32712687939358875
1389489 -0.8798652944373989 -0.32738892389237095
1394392 -0.8775428183207997 -0.3284449329562679
1399295 -0.8767726640435111 -0.32701924502477697
1404198 -0.8785556926626925 -0.3276656786077188
1409101 -0.8802078971785812 -0.3223957676755849
1414004 -0.8814689889057998 -0.3243895715668414
1418907 -0.8774650948754846 -0.32065062009112777
1423810 -0.8828731494812573 -0.3199162185565988
1428713 -0.8819477195501041 -0.3197032162971773
1433616 -0.879590310613535 -0.32319660353717483
1438519 -0.8810689357905644 -0.31709886845446256
1443422 -0.8848543364877023 -0.31677398217175595
1448325 -0.882198515596682 -0.31628277534409893
1453228 -0.8807672811937236 -0.31335368491554577
1458131 -0.8835758467452478 -0.3160121596549478
1463034 -0.885408098999077 -0.3127344980258113
1467937 -0.8808342706187693 -0.31084533870855974
1472840 -0.886389596731184 -0.3123928062064381
1477743 -0.8818898450945933 -0.31002430123130065
1482646 -0.8839329088021762 -0.30861578556999847
1487549 -0.8882906583020268 -0.31026958470863497
1492452 -0.8845116976050839 -0.3069706771964086
1497355 -0.8878432048019697 -0.30859936373256186
1502258 -0.8868522182735218 -0.3047282247483666
1507161 -0.8884359012626935 -0.30499804266439323
1512064 -0.8873741357982039 -0.3047315718728387
1516967 -0.8893609522008887 -0.3032427486378092
1521870 -0.8879769650431452 -0.30540473029172466
1526773 -0.8910738637597866 -0.3020322168038777
1531676 -0.8849711048945422 -0.30120935185016356
1536579 -0.8929467227218472 -0.29959818958246814
1541482 -0.8909268236946208 -0.3016778705508902
1546385 -0.8912448254819986 -0.2990025212701966
1551288 -0.8908027543801882 -0.3009646537097451
1556191 -0.8886007835117515 -0.2966920141195425
1561094 -0.8926097422523545 -0.2959481207860393
1565997 -0.8922919602412664 -0.29430102757423127
1570900 -0.8940576057616021 -0.29689498045803975
1575803 -0.8916911414144174 -0.29351738175951125
1580706 -0.8918091356384856 -0.29436074060568856
1585609 -0.894305719283804 -0.29614825750413504
1590512 -0.89124015228646 -0.29006265172867013
1595415 -0.8944500102719847 -0.2911289354865728
1600318 -0.894215481561684 -0.2886350669667307
1605221 -0.8961563045461711 -0.28944013235077287
1610124 -0.8936056309936118 -0.28584403859237495
1615027 -0.8954072810092448 -0.28707263972128094
1619930 -0.8929707357719489 -0.2868399576401617
1624833 -0.8941421995883366 -0.28713997335150204
1629736 -0.8968047101926014 -0.28357273736245947
1634639 -0.8949326164235275 -0.2846583014147133
1639542 -0.8970300939468558 -0.28457217886226555
1644445 -0.897714665222652 -0.2839189842063415
1649348 -0.8976802807122399 -0.2831596708894915
1654251 -0.8975598157677401 -0.2855426213810768
1659154 -0.8976979034095997 -0.27917910441593335
1664057 -0.9002717412535662 -0.28148273146049135
1668960 -0.8984418680203349 -0.27989480248376225
1673863 -0.8992532094954021 -0.28299762894831254
1678766 -0.9000853635948406 -0.27916222758321463
1683669 -0.9029442245291056 -0.28197243534372607
1688572 -0.8968260708349917 -0.2786902409969949
1693475 -0.9034979624621723 -0.2766268155038804
1698378 -0.9003411911351517 -0.2781510957314705
1703281 -0.8985255495947767 -0.27548113125267387
1708184 -0.8974976354739161 -0.2767110390301099
1713087 -0.9032090382882143 -0.27541909992045055
1717990 -0.8991329226053615 -0.2777160548002468
1722893 -0.9024834510692166 -0.2694188842638119
1727796 -0.902667113318173 -0.2740514953698872
1732699 -0.9005497423173635 -0.2691301281545325
1737602 -0.9035634190915723 -0.27026633095564845
1742505 -0.9051492989310518 -0.26897623615976113
1747408 -0.9052614928259505 -0.26938016191633474
1752311 -0.9004287678389358 -0.2694446250418757
1757214 -0.9082408992663088 -0.2675352723671706
1762117 -0.9029872710516802 -0.2715188825550999
1767020 -0.9031598551606062 -0.2667062404764906
1771923 -0.9036669958190036 -0.2650109700866715
1776826 -0.9080302954090388 -0.268154678779808
1781729 -0.9062966434936497 -0.26452244174378253
1786632 -0.9031511893411891 -0.2618678872145886
1791535 -0.9057853392489987 -0.26563170759390575
1796438 -0.9066740989661201 -0.2672301747342602
1801341 -0.9045004548439193 -0.2612893289517139
1806244 -0.9051827759950526 -0.261023393803168
1811147 -0.9055900539996565 -0.2596944454176612
1816050 -0.9050307199761702 -0.25748077834798866
1820953 -0.9090356389547013 -0.2613037685068028
1825856 -0.9066246403815755 -0.25904181351027394
1830759 -0.9107567550188488 -0.26036771518823204
1835662 -0.9034786124695094 -0.25589301824998556
1840565 -0.907994526859389 -0.2578938769324036
1845468 -0.9097815597308975 -0.2584592880944666
1850371 -0.9102001973456314 -0.2585671621443519
1855274 -0.9077410530757386 -0.25889337872469265
1860177 -0.9088369076945588 -0.2538843883108333
1865080 -0.9095606854091717 -0.2550601399377496
1869983 -0.9045443158136888 -0.25765145525480554
1874886 -0.9099693910427713 -0.2560562596796207
1879789 -0.9081928685722456 -0.2559775623355382
1884692 -0.9079491707975788 -0.25346644054756334
1889595 -0.909285110574435 -0.2508476923248186
1894498 -0.9110457916226233 -0.24925911152704733
1899401 -0.9098449179542989 -0.25378893238191635
1904304 -0.9097437406181612 -0.24828146755272854
1909207 -0.9157524659936368 -0.2501341984853101
1914110 -0.9089941822522005 -0.25219447311447185
1919013 -0.914071541582737 -0.24900324143926564
1923916 -0.9111367700917393 -0.2484831062761895
1928819 -0.9128172412380012 -0.25039753396661363
1933722 -0.9125266287162541 -0.24630284905275146
1938625 -0.9138499441981252 -0.24701750960003144
1943528 -0.9123538191494435 -0.2444811489750773
1948431 -0.9120797106864086 -0.24563554682315855
1953334 -0.9129767626576251 -0.24469190509244743
1958237 -0.9136053589300472 -0.2438009799065317
1963140 -0.9121985286688774 -0.2443523383034293
1968043 -0.9138947023939608 -0.24357136583070405
1972946 -0.9096571892623188 -0.2437971613873172
1977849 -0.9169461698613421 -0.24521307214169102
1982752 -0.9084218150433114 -0.24211719887664088
1987655 -0.9136100367268375 -0.23995377306821955
1992558 -0.9134221187083265 -0.24219824299584206
1997461 -0.9131323803994876 -0.24094943818113526
2002364 -0.913573558382906 -0.2421992459476049
2007267 -0.9110270030969273 -0.2374471555674342
2012170 -0.9147145791788489 -0.2416408443134401
2017073 -0.9123680968741127 -0.24172770484641215
2021976 -0.9140753547012882 -0.24087654456564256
2026879 -0.9139721373124976 -0.24026637757672825
2031782 -0.9153410189966995 -0.23637479096717257
2036685 -0.9158715975229846 -0.23791689856756743
2041588 -0.9171052881976427 -0.2376049365981902
2046491 -0.9173126910831935 -0.23821647619283
2051394 -0.915879670317845 -0.23624241718476796
2056297 -0.9167929872996872 -0.23918597649516654
2061200 -0.9154949245073698 -0.2370657341609838
2066103 -0.9202208525678105 -0.23303662001853565
2071006 -0.9159380250404663 -0.23451148308623462
2075909 -0.9188770883874228 -0.23485876938430644
2080812 -0.9162281793708108 -0.23322451294851318
2085715 -0.9198060804076663 -0.23252407606403866
2090618 -0.9183712347523387 -0.23721834525194319
2095521 -0.9191248055301698 -0.2280559545604028
2100424 -0.9186982857499295 -0.23003597379099575
