# HZ S RI R 50
100000 0.5380686331266563 -0.719715932128723
104903 0.5102913339170883 -0.7369861091826567
109806 0.48270282874090126 -0.7514057359143899
114709 0.4523766347891405 -0.7664335281033792
119612 0.42428775420192694 -0.7796611543514391
124515 0.4034384603974051 -0.7905881459199152
129418 0.3739851399915601 -0.8018958361376157
134321 0.3483639649890415 -0.8091447455209337
139224 0.3243151047756547 -0.8203665877195362
144127 0.30057175821759513 -0.8299873752665932
149030 0.2724698689816537 -0.834257086883733
153933 0.24590857190930657 -0.8398479394804468
158836 0.2267247942388107 -0.8463886608167839
163739 0.2007699312492365 -0.851685250912523
168642 0.1780848629658184 -0.8532181671991811
173545 0.15568538098259 -0.8587669693217267
178448 0.13496254193338236 -0.8594859127029821
183351 0.11132488774825455 -0.8605705428671309
188254 0.08946683913401916 -0.8612166778841238
193157 0.0662946288610818 -0.8623103845260319
198060 0.04718257551839785 -0.8620413438042013
202963 0.0291127770830369 -0.8605124474900058
207866 0.010199046427253496 -0.8594795450511197
212769 -0.006774408397445815 -0.8544227109489073
217672 -0.018444014704445608 -0.8516271748244815
222575 -0.030971340897232934 -0.8574529385167489
227478 -0.04663252476559053 -0.8583052758913097
232381 -0.06466310912689928 -0.8621760109911639
237284 -0.08194644663381437 -0.8600641840891018
242187 -0.10082159772971123 -0.8603171209183649
247090 -0.11649364174291306 -0.8553574697779561
251993 -0.13102099327865166 -0.8560213418719061
256896 -0.1466974000531671 -0.8548075654010256
261799 -0.16499909172180646 -0.8520785784823282
266702 -0.17887370297690866 -0.8489707008655483
271605 -0.19325840828383858 -0.8461634463981121
276508 -0.20810346660310436 -0.8426795410987046
281411 -0.2227918510215546 -0.8409141362081812
286314 -0.234599440760391 -0.8382727842947568
291217 -0.24361586276130234 -0.83271985385125
296120 -0.25794846821983364 -0.8310137727721837
301023 -0.2713545638302201 -0.8262281038420496
305926 -0.2842223829500236 -0.8223104056701507
310829 -0.29210332718538146 -0.8194150247167825
315732 -0.3039238853433333 -0.8171777553858122
320635 -0.3169047788124293 -0.8109886039865977
325538 -0.32659692577815064 -0.8073726256322485
330441 -0.33615713278695963 -0.8044285208360998
335344 -0.3472474086436181 -0.7991663715149
340247 -0.35824788510511074 -0.797616996147332
345150 -0.3666300585470964 -0.7939757159804746
350053 -0.37803730014042736 -0.790449756211071
354956 -0.38521812901725844 -0.784034683409369
359859 -0.3947721832342773 -0.7783386240034188
364762 -0.40500454353644133 -0.7777772809219221
369665 -0.41116310240587783 -0.7701901140165416
374568 -0.41884774573176264 -0.7671578245794312
379471 -0.43094824037572366 -0.7639057076996403
384374 -0.43888025622507243 -0.7664604296168016
389277 -0.4449579781744531 -0.7555244871448491
394180 -0.45277709172301744 -0.7522817321448231
399083 -0.4604568989478887 -0.750651300709443
403986 -0.4691582038595562 -0.7413623575055184
408889 -0.4744800737073715 -0.7432348364531091
413792 -0.4827112873374667 -0.737329038903558
418695 -0.490042506158288 -0.7328213646872872
423598 -0.4945438894582226 -0.7256489288346287
428501 -0.507155765830966 -0.7241962157710159
433404 -0.5090274718319743 -0.7215660874882358
438307 -0.5171556705319634 -0.7131684985233742
443210 -0.5190859057352105 -0.7147868303273326
448113 -0.5278872976348232 -0.7091328833700463
453016 -0.5340785267431468 -0.7082423931491257
457919 -0.5389186549260008 -0.7007871858260935
462822 -0.5470238581873627 -0.6993565579566193
467725 -0.5505415640185032 -0.6913486456027462
472628 -0.5571093691338983 -0.6931135951943626
477531 -0.5624983807462156 -0.6855779968286844
482434 -0.5664312062382885 -0.6791622186170978
487337 -0.5700242135769565 -0.6817775102398625
492240 -0.5785339314418161 -0.6765300660643001
497143 -0.5844484473913576 -0.6738286281110651
502046 -0.5873783617144391 -0.6675479134780375
506949 -0.5919042221729809 -0.6638884014059466
511852 -0.5952627346850339 -0.6601749911167487
516755 -0.6003635726227374 -0.6563917033741836
521658 -0.6066795081001458 -0.6567352577248571
526561 -0.608644448104418 -0.6505145991769318
531464 -0.6119354711870068 -0.6460918591456783
536367 -0.617609721524136 -0.644003192937294
541270 -0.6215896657703716 -0.6382914619351633
546173 -0.6266949422453115 -0.6398031957549175
551076 -0.6300684969418332 -0.6335970344343397
555979 -0.6358502848110625 -0.6297333048840119
560882 -0.6354269705409948 -0.6264975013587255
565785 -0.6434490330230184 -0.6214538976041488
570688 -0.645490405576756 -0.6187683060465814
575591 -0.6498327686542434 -0.6127895874962012
580494 -0.6503436682135711 -0.6104731842514272
585397 -0.6533859604794818 -0.6071909518735612
590300 -0.6578806968060349 -0.6063690457903168
595203 -0.661543360023773 -0.6038201068679855
600106 -0.6618513574930722 -0.6025260736206961
605009 -0.6686645801443806 -0.6013952083148131
609912 -0.6697705555242566 -0.5953544189580489
614815 -0.6751792754082548 -0.5928773678327759
619718 -0.6771268690794561 -0.5892108466637099
624621 -0.681459876728468 -0.5866715518327211
629524 -0.6845631194185425 -0.5847812188775166
634427 -0.6887553340191049 -0.5826223215156369
639330 -0.6894702584213714 -0.5804297625895113
644233 -0.6930826230622988 -0.574794989258411
649136 -0.6934225257731736 -0.5765420813330716
654039 -0.6969597352798449 -0.5692070906257538
658942 -0.7036251530835949 -0.566952900606384
663845 -0.7058846194158928 -0.5651377140397074
668748 -0.7065771663424806 -0.561596592750456
673651 -0.7092355610365358 -0.5594123198434064
678554 -0.7130618573169418 -0.5540931647490387
683457 -0.7153939561874608 -0.5562921632668426
688360 -0.7167823230499485 -0.5503227170323518
693263 -0.7225753617289198 -0.5469427932697276
698166 -0.7268116007002389 -0.5447217414710861
703069 -0.7250632438375939 -0.543874589705607
707972 -0.727135261395951 -0.5395214900840851
712875 -0.7300277451022801 -0.5386478977967811
717778 -0.7316498525790481 -0.5363355911394461
722681 -0.7330926268765028 -0.5323477477711205
727584 -0.7380418709664892 -0.5300384236669609
732487 -0.7378811268478531 -0.5293636112812095
737390 -0.7393316636000696 -0.5256491266815209
742293 -0.7437893528406423 -0.5220307529718486
747196 -0.745971065721085 -0.5179170654859695
752099 -0.75111118612832 -0.5181837850042227
757002 -0.7496456281016437 -0.5152265688293824
761905 -0.7514862440553576 -0.5128003010957384
766808 -0.7515850438748226 -0.5124470863851966
771711 -0.7558156943047183 -0.5081829547441225
776614 -0.7586875883780723 -0.5064061724809276
781517 -0.7596305327171058 -0.5038013610447075
786420 -0.7620337629536768 -0.5025378220024602
791323 -0.7646432354044402 -0.5005671536804877
796226 -0.7671561548120387 -0.4994367222771135
801129 -0.7653143493971186 -0.496349200877826
806032 -0.7689911581754925 -0.48986602117130335
810935 -0.7719941937006775 -0.4909332310632543
815838 -0.7719936093766758 -0.4939505631622466
820741 -0.7733259881146378 -0.4872422171908099
825644 -0.7742990052223941 -0.4857874472584638
830547 -0.7770978041425278 -0.48392340865018985
835450 -0.7819672902124156 -0.4816598770113888
840353 -0.7756750415529764 -0.48036990138317825
845256 -0.7803221270625491 -0.47426271960564303
850159 -0.7830900439293399 -0.4750526624647338
855062 -0.7830313541505394 -0.4721194901881713
859965 -0.7878600280092477 -0.47098673233356697
864868 -0.7857355237540762 -0.4694826353183599
869771 -0.7899715080838193 -0.4700308535521232
874674 -0.7907646041299806 -0.463993211995086
879577 -0.7900902740055188 -0.46424509902968447
884480 -0.789594781847018 -0.46363669318415285
889383 -0.7948741648868168 -0.4577078365439484
894286 -0.7980654772149169 -0.45720404066086995
899189 -0.7986468460793615 -0.45493973668815063
904092 -0.7992323863754118 -0.45421964933646897
908995 -0.7991098367908617 -0.44949721770264994
913898 -0.8026377948017542 -0.44992733930086753
918801 -0.8011958009172905 -0.44753459053580996
923704 -0.8014423294534638 -0.4445607568034216
928607 -0.8055906169951257 -0.44641962545704306
933510 -0.8051994196540494 -0.443572928524113
938413 -0.8084269390722538 -0.43941209862048136
943316 -0.807556124528735 -0.4366921986678721
948219 -0.8110206014708475 -0.43823779688266673
953122 -0.8118187181677776 -0.4341055183271389
958025 -0.8090757534656924 -0.4331581902162446
962928 -0.8141524471096827 -0.4332991853042476
967831 -0.816339164955115 -0.4321849992572811
972734 -0.8155109950476572 -0.4301568169551961
977637 -0.8143884970583629 -0.4301573345407946
982540 -0.8174134839517772 -0.4267878893284258
987443 -0.8206386185163582 -0.42361828802142143
992346 -0.8210196170562687 -0.42309766320250114
997249 -0.8203416925602414 -0.422869701653266
1002152 -0.8204437233082796 -0.4194506181053948
1007055 -0.8206579892524123 -0.41834273877576594
1011958 -0.8218021065029846 -0.41875134053765
1016861 -0.8249923694489185 -0.41685304180801513
1021764 -0.8252462112722252 -0.41355473456229574
1026667 -0.8263829540778107 -0.41213368705942083
1031570 -0.8291500846636567 -0.41269742584753916
1036473 -0.8257109360868509 -0.407660130011934
1041376 -0.830936763093524 -0.4099385478402565
1046279 -0.8286760277866797 -0.407295177726361
1051182 -0.8319280619356153 -0.40761339531096474
1056085 -0.8353226516070558 -0.40585426497760063
1060988 -0.8316380034741727 -0.4056566353118973
1065891 -0.8366114325041804 -0.4049296701075463
1070794 -0.8338160520068189 -0.40069986202759933
1075697 -0.8376968949457464 -0.39791444803854104
1080600 -0.8367669703736453 -0.3963639892055117
1085503 -0.8362555851584104 -0.3946860740538557
1090406 -0.8377114525634763 -0.39489848405218136
1095309 -0.8380507236161241 -0.39498469140809295
1100212 -0.8401518091333359 -0.394106587589402
1105115 -0.8417440918965909 -0.3900037585235205
1110018 -0.8412812940743843 -0.38962367056980834
1114921 -0.8434571432057127 -0.38630288771048144
1119824 -0.8435604592302016 -0.3887527828427635
1124727 -0.8444081369652129 -0.38531823860113346
1129630 -0.8435670043093175 -0.38095910770538943
1134533 -0.8498557799245164 -0.38190766861274916
1139436 -0.8464766258323425 -0.38673140098274217
1144339 -0.8483390147696801 -0.37821323094637405
1149242 -0.8482305526379007 -0.37709056965667176
1154145 -0.8497771907221381 -0.37801471877385756
1159048 -0.8495537730818636 -0.38100010091950265
1163951 -0.8512675407096298 -0.37287732750684605
1168854 -0.8511559516937939 -0.3739981597034097
1173757 -0.8523616384747617 -0.37217311526044056
1178660 -0.852238946942957 -0.3718633039794277
1183563 -0.8544484515674614 -0.36957716726096296
1188466 -0.8531870039903238 -0.36881904516428143
1193369 -0.8537276525997084 -0.3709371154682071
1198272 -0.8537192394842056 -0.3633801816933013
1203175 -0.858108218386144 -0.3669739126661771
1208078 -0.8578092769977292 -0.3621416472182165
1212981 -0.8580497593794257 -0.36126238421890905
1217884 -0.8560876156375236 -0.36126847901249337
1222787 -0.8615783644831752 -0.35976967467127663
1227690 -0.8589277124263044 -0.3585573708472684
1232593 -0.8607229173744814 -0.3584388040374963
1237496 -0.8582528437511407 -0.36039578378928666
1242399 -0.8617290007915637 -0.3562627229567735
1247302 -0.8621859727943014 -0.3591910959917189
1252205 -0.8638698315958321 -0.3530509076825041
1257108 -0.8651350093124521 -0.3550883945843692
1262011 -0.8656704477807252 -0.35196862058078565
1266914 -0.8657561282081802 -0.3522904807418222
1271817 -0.8646081030520246 -0.35303675445020594
1276720 -0.8653783341196681 -0.34752794538696535
1281623 -0.8659404775924509 -0.34565592034559167
1286526 -0.8667798129061274 -0.3448424350428432
1291429 -0.8667970754823553 -0.3449754015565784
1296332 -0.8698578030666145 -0.3419808699885992
1301235 -0.8695764928100705 -0.34189917253510527
1306138 -0.8718632215647231 -0.34652167068094974
1311041 -0.8695597472093732 -0.3407141153840428
1315944 -0.868779080402849 -0.33652201642660773
1320847 -0.8683470005878832 -0.33919037456546647
1325750 -0.8687027228440158 -0.33970789362240117
1330653 -0.8699576074094272 -0.3370320425941659
1335556 -0.8709304030780454 -0.33745350887507497
1340459 -0.8712041462261141 -0.3375327330088528
1345362 -0.8697036315998048 -0.3332367429948461
1350265 -0.8727522389682018 -0.3341631906785784
1355168 -0.8727113311425639 -0.3328871016669852
1360071 -0.8740828048939113 -0.3312722201452763
1364974 -0.8764612516899796 -0.33114271999867073
1369877 -0.8766788473531909 -0.33110452948883573
1374780 -0.8763615673343108 -0.33094374405977595
1379683 -0.8830177547175277 -0.3282184485808781
1384586 -0.8772028898039108 -0.32791173112852934
1389489 -0.876824008048747 -0.3216504925636051
1394392 -0.8795782104311654 -0.32746826904852055
1399295 -0.8751602389056254 -0.32452873372238134
1404198 -0.8797717970258745 -0.32364114967610214
1409101 -0.8791110374979343 -0.32191856107792677
1414004 -0.8828984768894312 -0.32472319506707054
1418907 -0.8792357175868218 -0.3234748608586598
1423810 -0.8814101975421521 -0.3204477708923418
1428713 -0.882066340148681 -0.3203681743408837
1433616 -0.8799165291055923 -0.3237176321611505
1438519 -0.8791470247674097 -0.31930250638788055
1443422 -0.8832929058240194 -0.31407191374279025
1448325 -0.8837483835616177 -0.3161076983387411
1453228 -0.882411087250217 -0.31245638275589754
1458131 -0.8799562327538423 -0.31399986712306127
1463034 -0.8882580456703338 -0.31238428088097636
1467937 -0.882838157889099 -0.312156457497144
1472840 -0.8859465065127523 -0.3112287701401877
1477743 -0.8839205444832847 -0.3120719862525131
1482646 -0.8859036973750147 -0.3086091568981195
1487549 -0.8855813233195324 -0.3090383224370339
1492452 -0.8876937789423905 -0.30816012934981174
1497355 -0.8878139319042405 -0.3078169328798837
1502258 -0.8872240996151859 -0.3050464436848211
1507161 -0.8898724320528041 -0.3056552166958888
1512064 -0.8899147486623579 -0.308398311998206
1516967 -0.8915109780239674 -0.3030708557494027
1521870 -0.8876509098736322 -0.3054890510017582
1526773 -0.8893217826949723 -0.30322398172362947
1531676 -0.8903160357689194 -0.3029211424529425
1536579 -0.8934730587270409 -0.29894775985507294
1541482 -0.8916978480457652 -0.3036047346045485
1546385 -0.8895092027387697 -0.297469641939759
1551288 -0.8916384252697663 -0.29868210418314994
1556191 -0.8897311316772084 -0.2976851896707257
1561094 -0.8947042321998052 -0.2987794465484527
1565997 -0.8916338373265883 -0.2961654671686941
1570900 -0.8958480634281693 -0.29736501537852267
1575803 -0.8926490066764017 -0.29674166148345626
1580706 -0.8893431429818522 -0.29632858300179465
1585609 -0.8952465619385985 -0.2966780647278001
1590512 -0.8932408048108799 -0.29243223409043184
1595415 -0.8959480803807734 -0.2945437769404204
1600318 -0.8930107719342654 -0.2913795409490097
1605221 -0.8958249013103851 -0.2902717557436806
1610124 -0.8972671766254585 -0.2907305148445919
1615027 -0.8978195245835635 -0.2881046947349006
1619930 -0.8951506292080287 -0.2883098724078982
1624833 -0.8961951221400805 -0.28693996704861424
1629736 -0.8982263185754328 -0.28722699675277596
1634639 -0.8981241345345496 -0.28526110798670706
1639542 -0.8989778164994666 -0.2866558286070127
1644445 -0.8998117686788738 -0.28452120861930985
1649348 -0.8999597526451726 -0.28539910494272447
1654251 -0.899450208187547 -0.2837535214698077
1659154 -0.8998947950988346 -0.2814808937301842
1664057 -0.9011559360890716 -0.284026079238521
1668960 -0.9032390670398669 -0.2811994970763423
1673863 -0.900708964773927 -0.2847960478544956
1678766 -0.9000334607980386 -0.2809774397714221
1683669 -0.9033987949128314 -0.28214470274376613
1688572 -0.9018155995048618 -0.2805752210109484
1693475 -0.9042315838239031 -0.27703197710172134
1698378 -0.9001410534579005 -0.2789917060375168
1703281 -0.9012362898844675 -0.27683046060558847
1708184 -0.9007179121754585 -0.27819254210792305
1713087 -0.9024875366752879 -0.2761001796457866
1717990 -0.9009363133823294 -0.27824593637415224
1722893 -0.9016642123214711 -0.273050037422747
1727796 -0.903849039861802 -0.2755314992515162
1732699 -0.8998682128983967 -0.27507232355917594
1737602 -0.9040131719515275 -0.2739910289864093
1742505 -0.9050676006573933 -0.2732238184258081
1747408 -0.904357766661727 -0.26942807152319975
1752311 -0.901769404106787 -0.26906261951899957
1757214 -0.9117820580735728 -0.2715354966376084
1762117 -0.9020324236856596 -0.2714392258460316
1767020 -0.9046043566103373 -0.2687018346496423
1771923 -0.9060611273642305 -0.26600569758226905
1776826 -0.9077467722167692 -0.2752950000961014
1781729 -0.9085980884020227 -0.26717550267712004
1786632 -0.9062719772269078 -0.2634283487423763
1791535 -0.9081190864568885 -0.2694045423397287
1796438 -0.9037621119763578 -0.270698782793714
1801341 -0.9061223680648249 -0.2628285596296258
1806244 -0.9070315358394206 -0.26304410182696497
1811147 -0.9075373847183771 -0.2591854866490664
1816050 -0.908240263966352 -0.26245709968972775
1820953 -0.9114508652723914 -0.26411458711785524
1825856 -0.9096096040509211 -0.2588530748236234
1830759 -0.9075349404415742 -0.26274945063219024
1835662 -0.9054646773706714 -0.2601733737742619
1840565 -0.9096221654576596 -0.2623920081744504
1845468 -0.9120342817352257 -0.259492344306064
1850371 -0.9100674366343128 -0.2576659405432137
1855274 -0.9088136022581501 -0.257382244546312
1860177 -0.9107236622914432 -0.2595527145398542
1865080 -0.9098855721693525 -0.2578164549510962
1869983 -0.910206377558657 -0.25901956613411037
1874886 -0.9076067498652616 -0.26102770642124273
1879789 -0.910559135815894 -0.2573921095798987
1884692 -0.912247723553428 -0.253249195603952
1889595 -0.9109347729704543 -0.2556350406032762
1894498 -0.911370077157311 -0.25360342599408625
1899401 -0.9131620765822378 -0.25472303002090313
1904304 -0.9137396844132984 -0.2552584978460643
1909207 -0.9130766753263739 -0.2549286498876944
1914110 -0.911323959599985 -0.2530744311683236
1919013 -0.9161404545778293 -0.2504841524105926
1923916 -0.9095450921719103 -0.2525228611682168
1928819 -0.9123590610515987 -0.2503247431165101
1933722 -0.9157679842378299 -0.25021546926809723
1938625 -0.9135471800334595 -0.24941450973709278
1943528 -0.9142465903665893 -0.24950275425701574
1948431 -0.9111887310136699 -0.24908433953625547
1953334 -0.9155148910615931 -0.24753234404989616
1958237 -0.9117651332376371 -0.251311304075794
1963140 -0.9147708185150366 -0.24719929238738209
1968043 -0.9148568322748429 -0.2511839188818748
1972946 -0.9136210335165943 -0.2453921130297704
1977849 -0.9189776598469478 -0.24608741164147463
1982752 -0.9152850170067849 -0.2471354851851827
1987655 -0.915042760535491 -0.2434618726420416
1992558 -0.9146447510279587 -0.24396703446743767
1997461 -0.9159567277831622 -0.2458496882372816
2002364 -0.9135962344270682 -0.24837160201218741
2007267 -0.915151406965265 -0.24026753968422299
2012170 -0.91689221329113 -0.24140270223332053
2017073 -0.9157640800690381 -0.24342737837039027
2021976 -0.9152671854962566 -0.24409649282580362
2026879 -0.9150013936147696 -0.23866691636482634
2031782 -0.9166298531830349 -0.24147805112180057
2036685 -0.9175036367026471 -0.24206012224673024
2041588 -0.9177696758513899 -0.23892338298337645
2046491 -0.9188482809420616 -0.24098030090270206
2051394 -0.9158835346568751 -0.23828980236156222
2056297 -0.918376148681451 -0.23804950769103767
2061200 -0.9184433079119033 -0.23776242292650385
2066103 -0.9215643023967827 -0.2374788426664348
2071006 -0.9180945134097048 -0.2381625379936242
2075909 -0.9190551279615975 -0.23550140649103696
2080812 -0.9170787085892896 -0.23967790184103677
2085715 -0.9236392623855842 -0.2388574440830173
2090618 -0.920132630835024 -0.2378599357823842
2095521 -0.9201613452514057 -0.23373066195621278
2100424 -0.9162776486212179 -0.23560619966558508
2105327 -0.9209664209594458 -0.23431338885551564
