# HZ S RI R 50
100000 0.5342000539266255 -0.7185331891924059
104903 0.5075553584760996 -0.7342858716685238
109806 0.4787531858571278 -0.7505974476004234
114709 0.44754146309383785 -0.7662872722457417
119612 0.42284306756780027 -0.777470790912096
124515 0.3954173230305354 -0.7887681762183432
129418 0.36514310098241204 -0.8017745425811721
134321 0.3375941038479832 -0.8085678769032006
139224 0.3105900192486538 -0.8186344680771049
144127 0.28321626506895237 -0.8262921074244415
149030 0.2548086079664537 -0.8314286597123737
153933 0.22697186312025397 -0.8360223539916327
158836 0.20124690548174856 -0.8400940248053874
163739 0.17219841805750788 -0.8417054201634453
168642 0.14529462963130574 -0.8369425538523291
173545 0.12130013074901806 -0.839075347898046
178448 0.09678331413103122 -0.8355667696534622
183351 0.06817944223588762 -0.8282789044617452
188254 0.043930411432583936 -0.8191698232287643
193157 0.018881613635484542 -0.808814098962369
198060 -0.002800538806504985 -0.7922387159894985
202963 -0.02173268717401268 -0.7642582043279765
207866 -0.021946306267042533 -0.7370132715170744
212769 -0.004851649172908105 -0.7055326776196151
217672 0.03704974813699894 -0.6987301422049969
222575 0.07629455150444209 -0.7420874025739777
227478 0.06487229553591758 -0.7920552807975488
232381 0.03691094743929761 -0.8202124917521865
237284 0.008382837580325384 -0.8342409590495975
242187 -0.01880624271028217 -0.8440447660396161
247090 -0.04198853973848681 -0.844854827012024
251993 -0.06104596992442934 -0.8522252678940774
256896 -0.08396370799991706 -0.8523839378160378
261799 -0.10337990483976106 -0.8546360692230385
266702 -0.12228407255995569 -0.8546546821283576
271605 -0.14324128445517254 -0.8511590213993596
276508 -0.16027240644925622 -0.8488801244664933
281411 -0.178325013625736 -0.8482785023775038
286314 -0.1941157509703129 -0.8437560899241838
291217 -0.2061333838731841 -0.838905289131585
296120 -0.21995383206508556 -0.8358262062112233
301023 -0.23270820528179764 -0.83210077910058
305926 -0.24630623087308465 -0.82595025461752
310829 -0.25431849544711593 -0.8245917313822101
315732 -0.2659222900910627 -0.8238252916264871
320635 -0.2784483929667764 -0.8198077817067138
325538 -0.28990031444891495 -0.8170333675100466
330441 -0.30148451525956765 -0.8165860701132386
335344 -0.31268274454484096 -0.8126065146276544
340247 -0.32678594679071676 -0.8082939680791189
345150 -0.33526684327572237 -0.8060160578426364
350053 -0.3481732479258449 -0.8028464118946228
354956 -0.35808697511711435 -0.7962685673391925
359859 -0.3667659535700301 -0.7906710705268543
364762 -0.3774352752773529 -0.7894881761438831
369665 -0.38640412119530854 -0.7844184975834922
374568 -0.3973055509939125 -0.7790967570582947
379471 -0.4075163747551455 -0.7771699313375701
384374 -0.4154918582958436 -0.7784341954670709
389277 -0.4222445805151509 -0.7684862557538946
394180 -0.43045831605207385 -0.7643544282688844
399083 -0.4387466605007185 -0.7624839926326561
403986 -0.4490130095074368 -0.7558048578552233
408889 -0.4564429833159485 -0.7553195518000165
413792 -0.463360622231302 -0.7481588403533059
418695 -0.4717868879429909 -0.7430654540211356
423598 -0.47869089263515663 -0.7401222128349608
428501 -0.4870720499883109 -0.7333108117552366
433404 -0.4917021781215647 -0.7311434042320772
438307 -0.500685839446172 -0.7257251746719717
443210 -0.504994378797164 -0.724616931600547
448113 -0.5123743130501297 -0.7198068074288193
453016 -0.5178943895825336 -0.7158420381638746
457919 -0.5236023152838818 -0.7091382728092743
462822 -0.532942736014044 -0.7068501690353158
467725 -0.5363289411955988 -0.7026907927279229
472628 -0.5442125689334891 -0.6983920356091542
477531 -0.5498148062254979 -0.6943407048676108
482434 -0.5528875832714434 -0.6870249198440121
487337 -0.5596969152272455 -0.6885670647601899
492240 -0.5647302630198217 -0.6794772009084378
497143 -0.5730591168313459 -0.6784031938294759
502046 -0.5753217494549097 -0.6730602581027567
506949 -0.5801208072417086 -0.6707043241094146
511852 -0.5825540884500477 -0.666700581827298
516755 -0.5893255098904786 -0.661599270777269
521658 -0.5945111431192641 -0.6604279938391837
526561 -0.5980563515473569 -0.6534425982767303
531464 -0.6035041538156746 -0.6508609766367855
536367 -0.6095911441866181 -0.6452233833285874
541270 -0.6121612270728833 -0.641362121784935
546173 -0.6169264887506918 -0.6395766124024183
551076 -0.6211297056205759 -0.6339174094159734
555979 -0.6238489295899914 -0.6269728068265253
560882 -0.6262557686531238 -0.6211458250958014
565785 -0.6297689547901337 -0.611238352201833
570688 -0.6314269837237947 -0.6048989246923212
575591 -0.6304197283730324 -0.5983000247131911
580494 -0.6231387169502571 -0.5909567185175854
585397 -0.6165157179294258 -0.5958000083999595
590300 -0.6157192309314095 -0.5989313965228524
595203 -0.6199923832286147 -0.6055460386537858
600106 -0.625224985184789 -0.6113764961296994
605009 -0.6323336485488044 -0.6108864273545742
609912 -0.6386900735166564 -0.6116175614606614
614815 -0.6426565987294016 -0.61208552406283
619718 -0.6491319768249979 -0.6082653570066732
624621 -0.6576492616122189 -0.6063981579604917
629524 -0.6636253234317294 -0.6028333074841443
634427 -0.6672909980104405 -0.6014295323326679
639330 -0.673348765216548 -0.5980350830739367
644233 -0.6772865340362944 -0.593382201623623
649136 -0.6778069807905853 -0.5924427587569954
654039 -0.6827650123344075 -0.5855233907197612
658942 -0.689901069330176 -0.5844219712709935
663845 -0.6910400947827611 -0.5827441713516619
668748 -0.6925419012256209 -0.5790278748790834
673651 -0.6941644196286244 -0.5748596660937416
678554 -0.6998177489090254 -0.571445060386616
683457 -0.7023205489428913 -0.5700253046509325
688360 -0.7017255048123721 -0.5666881649985456
693263 -0.7085392178925339 -0.5641137305747164
698166 -0.7143650485815395 -0.5612335162001405
703069 -0.7128505606911013 -0.5605593380455958
707972 -0.7168653166371505 -0.5564598855491049
712875 -0.7215864215701824 -0.5516442285572866
717778 -0.7240377845051181 -0.5502358331965929
722681 -0.7255411205578657 -0.5466436152785039
727584 -0.727365006726143 -0.543916088054698
732487 -0.7295290379809197 -0.5385696962793832
737390 -0.7346196105293799 -0.5373900908607682
742293 -0.7351540183282141 -0.5362963626045508
747196 -0.7392599917686433 -0.5329928529457034
752099 -0.741639383547038 -0.5281267947701733
757002 -0.7417576164544005 -0.5276862396929184
761905 -0.7430578504024897 -0.5257592122248896
766808 -0.744839007987561 -0.5226626878152312
771711 -0.7500135725330105 -0.520277302789237
776614 -0.7497185824897566 -0.5192401594590585
781517 -0.752134932269859 -0.5161956575378169
786420 -0.7561894453675304 -0.5103147613092369
791323 -0.7587530403641316 -0.5139159539674126
796226 -0.760590921653894 -0.5104882637776574
801129 -0.7613603436199751 -0.5068907171319595
806032 -0.7617533499568746 -0.5033822697647021
810935 -0.7669418427516584 -0.5018644501719923
815838 -0.7639482269424787 -0.5011391194386998
820741 -0.7646025973030457 -0.4967069277855968
825644 -0.7703867958350685 -0.4963767882932365
830547 -0.7710533222165947 -0.49383963932951364
835450 -0.776213043452758 -0.4888056120125544
840353 -0.769292985538076 -0.4877622854011234
845256 -0.7748952054921882 -0.48284091203861546
850159 -0.7777760403425708 -0.48323922765538274
855062 -0.7781670484200753 -0.47899283610909665
859965 -0.7837796900766385 -0.4807312654859784
864868 -0.7820268270139524 -0.4761600179661672
869771 -0.782495466139387 -0.47779767609588925
874674 -0.7867508265738331 -0.471813676704209
879577 -0.7838813113451761 -0.47109706749968794
884480 -0.7846501280452627 -0.46780038944744995
889383 -0.7913826291087397 -0.4614943023687244
894286 -0.7907957786069678 -0.4624050723805765
899189 -0.794022795347903 -0.46197305613540685
904092 -0.7930975339852385 -0.4571271337097177
908995 -0.7955848804538869 -0.45363392030299915
913898 -0.7994995126350543 -0.454262544222987
918801 -0.7979000108540147 -0.44949483247895866
923704 -0.7969179067269737 -0.4479917977585957
928607 -0.8001411075804857 -0.4455433195359029
933510 -0.7970887880054004 -0.4450178542512609
938413 -0.797904299781271 -0.43808707144418574
943316 -0.7984680173233868 -0.4337612672257885
948219 -0.7983367427765786 -0.44057475897425086
953122 -0.7976050705248581 -0.43541212922370304
958025 -0.7931305598954912 -0.4352607774311504
962928 -0.7960374185437654 -0.43684591859044003
967831 -0.8001067387180643 -0.4387061735460136
972734 -0.7992200174360727 -0.4360722990829058
977637 -0.7998914050153114 -0.43613772853832794
982540 -0.8018486667966512 -0.433288699827075
987443 -0.8067326605430558 -0.43654262556559986
992346 -0.8071982391874046 -0.4336004378075151
997249 -0.8089134637814157 -0.433546010980692
1002152 -0.8112375345532941 -0.42936129069675516
1007055 -0.8151859594383775 -0.42697889808784106
1011958 -0.8151025992668047 -0.43071406183065813
1016861 -0.8191847659775271 -0.4270297563919712
1021764 -0.8204966593921628 -0.4277003669439345
1026667 -0.8170261767447502 -0.4225998307323983
1031570 -0.8235369099173501 -0.4201656928137845
1036473 -0.8190329052154872 -0.41944032864110126
1041376 -0.8240000156476661 -0.41851961492889833
1046279 -0.8241119105679765 -0.4146890246613378
1051182 -0.8262562443006091 -0.4146610292718655
1056085 -0.8293687587559568 -0.414641892429602
1060988 -0.8265083748497486 -0.41375988378249
1065891 -0.8326038779764895 -0.41042655542631834
1070794 -0.8310938867986639 -0.41019239445638295
1075697 -0.8341938028892243 -0.4062618702250223
1080600 -0.8343270436274313 -0.4051632556526426
1085503 -0.8338389185621938 -0.4006896494761174
1090406 -0.8325688449686955 -0.4023444558077265
1095309 -0.8347529584165708 -0.4028171971712519
1100212 -0.8365812923881915 -0.40170506217585167
1105115 -0.8377808726391843 -0.393719644715435
1110018 -0.8384488190968479 -0.39649260522202956
1114921 -0.8398251170547897 -0.3912310054956625
1119824 -0.8395466960856515 -0.3956097419775954
1124727 -0.8432771756230364 -0.39023699883709995
1129630 -0.8436529609379844 -0.3874238624014876
1134533 -0.8456074055801778 -0.38671836850460994
1139436 -0.8434933416071111 -0.39031822499367463
1144339 -0.8419269294886802 -0.383364499966571
1149242 -0.8465264206219425 -0.38276210349992484
1154145 -0.8494968584291814 -0.3806398819999253
1159048 -0.8458758875037703 -0.3865069593412236
1163951 -0.8484269130074429 -0.3772294447699094
1168854 -0.8456967267122758 -0.37915891469341
1173757 -0.8489389719290408 -0.37556558458862543
1178660 -0.8513376902758407 -0.3728788303915106
1183563 -0.8509412958076185 -0.37353680805602657
1188466 -0.8518322783855693 -0.37198047250986654
1193369 -0.8516440102189216 -0.3719838335267198
1198272 -0.8533471757149712 -0.36979854257958
1203175 -0.855734651422072 -0.3676226363428228
1208078 -0.8528702580306928 -0.3634765194035593
1212981 -0.8527685031940069 -0.36709684488933547
1217884 -0.8554601750821287 -0.3641033062316902
1222787 -0.8557398349418627 -0.3613961353953334
1227690 -0.8566979447999338 -0.35847883121725227
1232593 -0.8597463587807592 -0.3623560198013065
1237496 -0.8568276596205575 -0.3604739459084759
1242399 -0.8590204860229174 -0.35795101843893007
1247302 -0.859754691140388 -0.3557778795898196
1252205 -0.8608288677245777 -0.35418392126580905
1257108 -0.860796165074054 -0.3543111308726107
1262011 -0.8617777854105043 -0.35288157977085705
1266914 -0.8653685708844795 -0.35201790591088966
1271817 -0.8595920717335723 -0.35080196864596475
1276720 -0.8617789480885482 -0.34728726608823224
1281623 -0.8630844992423488 -0.34264469357504745
1286526 -0.8598849376614821 -0.3467560200449402
1291429 -0.8630751854109556 -0.34266612265566326
1296332 -0.8650677952010123 -0.3408278396855125
1301235 -0.8619869850513111 -0.34106904938782456
1306138 -0.8636837665384927 -0.34378696879963944
1311041 -0.8632346763303473 -0.3367324498985792
1315944 -0.860490848219198 -0.34185949276059496
1320847 -0.8599610234041807 -0.34189373715990334
1325750 -0.8638333046094254 -0.34434316491502914
1330653 -0.8621448530606973 -0.3422770020365055
1335556 -0.8649421138468472 -0.3403286677037062
1340459 -0.865287786880643 -0.34063273423369766
1345362 -0.8652853691414909 -0.3384091600876481
1350265 -0.8657199310273535 -0.3365076005408512
1355168 -0.8699254106540609 -0.3343986021691849
1360071 -0.8714549809459726 -0.3347235441566652
1364974 -0.8738553532777603 -0.33512358889476285
1369877 -0.8725980514468693 -0.33232510619656097
1374780 -0.8706250269477852 -0.3326152011083499
1379683 -0.8750262421999646 -0.3318708747249768
1384586 -0.8733450272078227 -0.3283820246635813
1389489 -0.8755903384717987 -0.3275414090996501
1394392 -0.8759984609895721 -0.33024255488902576
1399295 -0.873526370973054 -0.3299601316630883
1404198 -0.8759172571502462 -0.3267617196785657
1409101 -0.8766358239905798 -0.3250437473982689
1414004 -0.878121183921594 -0.3258286416554879
1418907 -0.8765412158770916 -0.3222134800400671
1423810 -0.878475067831311 -0.3218276026976089
1428713 -0.87903878749756 -0.3212240279408986
1433616 -0.8767771625750922 -0.3236275090874412
1438519 -0.8790876171162608 -0.3207107216196792
1443422 -0.8809067529303582 -0.31791819826861156
1448325 -0.8795320188718821 -0.31767619405015807
1453228 -0.8792526307237599 -0.3179072721784749
1458131 -0.8796065059944408 -0.31629936810730175
1463034 -0.8838663195299605 -0.31449043722195236
1467937 -0.8795761380872784 -0.31019797015891665
1472840 -0.8818056127293546 -0.3128132310876253
1477743 -0.8802400885640176 -0.30870411193275066
1482646 -0.8840582577131061 -0.30795647053021596
1487549 -0.8846499672282127 -0.3075808499334894
1492452 -0.8853349051441972 -0.30610558554884076
1497355 -0.8855025719597108 -0.3056289552714206
1502258 -0.8841233051610861 -0.30488214772097316
1507161 -0.8840414638484738 -0.3049964394302999
1512064 -0.8858562883219238 -0.3062428713935458
1516967 -0.8879847637534714 -0.30077712117599525
1521870 -0.8833048795947296 -0.3049910378943515
1526773 -0.8838300722936279 -0.29970875896279453
1531676 -0.8854386291880318 -0.299705237082325
1536579 -0.890112826509428 -0.3022631812992182
1541482 -0.8871017223818799 -0.30145804505285884
1546385 -0.8874230104598406 -0.29826509492634723
1551288 -0.8911934263989152 -0.2987732355938863
1556191 -0.8877648521379242 -0.2959178690405239
1561094 -0.889992350251982 -0.2948781828167864
1565997 -0.8890680446048275 -0.2917128246801215
1570900 -0.8925597138585006 -0.29251194516109946
1575803 -0.8893429557888304 -0.2944207686251102
1580706 -0.8902739179649817 -0.29707272355402414
1585609 -0.8947129187263569 -0.29248407922639325
1590512 -0.8867520626366349 -0.28885226928599667
1595415 -0.8887213174357567 -0.2891832778992855
1600318 -0.8890119951874594 -0.2859133171170478
1605221 -0.893081478936845 -0.28810584634538733
1610124 -0.8895794157945308 -0.2873172982608322
1615027 -0.8911716783606511 -0.2857300371269427
1619930 -0.890254952982304 -0.2870066193171568
1624833 -0.8892226610242119 -0.2901372084624652
1629736 -0.8907861029423704 -0.28564156669444973
1634639 -0.893485024542575 -0.2844994497141102
1639542 -0.8957981729014742 -0.28603018533039026
1644445 -0.895758770410002 -0.2863061271929402
1649348 -0.8967613275595993 -0.28149001378804206
1654251 -0.8939960758983246 -0.28625860264839736
1659154 -0.8956875856696502 -0.276572014990685
1664057 -0.8981737791869575 -0.2806031337902223
1668960 -0.8942042365782977 -0.27990602470666853
1673863 -0.8996014625696558 -0.2805172267869944
1678766 -0.8988048080177596 -0.280379324169678
1683669 -0.8999136852813634 -0.2792551757992316
1688572 -0.8957179243561503 -0.27965290975936524
1693475 -0.9020118269062362 -0.27465665638582504
1698378 -0.8973659866125144 -0.2755421698705762
1703281 -0.8976778484455992 -0.270925904765776
1708184 -0.895889753473505 -0.276797817853327
1713087 -0.9010857815204296 -0.27499093575196376
1717990 -0.897209798496743 -0.2731239890600055
1722893 -0.898736910858916 -0.2688372442015839
1727796 -0.8996187649940613 -0.26972249035876916
1732699 -0.8963571618761034 -0.2692722670829113
1737602 -0.8995194598602769 -0.26840650834119495
1742505 -0.9002873086680108 -0.26893824399695015
1747408 -0.901822995705021 -0.2653258671154188
1752311 -0.901401036663885 -0.26722937667951996
1757214 -0.9029059370443671 -0.2679203092780387
1762117 -0.9014216889767529 -0.26806593611848034
1767020 -0.8994675693712865 -0.26508925607502964
1771923 -0.9043642794605717 -0.2607548997736228
1776826 -0.9019117455237666 -0.2647656941222704
1781729 -0.9077715540028669 -0.2617492604704889
1786632 -0.9004804016296992 -0.261155569692508
1791535 -0.9013783879113109 -0.25818870489941675
1796438 -0.9010667343437834 -0.26471840235456096
1801341 -0.9006539348947955 -0.25544261889140535
1806244 -0.902557857581186 -0.25719253281210386
1811147 -0.9033832953851549 -0.2557673264862812
1816050 -0.9034784505105319 -0.25411522132880915
1820953 -0.905752656949429 -0.2576287110652218
1825856 -0.9050697039087975 -0.25522821370953463
1830759 -0.9030988480450427 -0.25784904901009564
1835662 -0.898108680908662 -0.2544784161156189
1840565 -0.9008675305389133 -0.2569428622836242
1845468 -0.9090229144317679 -0.25694800561035314
1850371 -0.9029394470205993 -0.2530163617318074
1855274 -0.9046061923789869 -0.25454231870834804
1860177 -0.9030220629405722 -0.25175360685202314
1865080 -0.905086935686245 -0.2538205163154313
1869983 -0.9035217201431833 -0.25581352969370313
1874886 -0.9052628740426969 -0.2547325350237682
1879789 -0.9055317203539652 -0.2530705930723888
1884692 -0.9066034913422669 -0.24944899496159326
1889595 -0.9063483149934292 -0.24679841095420516
1894498 -0.9056794540938801 -0.2474684085171272
1899401 -0.9096159467372087 -0.24880473849472468
1904304 -0.9075758446909281 -0.24538395638335114
1909207 -0.9105563022209453 -0.24718620954476367
1914110 -0.9054452703839589 -0.24656429899018625
1919013 -0.9111603885206346 -0.24650939251476636
1923916 -0.9082265889388216 -0.242286782806183
1928819 -0.9082530184713996 -0.2457925907024897
1933722 -0.9108334217961274 -0.24144420343538806
1938625 -0.9114214031592576 -0.2423293633909937
1943528 -0.9083153455612593 -0.24237743227151068
1948431 -0.9098234807840778 -0.243245326673084
1953334 -0.9100675480596592 -0.24058809887369212
1958237 -0.9077284856799294 -0.24221511905780369
1963140 -0.9085840582854018 -0.2411208364918837
1968043 -0.9081834319670081 -0.2418705824606115
1972946 -0.9073498985768964 -0.23956017306833105
1977849 -0.9107102856598119 -0.24097627276268332
1982752 -0.9058539311049959 -0.23915182532320722
1987655 -0.908648542895828 -0.23740454138443542
1992558 -0.9076136623955617 -0.24117140447452756
1997461 -0.9097218177816302 -0.2366636923378601
2002364 -0.9082319229181866 -0.24048410067268264
2007267 -0.9088893870679355 -0.2329063199259523
2012170 -0.909822072931474 -0.23892244695096504
2017073 -0.9097682534257411 -0.2353124809812042
2021976 -0.9106238416729572 -0.23960459051024757
2026879 -0.9097856206803967 -0.23704952170060586
2031782 -0.9127271945309121 -0.2329591790483739
2036685 -0.9139989609812699 -0.23360025168116932
2041588 -0.9125054236140998 -0.23382075650510153
2046491 -0.9130099401668436 -0.23419235910635774
2051394 -0.914598353552009 -0.23111839986878047
2056297 -0.9143397917150836 -0.23449951919279774
2061200 -0.912747746961894 -0.23001755639747684
2066103 -0.9177612972443961 -0.2291671354216768
2071006 -0.9139345497445444 -0.228687959714102
2075909 -0.9159073490040369 -0.23031707497181514
2080812 -0.9126919381355497 -0.22788130324883457
2085715 -0.9143255960465775 -0.22771542173795842
2090618 -0.9152690284766867 -0.22948759838165808
2095521 -0.9151438020618499 -0.2238796991496817
2100424 -0.9109926502692223 -0.226982483328727
2105327 -0.9172136586484437 -0.22370683043789322
