# HZ S RI R 50
100000 0.5429248503807498 -0.7201913221384724
104903 0.515207888438593 -0.7361807235258557
109806 0.486913727276018 -0.7524604231521632
114709 0.4571519942315511 -0.76808206700787
119612 0.43003621254118357 -0.7787874724871974
124515 0.40746539215109184 -0.7906174516655452
129418 0.37899329636728263 -0.8044018701794622
134321 0.3533409442658903 -0.8118416021412393
139224 0.32865129618083744 -0.822290072474797
144127 0.3041435134958904 -0.8330089964054195
149030 0.27688450099667544 -0.8376804757770278
153933 0.2509251585719024 -0.8425065687227267
158836 0.23080834702945202 -0.848215636909443
163739 0.20596504525436152 -0.8539516411891127
168642 0.18462597702976286 -0.8571253268005137
173545 0.16246129383876448 -0.8612352704187842
178448 0.14137578228504535 -0.8629214561746088
183351 0.11819248403958979 -0.8649479380167863
188254 0.09571448512082692 -0.866708289301446
193157 0.07230812266946779 -0.8690016602639212
198060 0.05586978515969957 -0.8698462259983614
202963 0.036023640659265624 -0.8737370215337393
207866 0.015304406496692218 -0.873642382779988
212769 -0.003266444739507744 -0.8696513570619935
217672 -0.02122765991939458 -0.8689336064709517
222575 -0.03898597137710599 -0.8718575565379914
227478 -0.056414529532794966 -0.8710349036609819
232381 -0.07221232099864638 -0.8687471608768199
237284 -0.09009195512558653 -0.8647106842964085
242187 -0.10728566866687775 -0.8639713372174933
247090 -0.1222433601079916 -0.8611380744794073
251993 -0.13598286965659523 -0.8625830583379952
256896 -0.1508157440927934 -0.855913758666416
261799 -0.16881512379671956 -0.8543459115394346
266702 -0.1827607807067816 -0.8526369979384457
271605 -0.19759646244375823 -0.8461679024654919
276508 -0.20898084987485727 -0.8426188316502679
281411 -0.22579467703724507 -0.8422594185381892
286314 -0.23662878657714406 -0.8402000502892066
291217 -0.24782154241974685 -0.8341397111896461
296120 -0.26058668820093095 -0.8344035373905553
301023 -0.27147136674694383 -0.8277087939144442
305926 -0.28622636567078585 -0.8256629247645623
310829 -0.29545211437535923 -0.8224194371486718
315732 -0.30696732939888716 -0.8198531883064047
320635 -0.3211349635474923 -0.8150700406736971
325538 -0.330539998882037 -0.8088483565641905
330441 -0.3389268901607241 -0.8071830033564
335344 -0.3507586359130576 -0.8012247171298021
340247 -0.36047202074002305 -0.7984748050603534
345150 -0.3689871766833466 -0.7952248834327919
350053 -0.3806764247043502 -0.7906063524594867
354956 -0.3866289635265391 -0.7852248613227474
359859 -0.3956158519536956 -0.7795387124358798
364762 -0.4052907418481113 -0.7780691224321187
369665 -0.41203937635954696 -0.7711253112597991
374568 -0.42131850605171445 -0.7716119025721566
379471 -0.4339684961516314 -0.7661124028351483
384374 -0.4386794463297161 -0.7681799651678334
389277 -0.44610398775601556 -0.7597024179456805
394180 -0.45517367039109896 -0.754044380524138
399083 -0.46317463556979305 -0.7508869891080525
403986 -0.4691736567207069 -0.7461877508194412
408889 -0.47684882486899566 -0.7430114540802394
413792 -0.48405180124703007 -0.7365743221828275
418695 -0.4895848151228559 -0.7329666664535884
423598 -0.5001625595716122 -0.7287199433364051
428501 -0.5044223312988918 -0.7238077246045067
433404 -0.5111945265161083 -0.7220109880033944
438307 -0.5178975085212698 -0.7159961725008189
443210 -0.5235187139873374 -0.7159767509765289
448113 -0.5293552018350763 -0.7122957978305003
453016 -0.5340773124790402 -0.7081671675614742
457919 -0.5393053727289367 -0.7007127261454905
462822 -0.5475455578513702 -0.6984661793939949
467725 -0.5493856177475388 -0.6957568067384144
472628 -0.5588033399803313 -0.6930077293348235
477531 -0.5623334616815148 -0.6884953598554239
482434 -0.5667700566182189 -0.68120975914329
487337 -0.5730757590406177 -0.6833116771209522
492240 -0.5777039902361419 -0.6751290586012823
497143 -0.5863337004683331 -0.6739952638087009
502046 -0.5890096650793303 -0.6695596249531058
506949 -0.5940793524412292 -0.6646637894659966
511852 -0.5967780038265923 -0.6635585465693963
516755 -0.6031132283656392 -0.6590616387341086
521658 -0.6077352032478782 -0.6597848138558071
526561 -0.611436897927286 -0.651032311100732
531464 -0.615676934525812 -0.6495170346722917
536367 -0.6197568555765346 -0.6427319441019719
541270 -0.6216843811791243 -0.6401876477043007
546173 -0.6277721637486605 -0.6403001022695536
551076 -0.6321900412155195 -0.6371848629633049
555979 -0.6347249063883926 -0.6298632392268027
560882 -0.6369336146635501 -0.6289800280210833
565785 -0.6436431933187012 -0.625255257915885
570688 -0.6506703104939293 -0.6198973096665257
575591 -0.6524792380015084 -0.6209634035987884
580494 -0.6537159385438283 -0.6111853627312627
585397 -0.6555566346704933 -0.6106171779149264
590300 -0.6582180705270466 -0.6087287400639907
595203 -0.6675265261785495 -0.6048824451422687
600106 -0.6679867113191292 -0.604458887486754
605009 -0.6714770436362104 -0.6020974563195102
609912 -0.6756545980669325 -0.5979717736608647
614815 -0.678850684569986 -0.5938232727883913
619718 -0.6820287172767289 -0.5918053304120602
624621 -0.6824972216417761 -0.5888450477700727
629524 -0.6860402023610783 -0.5880469885133651
634427 -0.6879722832963129 -0.5842977852513422
639330 -0.6939412975509218 -0.5810059804460486
644233 -0.6964035312614206 -0.5744220585752624
649136 -0.6991873034550963 -0.5760794790736954
654039 -0.6998753218233776 -0.5730377594665828
658942 -0.7088957038018041 -0.5680521105226047
663845 -0.7083069772676245 -0.5682746572243473
668748 -0.7089664423930209 -0.5629710319671553
673651 -0.712231917631863 -0.562429891034631
678554 -0.7145417411117746 -0.55624488562022
683457 -0.7200425486385911 -0.5583264418448795
688360 -0.7178882370734657 -0.5509262333671578
693263 -0.7264126449092095 -0.5493293831765619
698166 -0.7293964504333513 -0.5487690473643236
703069 -0.7283099260792859 -0.5436413693142299
707972 -0.7275257581875298 -0.5433555112245888
712875 -0.7318846919833056 -0.5372400687859081
717778 -0.7360681672789223 -0.5381058412322048
722681 -0.733903640840862 -0.5319351211292983
727584 -0.7399988125066788 -0.5334443977281248
732487 -0.7394815537291649 -0.5296485958898272
737390 -0.7452128967671682 -0.5254638815123401
742293 -0.7462637424660209 -0.5251905403139305
747196 -0.7497732665861573 -0.5194661958412915
752099 -0.7516334101734115 -0.5181853811480114
757002 -0.7495087404301118 -0.5168676226133915
761905 -0.7536173125037616 -0.5171590366047634
766808 -0.7546722432051636 -0.5142155995001247
771711 -0.756523305919636 -0.5110384402973921
776614 -0.7575420542089889 -0.5090482251469314
781517 -0.7619578296638966 -0.507976182717189
786420 -0.7653669478503347 -0.5032703167526148
791323 -0.768453617833231 -0.5039248061713539
796226 -0.7685234288869658 -0.498808717578973
801129 -0.7684666836320365 -0.4975056178337277
806032 -0.7713828404607884 -0.4948490177668444
810935 -0.7748130301939159 -0.49386548284761134
815838 -0.7733323212131099 -0.49417806024913047
820741 -0.7737514773808649 -0.49037315903072554
825644 -0.7745547141060899 -0.4880863624066916
830547 -0.777445129170188 -0.4852694111789589
835450 -0.7826097809539239 -0.48225527381794736
840353 -0.7787149164401703 -0.4820078599895864
845256 -0.7822004527977706 -0.477783993173143
850159 -0.786417053205281 -0.47771077784955435
855062 -0.7879717274118668 -0.4763459892316501
859965 -0.7862902367989942 -0.47390411172735425
864868 -0.787353613209484 -0.47150174833545433
869771 -0.7905812252251257 -0.47207242624698853
874674 -0.792883786588083 -0.467161237611625
879577 -0.7904330348610774 -0.4657448582967552
884480 -0.7925260884459818 -0.4625988654890072
889383 -0.7968299046320811 -0.46122838586032805
894286 -0.7979026778571414 -0.46035351134458524
899189 -0.7989876510997749 -0.45894404008131373
904092 -0.8014251672732575 -0.4551524444945553
908995 -0.8009280908773238 -0.4522797300274725
913898 -0.8023571277973159 -0.45499687559272456
918801 -0.8064899192315056 -0.4482907525026335
923704 -0.8042567601912122 -0.44859855055249637
928607 -0.8070298914691846 -0.44854152744370346
933510 -0.8075991836826931 -0.44626513795476735
938413 -0.8088653304934915 -0.4414172748432578
943316 -0.8116456271816891 -0.4409047567452338
948219 -0.8148328187178088 -0.4428898943780826
953122 -0.816647796614407 -0.43830337904845934
958025 -0.8114834818655765 -0.438369663595315
962928 -0.8160358275878494 -0.43360264450384345
967831 -0.8157414181823828 -0.43702796096578017
972734 -0.8155971077188663 -0.4309277908889542
977637 -0.8163139880131625 -0.4332937780309125
982540 -0.8189431006747521 -0.42778975139395187
987443 -0.8246385337921609 -0.4287934497152029
992346 -0.8209655013968653 -0.4272977253588358
997249 -0.8212428368575899 -0.4238937217907038
1002152 -0.8216691324901638 -0.4193879993566507
1007055 -0.8270813768559223 -0.42096282063728707
1011958 -0.8242805619525336 -0.42042063108560346
1016861 -0.8287480022289674 -0.4176068101303102
1021764 -0.8295693953869143 -0.41878807459604805
1026667 -0.8286640860566242 -0.4146682835737005
1031570 -0.8312882163136325 -0.41432308305934173
1036473 -0.8279101105533431 -0.41040050884709295
1041376 -0.8309749133737092 -0.4123230773271645
1046279 -0.8311322123324375 -0.4065608150262194
1051182 -0.8343034100413734 -0.4120195354055065
1056085 -0.8369864229461991 -0.40647644188622173
1060988 -0.8337523315178732 -0.4081696043321641
1065891 -0.838403297961902 -0.40376658838055546
1070794 -0.8366516880267015 -0.40398450208576425
1075697 -0.8372907696430506 -0.39943697852600873
1080600 -0.8415768459545592 -0.39872725119031116
1085503 -0.8378240264695834 -0.3981965372972204
1090406 -0.843587148208563 -0.3946226640578179
1095309 -0.8422351325008184 -0.3930184853445942
1100212 -0.8408399755717287 -0.3990494851852259
1105115 -0.8429711497063469 -0.3898698496119353
1110018 -0.8454922283266058 -0.392228709064509
1114921 -0.8445598437017657 -0.3881503295329096
1119824 -0.844031722689809 -0.3906447205049748
1124727 -0.8475198792956079 -0.38597886483068483
1129630 -0.8483444135522414 -0.38477257715270535
1134533 -0.8483646256446722 -0.38316566178891354
1139436 -0.8503595011426366 -0.3862454724178416
1144339 -0.8478947597953929 -0.38218107365766896
1149242 -0.8506295268861971 -0.37972912490827204
1154145 -0.8548037169786287 -0.37956543676421856
1159048 -0.8529580245102768 -0.38073069291827155
1163951 -0.8531497913504505 -0.37647677017359255
1168854 -0.8513778660953886 -0.3756004344004289
1173757 -0.8538626774864622 -0.3758290356586812
1178660 -0.8566801876080967 -0.37137032834106665
1183563 -0.8552974062227712 -0.37193439093866243
1188466 -0.8541591387267594 -0.3708728021807366
1193369 -0.8560301916858739 -0.371844136113556
1198272 -0.857376730868922 -0.36858468917450105
1203175 -0.8579113244548446 -0.36935602155618263
1208078 -0.8586280338401956 -0.3638337211852228
1212981 -0.8576960132878823 -0.3668515847298263
1217884 -0.8604748640549146 -0.36776519883414666
1222787 -0.8623931775871796 -0.36277298614015663
1227690 -0.8612253247239822 -0.36128577759797326
1232593 -0.8592964438692307 -0.3610816046777944
1237496 -0.861614327998077 -0.36027728267751014
1242399 -0.8653605553659158 -0.3602309905528109
1247302 -0.8660494084448808 -0.35934450748082764
1252205 -0.8640175351297001 -0.35698754400528926
1257108 -0.8685191140867682 -0.35381995908174757
1262011 -0.8675732302068672 -0.3570128859255568
1266914 -0.869241998559292 -0.35144673316938685
1271817 -0.8679475521940223 -0.3562283317015681
1276720 -0.8725910236834153 -0.347508528816323
1281623 -0.8664969883254173 -0.3488241321624519
1286526 -0.8671150401669264 -0.34968783423275474
1291429 -0.8700758931744312 -0.3498830724634356
1296332 -0.8723487896076423 -0.3441347430743585
1301235 -0.8707349734330617 -0.34557785110907807
1306138 -0.8737199503261881 -0.3481358744753022
1311041 -0.8691893125458162 -0.3393014648215369
1315944 -0.870996511404854 -0.34117596449171506
1320847 -0.869652872329099 -0.34246061514877013
1325750 -0.8696229915083649 -0.3396381319826471
1330653 -0.8733293468707028 -0.3379326907753436
1335556 -0.8754904963004084 -0.339486232479775
1340459 -0.8730519890866545 -0.34048295670490714
1345362 -0.8740649180611195 -0.3355344852990903
1350265 -0.8730475245016908 -0.33752288398090347
1355168 -0.8760529161713745 -0.33292649632665805
1360071 -0.8794685129634239 -0.3341879493181844
1364974 -0.8783236393318559 -0.3318356432400128
1369877 -0.8762362485063855 -0.33396166768425817
1374780 -0.8770566923412105 -0.3324206832176949
1379683 -0.8842378640856644 -0.3314427598870515
1384586 -0.8795382068985288 -0.32903629952027685
1389489 -0.880538879485704 -0.32988841073674835
1394392 -0.8770215611827827 -0.3270046933917163
1399295 -0.8793724104902828 -0.3288496922902428
1404198 -0.882117140530634 -0.3251818214562629
1409101 -0.8838606803180965 -0.3245423963369385
1414004 -0.8832043321791165 -0.3254519777500229
1418907 -0.8824638768435156 -0.3231483939491979
1423810 -0.8830052647274856 -0.3221573684530368
1428713 -0.8874886046764293 -0.3240425385759661
1433616 -0.8829736372562982 -0.3220983311016716
1438519 -0.8815412571599508 -0.3223273460479491
1443422 -0.8849050083021129 -0.3171169555119533
1448325 -0.8871703031493577 -0.3173845893130803
1453228 -0.8831933438145696 -0.3197854192197791
1458131 -0.887218797327187 -0.318074426470575
1463034 -0.8882054464160348 -0.3167251394546007
1467937 -0.8863016076216349 -0.3166601056495657
1472840 -0.8869636973447292 -0.31744651869019824
1477743 -0.8863107066358422 -0.3117537082657389
1482646 -0.8867835369773865 -0.3104009394689059
1487549 -0.8871396560173888 -0.3130089638978238
1492452 -0.8903797254149668 -0.31237208799507776
1497355 -0.8897065383946774 -0.30920841951529987
1502258 -0.8911658091352551 -0.3071377348187064
1507161 -0.8884970459714151 -0.3076080804389123
1512064 -0.8921462228123193 -0.3077783466922063
1516967 -0.8927437885985391 -0.30622380259130777
1521870 -0.8896394267903656 -0.3088255961821247
1526773 -0.8904942349088862 -0.3040563392645918
1531676 -0.8942149275277298 -0.30599080842425497
1536579 -0.8909342347308464 -0.3024614650338212
1541482 -0.8917445974020582 -0.30693984686599246
1546385 -0.8931096293945426 -0.3015273230750515
1551288 -0.8947815696258892 -0.3025161155791545
1556191 -0.8940746557400747 -0.3001638983630477
1561094 -0.8966186569690312 -0.30037040352470334
1565997 -0.8921102800753887 -0.2994437822556125
1570900 -0.8985971373782262 -0.2989934172075846
1575803 -0.8969171254026657 -0.29936110360366047
1580706 -0.8928211323996461 -0.30132823348121135
1585609 -0.8968982959662813 -0.29631639590253234
1590512 -0.8939733611368166 -0.29454266214927133
1595415 -0.9002885306593836 -0.29971615382904515
1600318 -0.8982879516492133 -0.2939118659847502
1605221 -0.8968339465436306 -0.29407665555426954
1610124 -0.8996407552875113 -0.2941117317803615
1615027 -0.899415954701763 -0.29019729456139465
1619930 -0.9001492445514209 -0.29156559773531715
1624833 -0.8989135872465238 -0.2914073145976712
1629736 -0.8992034041379112 -0.28844501111525234
1634639 -0.8997523541555318 -0.28831082387292195
1639542 -0.9001187682928489 -0.28762957132275135
1644445 -0.9026347428965653 -0.2902530482171833
1649348 -0.9017997330617318 -0.2862784001891655
1654251 -0.9026333259041585 -0.28999202209225555
1659154 -0.9021707589913298 -0.2851168412189334
1664057 -0.9029725803209904 -0.28394654374819134
1668960 -0.9037651184851564 -0.2843364267757518
1673863 -0.9026380814422126 -0.2881334247356839
1678766 -0.90373940123172 -0.28581237197549725
1683669 -0.9086241329691204 -0.2859446278032307
1688572 -0.9033256229571455 -0.2856314849056888
1693475 -0.9076389586001434 -0.2782746481591568
1698378 -0.9018610248319987 -0.280386679915618
1703281 -0.9017172699616552 -0.281170096828062
1708184 -0.9031946015453131 -0.281411892639442
1713087 -0.9044304987949484 -0.27862458333119206
1717990 -0.9040554229752127 -0.2813432535254967
1722893 -0.902639943629206 -0.2759209502590253
1727796 -0.9071752023359952 -0.27492655140750943
1732699 -0.9051936482118207 -0.27730927281907597
1737602 -0.9045930710219467 -0.27855344124347114
1742505 -0.9075771547737993 -0.27605754314771364
1747408 -0.9095104944211602 -0.27284571556517057
1752311 -0.905318210713088 -0.2740357455708533
1757214 -0.910139835069503 -0.2722936609492349
1762117 -0.9070459752996872 -0.27498423570191377
1767020 -0.9087534272875176 -0.27229295236881074
1771923 -0.9102226394691793 -0.2728713886411482
1776826 -0.9097057872634988 -0.27336478368778666
1781729 -0.9112114448795489 -0.27151679265972983
1786632 -0.9063807725683195 -0.27000667672362744
1791535 -0.9101306944204071 -0.26882328704034464
1796438 -0.9059876336804158 -0.2723223201221948
1801341 -0.9102092658753496 -0.2654601439808061
1806244 -0.9069948954577797 -0.2659883717994428
1811147 -0.9111889980958644 -0.2643587948612606
1816050 -0.9096649873798289 -0.26364859142695274
1820953 -0.9146583778341247 -0.26994443406429647
1825856 -0.910404741387288 -0.26360080645965916
1830759 -0.9122200539964783 -0.26625824310466956
1835662 -0.9071347805091305 -0.2644096167826382
1840565 -0.9139591414716872 -0.26351430082060523
1845468 -0.9155943681084805 -0.2633075291595836
1850371 -0.9138030109989875 -0.2614277854274084
1855274 -0.9110762887362673 -0.2626435695437978
1860177 -0.9117582659848386 -0.2573162184025011
1865080 -0.9144101707689148 -0.2592869221109399
1869983 -0.9124701652265682 -0.2649219389259939
1874886 -0.9139184459709588 -0.26044253056816224
1879789 -0.9131698357200949 -0.260476893259422
1884692 -0.9150680412470473 -0.25942492140797363
1889595 -0.9134198404814753 -0.2575395326301458
1894498 -0.9142392027906021 -0.2567316892190243
1899401 -0.9149795864125445 -0.25919523089018187
1904304 -0.915173532740396 -0.25796414199285084
1909207 -0.9173051728257615 -0.25780837452956484
1914110 -0.9147089941564063 -0.25517178007752894
1919013 -0.91523767824142 -0.2557644189093663
1923916 -0.91598031945995 -0.2556673222776218
1928819 -0.9177318160671182 -0.2546620995234486
1933722 -0.9157482772836847 -0.2524199176436019
1938625 -0.918630449035009 -0.2516236706960294
1943528 -0.9168737768772689 -0.2520360826155585
1948431 -0.9173565471227897 -0.2522705290193409
1953334 -0.919436887698823 -0.2495371834521435
1958237 -0.9177897415514645 -0.2515466388461323
1963140 -0.9207348214721468 -0.25247703538099947
1968043 -0.9148741806009745 -0.2521911774031487
1972946 -0.9164513035894953 -0.24802117139446214
1977849 -0.9221985492130668 -0.252629672669791
1982752 -0.9142682491286621 -0.25096358804917146
1987655 -0.9194675541685742 -0.24685995571603403
1992558 -0.9200925003835448 -0.245789770983624
1997461 -0.919699268578747 -0.24973484455004394
2002364 -0.9181623416064995 -0.2513492991141246
2007267 -0.9189912135335009 -0.24298184251965618
2012170 -0.9216732568784142 -0.2481710393020063
2017073 -0.914630552009994 -0.24626740369058284
2021976 -0.9214044722339854 -0.24434592802107977
2026879 -0.9205023280961536 -0.24576947770140004
2031782 -0.9219408138477324 -0.24262645790964674
2036685 -0.9189867893226505 -0.24656499726992234
2041588 -0.9226198471033104 -0.24043455606684877
2046491 -0.9221014894182175 -0.24344246656170462
2051394 -0.9196443366835152 -0.24145999248955827
2056297 -0.9224211943902434 -0.24384934086419116
2061200 -0.920913358575963 -0.2405570733772084
2066103 -0.92313651605742 -0.23682523488675783
2071006 -0.9201793313271939 -0.24030667784505413
2075909 -0.9237989891645695 -0.24245928182049253
2080812 -0.9195987523403116 -0.24098993541993866
2085715 -0.9269039445594857 -0.23945680010378095
2090618 -0.9245754096957702 -0.23977237309257704
2095521 -0.9234221642973175 -0.23782318067051125
2100424 -0.9209721274942436 -0.24040830139148298
2105327 -0.9256392859223957 -0.23810597390031008
