# HZ S RI R 50
100000 0.5346148908671795 -0.7167035267997123
104903 0.5055803414095061 -0.7332498004021425
109806 0.47932855180424383 -0.7488614197874278
114709 0.4469831672768381 -0.7643320942330974
119612 0.4183775632672023 -0.7763607874977142
124515 0.3935660021666941 -0.7871592068455491
129418 0.3635587102351029 -0.7999259310832411
134321 0.33550819800043125 -0.8072320697184178
139224 0.3072547620242378 -0.8171128874236442
144127 0.2816067703503455 -0.8257687898331064
149030 0.2482146216085519 -0.829868515147397
153933 0.22078957953172326 -0.8328875600103554
158836 0.1930091608311622 -0.8375715081925733
163739 0.16308646972050017 -0.8381541631512995
168642 0.13365207805895438 -0.8326953595541182
173545 0.11014675639732842 -0.8330840272605141
178448 0.08452588746439615 -0.8261691226735207
183351 0.05478501473667272 -0.81707182099334
188254 0.028502975319199392 -0.8029197509934548
193157 0.0026866474846753198 -0.78697695940348
198060 -0.01832648892675961 -0.7641772428677669
202963 -0.03651499903974291 -0.7300242586812858
207866 -0.0274262472275169 -0.6935389295392768
212769 0.001320789127087507 -0.6551400355198284
217672 0.058943940191395226 -0.6487415957984191
222575 0.11346191665335476 -0.7030466605742537
227478 0.10410176018946408 -0.76940653439466
232381 0.07223545103001115 -0.8038756279254876
237284 0.04145718400687205 -0.8222818613288381
242187 0.011981501658856851 -0.8373275655554571
247090 -0.01241427820540563 -0.8400674521686425
251993 -0.03262424331144972 -0.8476555221028387
256896 -0.05577040505272328 -0.8502319670066404
261799 -0.07996315340997869 -0.8547811399993464
266702 -0.10062175333053111 -0.8544455042084924
271605 -0.12289592370418483 -0.8527370449394579
276508 -0.13929678980371735 -0.8523462488154944
281411 -0.16055441717706717 -0.8486527149844946
286314 -0.17356778917972257 -0.8469266477946209
291217 -0.18818753494629048 -0.8410708447913924
296120 -0.2050320661445731 -0.8390251825999212
301023 -0.21592187741756527 -0.8304221204136947
305926 -0.232482844716005 -0.8276848401513272
310829 -0.23766903242786055 -0.8253319180757084
315732 -0.24922132335546335 -0.8236445128394754
320635 -0.26225079698994275 -0.8229749544436182
325538 -0.275320107641165 -0.8199688291966591
330441 -0.2880978546738053 -0.8205987297778554
335344 -0.30117020985496906 -0.8162422832312693
340247 -0.3128029384237522 -0.8148246943912776
345150 -0.32217470540753307 -0.8108056945657894
350053 -0.337409920264519 -0.8076313807827411
354956 -0.3439353832949352 -0.8003968527287424
359859 -0.35835017285160825 -0.797344656849001
364762 -0.3649737458752315 -0.7953225517539538
369665 -0.37497572966533615 -0.7888432775825427
374568 -0.38500054156773644 -0.785666466156327
379471 -0.3976074618104315 -0.7807279652240551
384374 -0.4060000191915128 -0.7842377032100324
389277 -0.4109589238861861 -0.7741390199146144
394180 -0.42297356521103674 -0.7681272972246799
399083 -0.4301628195470756 -0.7654941555252127
403986 -0.4385867816363076 -0.7591521101886729
408889 -0.4449740179395161 -0.7589916845187016
413792 -0.45575278429882315 -0.7522423959420322
418695 -0.46208419779753845 -0.7495320553937235
423598 -0.46940369127609144 -0.7428401152021646
428501 -0.4793728996331237 -0.7376639903280607
433404 -0.48324646463549187 -0.73632087538308
438307 -0.49310650565650127 -0.7305855692581951
443210 -0.4968751542661412 -0.7300284876449328
448113 -0.5028481044845837 -0.7233233477549761
453016 -0.510587027414527 -0.7230487384003634
457919 -0.5168546038286252 -0.7126271336772172
462822 -0.5225352173745247 -0.7131151811595826
467725 -0.5299458199495684 -0.7061345986799197
472628 -0.5379938070428261 -0.7037088411222795
477531 -0.5427442562509605 -0.6969553847983967
482434 -0.5479154136458617 -0.6916231097446376
487337 -0.5536030557209926 -0.6922017239375547
492240 -0.5597432562209604 -0.684642504272324
497143 -0.5656702277091841 -0.6823583130423334
502046 -0.5681735113734425 -0.6773936699266105
506949 -0.574275722293053 -0.6721927670653518
511852 -0.5752971103604694 -0.668758688566718
516755 -0.5843110383351737 -0.6628259985207261
521658 -0.5894729759029813 -0.6633829183582189
526561 -0.5936835501918701 -0.6573008375220875
531464 -0.5974583858955632 -0.6488390581899288
536367 -0.604740722803021 -0.644838239757865
541270 -0.6074902924127973 -0.6420708834464426
546173 -0.6114422282959583 -0.6378468550899985
551076 -0.615856676259157 -0.6309447899542816
555979 -0.6209599519691567 -0.6230602038951001
560882 -0.6190655323379896 -0.6163865804475523
565785 -0.622217089383015 -0.6073367403988286
570688 -0.6246952714337137 -0.5976519591428517
575591 -0.6192551610794194 -0.5929420724522717
580494 -0.6071154450765787 -0.5870262466414994
585397 -0.598786213241029 -0.592834928618956
590300 -0.5978343855917391 -0.6017858333556447
595203 -0.6023112994743818 -0.610461897787437
600106 -0.6093167047539649 -0.6163484435305108
605009 -0.6197068470798602 -0.6200561438623899
609912 -0.6243021406758488 -0.619989673372684
614815 -0.6311936230972771 -0.6184491548772336
619718 -0.640554123383166 -0.6184475961588192
624621 -0.6453074586870903 -0.6143988031256665
629524 -0.6528160346581326 -0.6118470847877682
634427 -0.6571072319879335 -0.6083070898728409
639330 -0.665687942312323 -0.6076081129726933
644233 -0.6685824370476141 -0.6005923798584243
649136 -0.6696711600702864 -0.5984679939883366
654039 -0.6753261153662478 -0.5944337251572491
658942 -0.6847404922308173 -0.5898472559674607
663845 -0.6834175629359951 -0.5897294848080269
668748 -0.6874783077987446 -0.5829665779347232
673651 -0.6913506697835682 -0.5813133800200558
678554 -0.6914373348981707 -0.5790273288445248
683457 -0.6957982317436111 -0.5765764758902843
688360 -0.6948999978060716 -0.5740487359356037
693263 -0.7051844472716285 -0.5702819594849365
698166 -0.7061668776776314 -0.5694101584949331
703069 -0.7083446583401712 -0.5640036113455396
707972 -0.7111775261824473 -0.5636579603222633
712875 -0.7140850370764114 -0.5578868403196741
717778 -0.7189430636150774 -0.5552047210134168
722681 -0.7194489648761744 -0.550308630120966
727584 -0.7236519888232852 -0.549915418047334
732487 -0.7234759875978324 -0.5483106759930387
737390 -0.7310723047779043 -0.5403894832798524
742293 -0.7329767922852176 -0.5426086161991459
747196 -0.7338146912168126 -0.5375977436391053
752099 -0.7348632989302251 -0.5356010370100552
757002 -0.7395749248131974 -0.5301272844044909
761905 -0.7400903067546263 -0.5303780859426587
766808 -0.7397819779222505 -0.5282498777322568
771711 -0.7449643306938823 -0.5250340779783492
776614 -0.7448341066053376 -0.5224854584988418
781517 -0.7501299825438201 -0.5218803710650032
786420 -0.7531803412003878 -0.517933055497238
791323 -0.7544281705846427 -0.5149511867760905
796226 -0.7572039568632044 -0.5115393665843183
801129 -0.7561316272216487 -0.5130016462154696
806032 -0.7598844158660699 -0.5094567147711975
810935 -0.7621475581313711 -0.5062238245238422
815838 -0.7627396960522975 -0.5053989064707691
820741 -0.7624569398967139 -0.500704414279689
825644 -0.7636447319892335 -0.49951053445669663
830547 -0.7689401147163234 -0.4966040833923271
835450 -0.7712618711440306 -0.494169765401488
840353 -0.7675088118942899 -0.4943432215631559
845256 -0.7705585695578553 -0.48704906817126914
850159 -0.7756517400630539 -0.48592027665706317
855062 -0.7739378352634749 -0.4855839120702952
859965 -0.7787740248769675 -0.4825569346771791
864868 -0.7802101073931166 -0.4808481854579989
869771 -0.780846573381614 -0.4780993525468424
874674 -0.782516753214652 -0.4763561378016563
879577 -0.7815802695892151 -0.47436222881226286
884480 -0.7821654989812721 -0.4702578629081074
889383 -0.787259122791333 -0.4685582182794529
894286 -0.7895047381473465 -0.4638682475944906
899189 -0.7922871011576048 -0.4642168194826753
904092 -0.7903331703479503 -0.457613945556697
908995 -0.7943140921308322 -0.4578541035003189
913898 -0.7932831066103939 -0.4541061819706198
918801 -0.7951228611012554 -0.44903413190281466
923704 -0.7923862727340631 -0.4489874213852923
928607 -0.7952908684447952 -0.4458594136334636
933510 -0.7918891037650903 -0.44472226202699205
938413 -0.7955482862479883 -0.437826475688306
943316 -0.7935684479200363 -0.4387556390860583
948219 -0.7908970069599889 -0.4376141619106507
953122 -0.7906145873441175 -0.4393402598721301
958025 -0.7853619632603628 -0.4390463978395907
962928 -0.7886961419131179 -0.4406666173528183
967831 -0.7937392947597721 -0.44093299473470193
972734 -0.7956161544817703 -0.4406246642054546
977637 -0.7909126455659095 -0.4418629898097719
982540 -0.7979068245606742 -0.4375958228487853
987443 -0.8041849950058113 -0.44261236594021713
992346 -0.8049205301187811 -0.4386839251164452
997249 -0.8065426118967691 -0.44114172308671695
1002152 -0.8050374102596405 -0.4355149913794109
1007055 -0.8089096797269021 -0.43339485875883466
1011958 -0.8141067919869701 -0.43548894467728816
1016861 -0.8135724043484348 -0.4321302387388293
1021764 -0.8180234860034862 -0.4294526579801552
1026667 -0.8158459578352537 -0.42460211211692733
1031570 -0.8210372708046354 -0.4258421079359144
1036473 -0.8166709580637675 -0.4228898659367465
1041376 -0.8186459687839435 -0.42320606894545215
1046279 -0.8215773172930422 -0.4205918291626989
1051182 -0.8226218789362181 -0.4188552919348534
1056085 -0.8277305927466256 -0.4186850393314258
1060988 -0.8249990857443723 -0.41852318474117717
1065891 -0.8277184263907704 -0.4155858045123723
1070794 -0.8257099301271065 -0.4127245136053578
1075697 -0.8294980485111771 -0.40995234477480935
1080600 -0.8313394338053651 -0.41239224995721907
1085503 -0.8306017154812209 -0.40615441703155075
1090406 -0.833286974498554 -0.40634833430572537
1095309 -0.836542816877151 -0.4022213374649211
1100212 -0.8361853371291408 -0.40310010572918037
1105115 -0.8330866608479667 -0.39853476667514026
1110018 -0.8355808176490231 -0.40104189882354563
1114921 -0.8372773039976907 -0.39556365811483
1119824 -0.836866528300859 -0.39881282852069716
1124727 -0.8398324209483788 -0.39371966834906896
1129630 -0.8416284631396647 -0.3885538961250816
1134533 -0.843780127236308 -0.3896903148269506
1139436 -0.842478331124551 -0.3923949620424813
1144339 -0.8417855644257701 -0.38937951738274834
1149242 -0.8475924688258389 -0.38549802097242886
1154145 -0.8470608510045063 -0.38625020345564376
1159048 -0.8442396861591049 -0.38647215515716093
1163951 -0.8465685942182826 -0.38091199809175474
1168854 -0.8457739260144947 -0.37912272489824467
1173757 -0.8484891538372837 -0.3788366965793873
1178660 -0.8464210246987152 -0.37567796314501234
1183563 -0.8484540412847564 -0.37658043268583036
1188466 -0.8461688692444964 -0.37441064815487174
1193369 -0.8531135362106962 -0.37808410346272037
1198272 -0.8528418646186371 -0.37159230448158914
1203175 -0.8549537472215195 -0.3711384086219376
1208078 -0.8528251683541955 -0.36769548307927946
1212981 -0.8524312048981602 -0.36607682677033937
1217884 -0.8513472657892751 -0.36655166627792685
1222787 -0.8555954152122293 -0.36053572608757284
1227690 -0.8541498253865557 -0.36371274945300375
1232593 -0.8549647915029732 -0.3624960715580739
1237496 -0.854483796526038 -0.3623533371890922
1242399 -0.8552587585430365 -0.35957774124319913
1247302 -0.859902450371062 -0.36201207805198965
1252205 -0.858809214761214 -0.35716281970852115
1257108 -0.8624653237805954 -0.3546771046200374
1262011 -0.8571076289432261 -0.35388460723066406
1266914 -0.8617233677549601 -0.3515746964023271
1271817 -0.8590161392530999 -0.35450181602221087
1276720 -0.8599300664002097 -0.34682045835929937
1281623 -0.859348167968433 -0.34570069561884204
1286526 -0.8579492332320184 -0.3447352612542174
1291429 -0.8604296862704424 -0.346359824620315
1296332 -0.8583461951210003 -0.3422405029807441
1301235 -0.8586886039228807 -0.34339748905826567
1306138 -0.8584310357611797 -0.34624170586896225
1311041 -0.8568199405217009 -0.3402764525850385
1315944 -0.8537216269655665 -0.34145729236003247
1320847 -0.8564462734903971 -0.34334235413527137
1325750 -0.8575809447283207 -0.3454806221732955
1330653 -0.859854527022223 -0.34397417292337906
1335556 -0.8627015227245287 -0.34214295473810824
1340459 -0.8627860897325502 -0.3430180045903725
1345362 -0.8635306640096128 -0.34063236534984404
1350265 -0.8657080664989806 -0.3415176444633081
1355168 -0.8648978089905366 -0.338611835461754
1360071 -0.8670775616161761 -0.33921958610746755
1364974 -0.8698106075762058 -0.3392683517853338
1369877 -0.8691508671128597 -0.33610887347257845
1374780 -0.8717097486826216 -0.33823404071956725
1379683 -0.8754389024857289 -0.3340401140988994
1384586 -0.8723210129799687 -0.3334973283513985
1389489 -0.8741987819619879 -0.33047277972041006
1394392 -0.8736240459052356 -0.3306946344386227
1399295 -0.8732760232632224 -0.3310165937102014
1404198 -0.8737196033417436 -0.3289026242245806
1409101 -0.8732947256571882 -0.32669201430588296
1414004 -0.8769924932653165 -0.32637030657730964
1418907 -0.8705841330120155 -0.3251139700748637
1423810 -0.8776498027232013 -0.3215600898751258
1428713 -0.8799627308927647 -0.32316936228964344
1433616 -0.8754685614313549 -0.3214407259032547
1438519 -0.8741676513599835 -0.32463531947785446
1443422 -0.8778153893633263 -0.3183070052541863
1448325 -0.8804727157957729 -0.3167356218125017
1453228 -0.8781056546250322 -0.3168140116340057
1458131 -0.8791462789758825 -0.31757706574013594
1463034 -0.8817067021800702 -0.31585775925496345
1467937 -0.8802597603986286 -0.3148483654019688
1472840 -0.8802646286937974 -0.3135198102113624
1477743 -0.8795526839888876 -0.3118573576264505
1482646 -0.8832177755287355 -0.31061645077655636
1487549 -0.8809582093571224 -0.3098678917829076
1492452 -0.8817116768260732 -0.30741226129585264
1497355 -0.8819454175960577 -0.3078478334621989
1502258 -0.8820752353558824 -0.3062131124174809
1507161 -0.8830193350958998 -0.30780924575445145
1512064 -0.8847414256306692 -0.30573460151247717
1516967 -0.8872971257220137 -0.3046802157850694
1521870 -0.8819392009428411 -0.30263321750727296
1526773 -0.8849449743986202 -0.3020725949440844
1531676 -0.8848244366697502 -0.29960702707290315
1536579 -0.8871104294912603 -0.29808249877625254
1541482 -0.8846955961311881 -0.2995957190723692
1546385 -0.8872398300703209 -0.2979615255551494
1551288 -0.8866068761185735 -0.2970773208671222
1556191 -0.8883789986648083 -0.2937698686282685
1561094 -0.8887330865130147 -0.29414345889080834
1565997 -0.8884409212216638 -0.29355282808379474
1570900 -0.8885962581508199 -0.2933677290003701
1575803 -0.8870768184906398 -0.2927838850478209
1580706 -0.885432421610344 -0.29420234232842435
1585609 -0.8871293123088557 -0.2903754172352145
1590512 -0.881085761207351 -0.2895173388770061
1595415 -0.8854604642199885 -0.28687982662991995
1600318 -0.8821505220096244 -0.2892314241352713
1605221 -0.886505142552112 -0.2874859984886334
1610124 -0.885516369668144 -0.29014134896744087
1615027 -0.887437168918939 -0.2888884792452374
1619930 -0.8881583835839965 -0.2891897383922172
1624833 -0.8888716741592397 -0.28832175542357596
1629736 -0.8907660297538623 -0.2904960235708161
1634639 -0.8906358406664777 -0.28436205481504007
1639542 -0.8936017876987253 -0.28686890437762014
1644445 -0.8923338353989454 -0.2844943380196768
1649348 -0.8937889324974588 -0.28587937137129044
1654251 -0.892440160196549 -0.2828869959250402
1659154 -0.8950812856801594 -0.2800253594856011
1664057 -0.8951970437944906 -0.2786550008761746
1668960 -0.8957094114117836 -0.2800133385661119
1673863 -0.8945169530457325 -0.2826545713309094
1678766 -0.896055834188458 -0.28009503164106214
1683669 -0.8974044979393979 -0.28058605189500374
1688572 -0.8955355424392996 -0.27459808563546706
1693475 -0.8996913955483636 -0.27534507327169344
1698378 -0.8961585544309796 -0.2754322301680946
1703281 -0.8953593466747839 -0.2759761395214263
1708184 -0.8959461487739149 -0.27404360130670186
1713087 -0.8983310559939373 -0.2730728316530966
1717990 -0.893398556900212 -0.2739488327434245
1722893 -0.897460029409681 -0.2680467823909386
1727796 -0.9005948720769024 -0.26775527290267054
1732699 -0.8975867606242888 -0.2692675150733779
1737602 -0.8952505217896044 -0.2696918198609575
1742505 -0.9008585947860498 -0.2671903614449651
1747408 -0.9021996204636056 -0.26592084269510785
1752311 -0.8988181938389302 -0.2660428233512569
1757214 -0.9014772324396071 -0.26441172146718533
1762117 -0.8992048004523399 -0.2673234206291533
1767020 -0.8983593879069768 -0.2642699980432741
1771923 -0.9008607956686793 -0.2618875475108959
1776826 -0.9024343766029601 -0.26553022554041517
1781729 -0.9039205315857586 -0.2620814151491077
1786632 -0.900064902631446 -0.2583248120740857
1791535 -0.8999649000830128 -0.2562385655786551
1796438 -0.899041465311137 -0.26348636094911937
1801341 -0.8987466774711284 -0.25857569422032933
1806244 -0.8981226262934289 -0.2554089884727391
1811147 -0.900408408445638 -0.25183296065106014
1816050 -0.9009426410877024 -0.2551075013019964
1820953 -0.8997017570247889 -0.25697968316772324
1825856 -0.8986209751469154 -0.2588215240392375
1830759 -0.8988975480006633 -0.2571400566596701
1835662 -0.8969483116872008 -0.25509001810165044
1840565 -0.9013440264412522 -0.25936191011159754
1845468 -0.9040599292764149 -0.25525710790913403
1850371 -0.9018268264572704 -0.254291469887611
1855274 -0.9016621429793955 -0.25618920836287196
1860177 -0.9041686327425646 -0.2530914227298239
1865080 -0.9055146368410704 -0.2511602464509621
1869983 -0.9006693930592037 -0.25653464442671964
1874886 -0.9039403127893386 -0.2505004100792551
1879789 -0.9046247705809157 -0.2529382839845144
1884692 -0.9046533373807235 -0.24876525311959133
1889595 -0.9034156532169275 -0.24812567765546528
1894498 -0.9041857768687788 -0.2444091453939149
1899401 -0.9086809281228798 -0.24651521206686522
1904304 -0.9055438986880547 -0.24228495594780614
1909207 -0.9088987960419986 -0.244440905321627
1914110 -0.9045677880811973 -0.24507456572340897
1919013 -0.9068812820396743 -0.2424849424328672
1923916 -0.9061458344676449 -0.2440012630882024
1928819 -0.9069832128812857 -0.24186537606196687
1933722 -0.9073632800014677 -0.2400838793980659
1938625 -0.9066646889802416 -0.2388145124457045
1943528 -0.9067115907870402 -0.24234485683765977
1948431 -0.9032737769123286 -0.2401891940487639
1953334 -0.9085023762726252 -0.23929218100606897
1958237 -0.9035986503325499 -0.24154977262476932
1963140 -0.9034623154529356 -0.2400307291284493
1968043 -0.903624697678803 -0.23858382933073963
1972946 -0.9058822245827892 -0.24055273913743455
1977849 -0.9038584942062481 -0.24186234425914635
1982752 -0.9051827255680345 -0.23747506708949342
1987655 -0.9063341717176433 -0.23882827222548011
1992558 -0.9096403513034121 -0.23837260771079818
1997461 -0.9066835099646929 -0.2373733637672691
2002364 -0.9072859911501853 -0.2398846793874384
2007267 -0.9056083987944737 -0.23481941348762764
2012170 -0.9093872722479589 -0.23803282981903953
2017073 -0.9096617662616441 -0.2402656529493927
2021976 -0.9118482990745301 -0.23319122909768442
2026879 -0.9099148790687892 -0.23457200854459387
2031782 -0.9097214199908487 -0.23210679029622597
2036685 -0.9119873101638898 -0.23437898743874763
2041588 -0.9087575307981021 -0.23095538494192452
2046491 -0.9155492677273869 -0.22985953315781144
2051394 -0.9126187852014178 -0.2337771928944071
2056297 -0.9131105099948389 -0.2301233288125261
2061200 -0.9122987346165601 -0.2318282106860399
2066103 -0.9107575805506789 -0.22549720760782155
2071006 -0.9123118997376091 -0.22967093555557136
2075909 -0.9147426457428421 -0.22701870407863278
2080812 -0.9094639046639221 -0.22617447949808217
2085715 -0.9170154185301326 -0.22546995174476778
2090618 -0.9146547646610096 -0.22908713836622516
2095521 -0.9175995026851186 -0.22318243493581405
2100424 -0.9131833193912842 -0.22272401369092265
