# HZ S RI R 50
100000 0.5343614699363193 -0.7178291266151205
104903 0.5079583906834859 -0.7339083315841812
109806 0.47925166682069226 -0.7495020099084356
114709 0.44705006765924865 -0.7655455513182899
119612 0.41602720598251214 -0.7770619605240179
124515 0.39368878860567535 -0.7885791489573797
129418 0.3647204728901437 -0.8011582809858475
134321 0.33694575564035223 -0.8086552433288039
139224 0.3098366633180355 -0.8190807084790005
144127 0.2819163420329828 -0.8261815709115844
149030 0.25129760061145107 -0.8311814217461259
153933 0.22355417701593128 -0.8336745284166862
158836 0.19609947533218183 -0.8398482786739169
163739 0.16687580011245967 -0.840111198123326
168642 0.1410948315572265 -0.8353856313269067
173545 0.1159108830141188 -0.8354669668125212
178448 0.08967830413318914 -0.8318594317193538
183351 0.06149424600316423 -0.8233841606090134
188254 0.034444618056036026 -0.8125971068043755
193157 0.011041171447217465 -0.7985910581253445
198060 -0.010784508455018483 -0.781172114902496
202963 -0.028214957813624864 -0.7482096172955358
207866 -0.0243768014844388 -0.7157706898065558
212769 -0.0019403930680821843 -0.6816864194133753
217672 0.04694286168524378 -0.6747505472504753
222575 0.09350294279941494 -0.7237547649220983
227478 0.08394069842382423 -0.7809569507509434
232381 0.05332666384996873 -0.812881960383486
237284 0.023357628882485975 -0.8296784706371623
242187 -0.004529986524349027 -0.8411768615722296
247090 -0.02912360292370433 -0.8423554867536812
251993 -0.04953605890153871 -0.853090851277248
256896 -0.07056182405378267 -0.8511772400049317
261799 -0.09211034437548082 -0.8549480119395167
266702 -0.1122771547290257 -0.8544846574929099
271605 -0.1328425259420597 -0.8525501655978514
276508 -0.14815605281923716 -0.8507256648322307
281411 -0.16910673571816923 -0.8475512250916774
286314 -0.18311549052662754 -0.8445317427117199
291217 -0.19741774137334553 -0.8398743387842901
296120 -0.21158293927091834 -0.8375398051854523
301023 -0.22497549610291398 -0.8315477914084121
305926 -0.2410913891188205 -0.8290304114935336
310829 -0.24635619485159216 -0.8235621257553826
315732 -0.25750255892554497 -0.8232718693338339
320635 -0.27002802861710545 -0.8207909065564429
325538 -0.2824760807506794 -0.8176599689055543
330441 -0.293701873919914 -0.8181111275597687
335344 -0.30749928106648494 -0.8144077791590694
340247 -0.3188522192725005 -0.8116519784499118
345150 -0.329004932059071 -0.8083939773934102
350053 -0.3423637125960399 -0.8033168350028415
354956 -0.35160922825718977 -0.7982274890840333
359859 -0.36252577849394946 -0.7936828461360365
364762 -0.3717690046048537 -0.7908337948840636
369665 -0.3814797764872902 -0.7859044807482843
374568 -0.3926529022854097 -0.7838460663418626
379471 -0.4021587388564069 -0.7797741006785189
384374 -0.41154243050345923 -0.7798212115129778
389277 -0.41555734506496134 -0.7709401596539711
394180 -0.42798318082639664 -0.7665638674349203
399083 -0.43626996561547526 -0.7637256668700969
403986 -0.4431404481836235 -0.758193391372384
408889 -0.4515532526103106 -0.7550693320881671
413792 -0.4599069878836586 -0.7480957823797588
418695 -0.4665364481494436 -0.7459606019198497
423598 -0.4748075804622431 -0.7420663275902194
428501 -0.48463003409612715 -0.7366877932699574
433404 -0.4878774495170599 -0.7338783805364479
438307 -0.49727901539414365 -0.7279770816392106
443210 -0.5004268033101122 -0.727792963285239
448113 -0.5085471553001941 -0.7206130349868622
453016 -0.5145250458566752 -0.7209862273608927
457919 -0.5222353409220111 -0.7121511327429025
462822 -0.52858640201176 -0.7086248493766218
467725 -0.5329453879650116 -0.704864546989876
472628 -0.5419253607531176 -0.7030295168205262
477531 -0.5465191340433129 -0.6959924396783991
482434 -0.552465022959623 -0.6894770079883947
487337 -0.5560118753736654 -0.6895652110852966
492240 -0.5629090031463448 -0.6843091970059182
497143 -0.5684269655389695 -0.6805958817277227
502046 -0.5722393428151579 -0.6740915523237134
506949 -0.5749134011878173 -0.67124242712381
511852 -0.5801709658701796 -0.6688487979177659
516755 -0.588658316575528 -0.6629003427665755
521658 -0.5917907815915632 -0.6629638959736996
526561 -0.595035661951743 -0.6551038386147854
531464 -0.5999495601850302 -0.6509148317892162
536367 -0.6069638636670736 -0.6466415001602432
541270 -0.610433054458044 -0.6401195231378719
546173 -0.6130867765437706 -0.6394411671815173
551076 -0.6178967803796389 -0.6318834485579133
555979 -0.6228812923886557 -0.625655452545567
560882 -0.6231442975573878 -0.6182927102668054
565785 -0.6278476479191857 -0.6118228656346074
570688 -0.629076043291504 -0.6028055572254366
575591 -0.6261935918172774 -0.595518249818894
580494 -0.6146014250841024 -0.5896363807199151
585397 -0.6091563756691863 -0.596428714823336
590300 -0.6054737173626177 -0.5998145770561214
595203 -0.6124433696811192 -0.6066090365665318
600106 -0.617197071421703 -0.6122547184817109
605009 -0.6259189944718926 -0.6166209935341022
609912 -0.6323594096559132 -0.6147700331963829
614815 -0.6398068259862247 -0.6160336831160265
619718 -0.6457708669241848 -0.612042683112159
624621 -0.6516519728340381 -0.6106292680535962
629524 -0.6580916131905287 -0.6077174860686659
634427 -0.6625668891889472 -0.6046407137323595
639330 -0.6680666439489081 -0.6022034167677541
644233 -0.6732624454959424 -0.5960641567075317
649136 -0.6735147249821183 -0.5949154674660081
654039 -0.6801875062774256 -0.5913727336605159
658942 -0.6872870615529343 -0.5880304354516815
663845 -0.688499043373236 -0.5852835299060912
668748 -0.6889745885119074 -0.5804201441935759
673651 -0.691563619534749 -0.5753630013346211
678554 -0.6962599507310364 -0.5740471636395428
683457 -0.6989766012337398 -0.5754183176161409
688360 -0.6976688702834214 -0.5699281432619385
693263 -0.7080561189073731 -0.5645043758650791
698166 -0.7100920905095319 -0.5676700890608735
703069 -0.7099812253049662 -0.5620341076531039
707972 -0.7150048814982192 -0.5616907124123454
712875 -0.7154303547102508 -0.5564341936749359
717778 -0.7220018190291049 -0.5548251275888348
722681 -0.7221433317292797 -0.5490944598228272
727584 -0.7260549511006629 -0.5452566303262657
732487 -0.7274603361683225 -0.5451275764088817
737390 -0.7322936807069051 -0.5390766668794632
742293 -0.7359757359888915 -0.5379621414551591
747196 -0.7369940095631223 -0.5348641429877935
752099 -0.7394092372407479 -0.531066303195028
757002 -0.7422872270698381 -0.528591455576055
761905 -0.7423958879510548 -0.5277703780988414
766808 -0.7410763740888477 -0.5257501145456476
771711 -0.7493333594819962 -0.5241817227061347
776614 -0.7496682106955298 -0.520286849464341
781517 -0.7498810179625882 -0.5177719937874298
786420 -0.7543631349461815 -0.5133307968551246
791323 -0.7569675341360854 -0.5134178486594303
796226 -0.758333957452425 -0.5119093833583763
801129 -0.7597718429140726 -0.5070359460624544
806032 -0.7612445211557295 -0.5031581248401832
810935 -0.7646989222453381 -0.5067657995583762
815838 -0.7640508349969457 -0.5050782454704008
820741 -0.7644827680014653 -0.49848566960014307
825644 -0.7652470683957223 -0.49769212269292845
830547 -0.7687864261080944 -0.49577905058814087
835450 -0.7724893003909075 -0.49009369686216336
840353 -0.7683135376574406 -0.49059813956362625
845256 -0.7719581310518172 -0.48807330599219667
850159 -0.7764150123156306 -0.4840504109220018
855062 -0.7763432854674865 -0.48253228944386
859965 -0.7784282144912488 -0.48122613357375105
864868 -0.78260702798176 -0.4774905624929525
869771 -0.781971482730815 -0.47754116126019003
874674 -0.7861895583828875 -0.47427444433667537
879577 -0.7821846433060886 -0.4710560183255133
884480 -0.7837330417726155 -0.46705127955908754
889383 -0.7882943529687295 -0.46575236017271987
894286 -0.7913746113246647 -0.46372508867435003
899189 -0.7934187577226792 -0.46269292535423184
904092 -0.7954912310457825 -0.4575209440382631
908995 -0.7948793607569662 -0.4561967004482469
913898 -0.7934413274587484 -0.45562965018346085
918801 -0.797922595109111 -0.45037929655607417
923704 -0.7923513340238637 -0.4481259823919184
928607 -0.7983899740818629 -0.4492626098466054
933510 -0.7962119056812172 -0.44719708745354336
938413 -0.7991650940058477 -0.4376401468679727
943316 -0.7940349870860464 -0.4389139480149153
948219 -0.7977821922733347 -0.4363197605621242
953122 -0.7957791528149888 -0.4380580475421493
958025 -0.7917309933923439 -0.4385684632384835
962928 -0.7953558582851803 -0.4406346580102934
967831 -0.7977384144036636 -0.4363660893505866
972734 -0.7994502549243538 -0.44018544443540003
977637 -0.7951875223959107 -0.43945481730910235
982540 -0.7996115429357483 -0.4367968781124544
987443 -0.8051903918812188 -0.43868260454775476
992346 -0.8069617244546223 -0.43709095854177277
997249 -0.8057805160607013 -0.43544138538162375
1002152 -0.8104787479158447 -0.43436865262622903
1007055 -0.8136187859106363 -0.4320468437864706
1011958 -0.8146501415133863 -0.430800197978931
1016861 -0.8165633193156047 -0.43026431370479423
1021764 -0.8183032250215557 -0.42801264046137066
1026667 -0.81813865194697 -0.42519682115261587
1031570 -0.8211017189585245 -0.42362539665889576
1036473 -0.8208922917225188 -0.4192858848990549
1041376 -0.822653893985542 -0.42150536412827
1046279 -0.8225912563273725 -0.41686682620950344
1051182 -0.8261375616403992 -0.418820375764122
1056085 -0.8274493474816094 -0.4167910959933631
1060988 -0.8266687428149517 -0.41682167645119345
1065891 -0.8311083916408929 -0.41301426553363385
1070794 -0.8276191899184694 -0.40950494571743634
1075697 -0.8329669954851462 -0.4073938918487159
1080600 -0.8321358400261719 -0.40757128160561373
1085503 -0.8320242268430568 -0.4046946225001419
1090406 -0.8348338596918057 -0.4027347579367712
1095309 -0.8336036452801372 -0.40196373769678484
1100212 -0.8354993184727385 -0.40265141038571506
1105115 -0.8369970952264649 -0.3969258103754199
1110018 -0.8374164846934623 -0.39803201204119354
1114921 -0.8384038358816305 -0.3949223025421164
1119824 -0.8383885216725124 -0.39708333931265954
1124727 -0.8415908292064781 -0.39114266963438693
1129630 -0.8413300688597378 -0.39001025838743447
1134533 -0.842569440243141 -0.3877817452890389
1139436 -0.8430360695130267 -0.38879924256264337
1144339 -0.8445805310568513 -0.38447750119628654
1149242 -0.8456688732909169 -0.3845999756943319
1154145 -0.8472142463466844 -0.3850410110546916
1159048 -0.8474830031343382 -0.3879373457200318
1163951 -0.8487282243285441 -0.37970400261646425
1168854 -0.8476884574433442 -0.37923722696954554
1173757 -0.8501656702049022 -0.37728578612171815
1178660 -0.8499739022747688 -0.3767093523586153
1183563 -0.8482833281730155 -0.37627819367201926
1188466 -0.8500105874357459 -0.3724433030867923
1193369 -0.8524142597276274 -0.3760806178891948
1198272 -0.8525409934706888 -0.3713919269029589
1203175 -0.8523387552279986 -0.3691961983069662
1208078 -0.8520044798541946 -0.3658955551705725
1212981 -0.8539289409487286 -0.3660250862069118
1217884 -0.8540194270904163 -0.3660083427935304
1222787 -0.8567577879909499 -0.36360444493158484
1227690 -0.8531648216404044 -0.36087249899565943
1232593 -0.8554538631938553 -0.36132012856263684
1237496 -0.8570605803390091 -0.35932371609986646
1242399 -0.8587781918206587 -0.35855509456987367
1247302 -0.8578861587657829 -0.35869838832829765
1252205 -0.8598506613293747 -0.3544644851014248
1257108 -0.8588024620978467 -0.3517127843911773
1262011 -0.8601097874295154 -0.3534402614843491
1266914 -0.860827222204208 -0.3516673111057016
1271817 -0.8621502341677182 -0.35130261562356174
1276720 -0.8629750731650127 -0.348176460633478
1281623 -0.8597356065443013 -0.3473260809686434
1286526 -0.8598691146120756 -0.34807500482311077
1291429 -0.8638546526685214 -0.3472707516348156
1296332 -0.8627471686787882 -0.34216371869282636
1301235 -0.8589691972584591 -0.34276805835549473
1306138 -0.8631992982639097 -0.3457573116650736
1311041 -0.8580612284922532 -0.3412215861557604
1315944 -0.8580132596669926 -0.33939750163598836
1320847 -0.8598787860268317 -0.34382013340157846
1325750 -0.8609472679053981 -0.34298008470425195
1330653 -0.8607753319947309 -0.3439296014648634
1335556 -0.8652516855351431 -0.3425221247315553
1340459 -0.8666247513615801 -0.3422133015950768
1345362 -0.8647496182258213 -0.33845698358883286
1350265 -0.8643907387316255 -0.340750002185802
1355168 -0.8658347134511329 -0.33698685573014053
1360071 -0.8695747534206617 -0.33794358748169234
1364974 -0.8669229524696151 -0.33570169465590705
1369877 -0.8710498142922061 -0.33366287688894786
1374780 -0.8723368661080381 -0.3348757805927746
1379683 -0.876880027589521 -0.33368154428637453
1384586 -0.8699299019814971 -0.3312487516535722
1389489 -0.8739515488311796 -0.32904748346852736
1394392 -0.872281114965989 -0.33198611956993596
1399295 -0.8719043572265108 -0.32944900846924297
1404198 -0.8759428309781792 -0.32775032899907075
1409101 -0.8750819499487509 -0.32506348803399493
1414004 -0.8792554151532279 -0.3245301842943732
1418907 -0.8745111044731572 -0.32522012587076016
1423810 -0.8759700398807665 -0.3215687761420251
1428713 -0.8782814650507179 -0.32350228539334536
1433616 -0.878002102381766 -0.3227636356210173
1438519 -0.8761469079894588 -0.3204883530702922
1443422 -0.880036826912691 -0.315397592822517
1448325 -0.8788468544977814 -0.31673176051911445
1453228 -0.8776770330615205 -0.3146503547386132
1458131 -0.8803781583636299 -0.3199437654625082
1463034 -0.880659989089732 -0.31581470001375034
1467937 -0.8788787356486907 -0.31369073288242016
1472840 -0.8814887208651694 -0.3125126077302268
1477743 -0.8784939644465979 -0.31099480232468385
1482646 -0.8811257406679036 -0.30974266050904975
1487549 -0.8850316999338876 -0.31138640523776145
1492452 -0.8817614077447957 -0.3073844540301067
1497355 -0.8854632452665251 -0.30549704895168933
1502258 -0.8826589400939531 -0.3054819452284027
1507161 -0.88432513619771 -0.3052852823730666
1512064 -0.8859533311968482 -0.3070672980528508
1516967 -0.8858612220669634 -0.30201135230223186
1521870 -0.8842397483842621 -0.3038075982004013
1526773 -0.8838949867161187 -0.3029417136105948
1531676 -0.8858394045383223 -0.3032536369863526
1536579 -0.8875457177146652 -0.30011455024711314
1541482 -0.8873091640391175 -0.3031412250880587
1546385 -0.886929994705723 -0.2981209195342608
1551288 -0.8883155699606557 -0.29506037161625337
1556191 -0.8881657706926233 -0.29497488530769367
1561094 -0.8896843629337489 -0.2956094504387428
1565997 -0.8852824756117945 -0.29304799946695337
1570900 -0.8924892610856198 -0.2949307119319675
1575803 -0.8876899286646598 -0.29535036730257647
1580706 -0.8870211180132408 -0.29005383188892764
1585609 -0.8883980151531059 -0.2916441765247135
1590512 -0.8871885818058722 -0.28935580624429463
1595415 -0.8888467893540702 -0.2903805614279174
1600318 -0.8866711004397935 -0.2879664712570537
1605221 -0.8898562089527216 -0.2872090172872005
1610124 -0.887976923190594 -0.2884827720485856
1615027 -0.8875359223612216 -0.28857810336870315
1619930 -0.8885677943751753 -0.28791359252706655
1624833 -0.8899899708480177 -0.28946341012642196
1629736 -0.8916766984070044 -0.2868335842161101
1634639 -0.8905030652365384 -0.28586830072917757
1639542 -0.8929415074719884 -0.2861273678627645
1644445 -0.8937680948422361 -0.28574442495810565
1649348 -0.8953202289426225 -0.2821276792128727
1654251 -0.8945576664434454 -0.28436588311262323
1659154 -0.8934029414317838 -0.2775290156696045
1664057 -0.8965274920222227 -0.28184751550766707
1668960 -0.8983389574491656 -0.27883804203565415
1673863 -0.8974079754956202 -0.2821801050133105
1678766 -0.8949583177275864 -0.277317788875979
1683669 -0.8981463285569191 -0.280850069554185
1688572 -0.8953072385832642 -0.27896252495311824
1693475 -0.9007165637211558 -0.2727356129301949
1698378 -0.8931270330038804 -0.27498420450076994
1703281 -0.897693230010664 -0.27523633364705663
1708184 -0.8956014450327442 -0.27882317706761317
1713087 -0.8989944806935116 -0.27070473734405337
1717990 -0.8975785798990809 -0.2733016101934694
1722893 -0.8982962396938198 -0.2720348977932454
1727796 -0.8987512087618998 -0.2692152402544809
1732699 -0.8961081332839687 -0.2697098475792866
1737602 -0.9003614093355962 -0.2700398513323559
1742505 -0.9004064868434826 -0.2679847609911109
1747408 -0.9020224962602909 -0.26366692744405756
1752311 -0.8986591958447374 -0.2687993773364961
1757214 -0.9024216862522982 -0.2642085624222567
1762117 -0.8969522131296184 -0.2689760116072843
1767020 -0.8986406415521929 -0.2645457971633036
1771923 -0.9000439824848573 -0.26320109095055866
1776826 -0.8999098469508445 -0.2654651238178319
1781729 -0.9060343631982389 -0.2628435892315192
1786632 -0.902189695727576 -0.26218226856976184
1791535 -0.9013781124421733 -0.25930753424453906
1796438 -0.8998865160993044 -0.26397089675930097
1801341 -0.9016446656223224 -0.25853233951587606
1806244 -0.8986254072394028 -0.2558030376105398
1811147 -0.9009369284873847 -0.25216586669583607
1816050 -0.8997991417153591 -0.2546031857805776
1820953 -0.9027900737893567 -0.25896879827190095
1825856 -0.9011456394008684 -0.25280439677173305
1830759 -0.9031409287775772 -0.25762166755421806
1835662 -0.8976697754797144 -0.2561123280674847
1840565 -0.9025389477355295 -0.25439012661828525
1845468 -0.9052450551416664 -0.254072458101996
1850371 -0.9026672925448915 -0.2540461433856349
1855274 -0.9035742392676525 -0.2585356950804793
1860177 -0.9016964772078043 -0.25341546953517435
1865080 -0.9047537534803992 -0.25100060792961865
1869983 -0.9024984073637191 -0.25624132357256574
1874886 -0.9030213522930739 -0.25520640486127794
1879789 -0.9062601640956024 -0.2514690294446559
1884692 -0.9049706786897778 -0.2500302786710094
1889595 -0.9057041738895436 -0.24940009093494414
1894498 -0.9067662780299101 -0.24524589993889903
1899401 -0.9087215370302958 -0.24972453975731776
1904304 -0.9068180883969362 -0.24621178891244372
1909207 -0.9096766718306497 -0.24737646732601193
1914110 -0.9053776505134922 -0.2468770812083575
1919013 -0.9081973275797773 -0.2441583084110596
1923916 -0.9098422415947346 -0.2420509928695026
1928819 -0.9061623167521294 -0.24393324561971239
1933722 -0.9068090832001321 -0.2427979897492355
1938625 -0.9076919106059117 -0.24301766002963746
1943528 -0.9069660150096965 -0.24170740283946976
1948431 -0.9053782690536224 -0.24189090419469667
1953334 -0.9091155846222146 -0.239053666123797
1958237 -0.9083357085670754 -0.24231314238311613
1963140 -0.9072165947660906 -0.24105938406052665
1968043 -0.9040156576789695 -0.24202650764480682
1972946 -0.9068141558051563 -0.2393949440992136
1977849 -0.9084259907182847 -0.2431874361368162
1982752 -0.906512806847596 -0.24138233997933448
1987655 -0.9090058813194172 -0.2396963218672455
1992558 -0.9081032866181281 -0.2402578432977079
1997461 -0.9094943434524033 -0.24177698676668077
2002364 -0.9075065684237656 -0.24123835111440095
2007267 -0.9083400738467774 -0.2334351897834366
2012170 -0.9090048455916009 -0.2375552398498937
2017073 -0.9077091005934819 -0.23843251495402418
2021976 -0.9092870416539643 -0.23773987933952612
2026879 -0.9120698566011278 -0.23558338513212976
2031782 -0.9100441278345811 -0.23274798251025602
2036685 -0.9098462963833137 -0.2350321827553662
2041588 -0.9119680889153224 -0.23230755503289385
2046491 -0.9138070273100577 -0.2322101721683888
2051394 -0.912421428541012 -0.23322630304050326
2056297 -0.9145588409038264 -0.22855540753219952
2061200 -0.9096077411835432 -0.22976069864440235
2066103 -0.9141343326912674 -0.2278559791863914
2071006 -0.9149075133471383 -0.23007491344455455
2075909 -0.9146975351220453 -0.2296469527907703
2080812 -0.908889470218008 -0.2288174827124904
2085715 -0.9165635586401059 -0.22524312085169437
2090618 -0.9129428993526058 -0.22853387262722435
2095521 -0.9131309229129667 -0.22503851443327427
2100424 -0.9135343043130467 -0.22638839794525603
