# HZ S RI R 50
100000 0.537235910311078 -0.7198604852907704
104903 0.5117265515065605 -0.7360966591597836
109806 0.48281275823607506 -0.7511474230148516
114709 0.45253107440087764 -0.7665922541467068
119612 0.4284791847256985 -0.7791956369016776
124515 0.40064614837373047 -0.7896813035368274
129418 0.37273489958186334 -0.8030421984014348
134321 0.3474678803520639 -0.8101036943261866
139224 0.32114871041619575 -0.8210721367382688
144127 0.29623901947175185 -0.8282771307731024
149030 0.2687516810866419 -0.8334957431882671
153933 0.24337046080750704 -0.8394068593927381
158836 0.22165041438808114 -0.8457452509295588
163739 0.19635821027808792 -0.8503196006441005
168642 0.17374002664800045 -0.8504619932640107
173545 0.15102405545509903 -0.8564465217269783
178448 0.12959644628309305 -0.8565519140220017
183351 0.1046197214720426 -0.8570367787680692
188254 0.0820276015988898 -0.8554588664436601
193157 0.05819870743960001 -0.8557991755419012
198060 0.041547576364332484 -0.8511968016903447
202963 0.020033046045310216 -0.8500648355981149
207866 0.005051019803904304 -0.8443424467871906
212769 -0.008943370795548269 -0.8325126365541433
217672 -0.013835893909318957 -0.8310937258800082
222575 -0.016444935291925686 -0.840325738610687
227478 -0.03442940057649751 -0.853729851622381
232381 -0.05249930115134238 -0.8562109809503523
237284 -0.07221985225455203 -0.8573293285258748
242187 -0.09038843051416141 -0.8580601578319542
247090 -0.10711489293130261 -0.8540696276533062
251993 -0.12404005892926684 -0.8605094885338597
256896 -0.13981455861014644 -0.8528485314864765
261799 -0.1575805771627214 -0.8524763468941471
266702 -0.17206145718853513 -0.8503690899718885
271605 -0.1897946664867668 -0.8468473566796514
276508 -0.2014776530062019 -0.8420020299731803
281411 -0.217276564209531 -0.840101060620956
286314 -0.22975685607506155 -0.8384824769263208
291217 -0.23987320042379312 -0.8320921925504727
296120 -0.25505665246279463 -0.8313224872509113
301023 -0.26735456684095765 -0.8270638011041457
305926 -0.280197114108409 -0.8215178816378823
310829 -0.287399180054131 -0.8206021524317796
315732 -0.29967584506576056 -0.8180119926688724
320635 -0.309815059521449 -0.8122264919871286
325538 -0.323858049785543 -0.8081100841776477
330441 -0.33198207036689054 -0.8063075444028835
335344 -0.3437951926201278 -0.8000974652117664
340247 -0.35496315412613944 -0.7986901890955592
345150 -0.3640310339528656 -0.7935113507622047
350053 -0.3757263627196994 -0.7911350941622634
354956 -0.382711363570666 -0.7857500013493188
359859 -0.39502524808373934 -0.7826731035504578
364762 -0.40081429189464457 -0.7792577213027555
369665 -0.4084055022212256 -0.7708479791838541
374568 -0.41851485646458103 -0.7688448392931172
379471 -0.4295175464412709 -0.766325201887257
384374 -0.43610111357340736 -0.7669196366276108
389277 -0.44127211713600467 -0.7571165205908701
394180 -0.4513948075210615 -0.7537788058143362
399083 -0.45711552851506493 -0.7508637699680122
403986 -0.4662138058638701 -0.7439571721960427
408889 -0.4721289786980959 -0.7427183730648795
413792 -0.4810382599964556 -0.7373177880302741
418695 -0.4864838211988064 -0.7337078379059733
423598 -0.4944454033105595 -0.7271698956026442
428501 -0.5048476091661107 -0.7248186266839182
433404 -0.5061519269020177 -0.7206379543024627
438307 -0.5163881574604041 -0.7163825049597858
443210 -0.5194558291231808 -0.7135174639227782
448113 -0.5236415019186969 -0.711324450800453
453016 -0.5309172572546174 -0.7063269169586776
457919 -0.538760225837413 -0.7009885301101695
462822 -0.5441906695955298 -0.6991354913723896
467725 -0.5505897860139393 -0.6946096769189591
472628 -0.5552568891092793 -0.6901516097138891
477531 -0.5619588540940267 -0.6862307064992761
482434 -0.565384599902421 -0.6815068880923016
487337 -0.569371075347962 -0.6825807683157951
492240 -0.5763321917413743 -0.6755800169860916
497143 -0.5828422041252956 -0.6717758289076773
502046 -0.5858290073466862 -0.6685267998096863
506949 -0.5872700402600954 -0.6646414344046571
511852 -0.5926979896532717 -0.6623222339230643
516755 -0.6006412640091473 -0.6603994726343132
521658 -0.6050271278087803 -0.6569585775531144
526561 -0.6068007834134995 -0.6498041450499829
531464 -0.6140201294499374 -0.6472165015976463
536367 -0.6189553573097284 -0.6442992783164314
541270 -0.6211571950635784 -0.6371993360534856
546173 -0.6240550414277736 -0.639030277124638
551076 -0.6287431975341113 -0.6337994598784827
555979 -0.6343669174475052 -0.6285195058413534
560882 -0.6335208896850332 -0.6243878312168298
565785 -0.6432743592024134 -0.6209037079165789
570688 -0.6456548247030455 -0.6156246225749463
575591 -0.6499266112345826 -0.6133243871605941
580494 -0.6480722879130698 -0.607024145088069
585397 -0.6510199811341186 -0.6047084708003498
590300 -0.6520731599152871 -0.6043359563863911
595203 -0.6569693606855238 -0.604633300983512
600106 -0.6600132310773272 -0.6019251316526035
605009 -0.6639619703450585 -0.6016535486918202
609912 -0.6656021125837102 -0.5965944961586439
614815 -0.6708996930153032 -0.5968652995988661
619718 -0.6738816665960008 -0.5922403939206679
624621 -0.676851055701939 -0.5898476927648753
629524 -0.6807679960022556 -0.5877835605088426
634427 -0.6845006517270364 -0.5850857399478083
639330 -0.6911583188379881 -0.5836080562084721
644233 -0.6906320676081944 -0.5766611205181114
649136 -0.6946561284737973 -0.5778029787482258
654039 -0.6979260796150933 -0.5726903166252183
658942 -0.7078812042388921 -0.5705294229956465
663845 -0.7061655561671468 -0.5682916174378883
668748 -0.7064934618923786 -0.5639635461475571
673651 -0.7085103275829496 -0.5640128766072393
678554 -0.7118948103324663 -0.5576579075615027
683457 -0.7134078921437809 -0.5572092009075105
688360 -0.7148712333839264 -0.5531841128519147
693263 -0.7222231069623362 -0.5518068337092359
698166 -0.7243377170856907 -0.5501584337353509
703069 -0.7247996212936604 -0.5438319863153466
707972 -0.727484244761572 -0.5446142864163181
712875 -0.730858678781616 -0.5394210853366294
717778 -0.7336343437069154 -0.5355157378322932
722681 -0.7327439394540535 -0.5341208694284753
727584 -0.7366571283376395 -0.533136829869956
732487 -0.738434608520481 -0.5285771775520303
737390 -0.7413086117026587 -0.5272609095404136
742293 -0.7443622189896483 -0.5239288495705569
747196 -0.7447515014427724 -0.5220535003404542
752099 -0.7490078238037828 -0.5188666921931384
757002 -0.7502492800326724 -0.5180819242831584
761905 -0.7516418343980834 -0.5146723502484938
766808 -0.7524963047147151 -0.5136860131716161
771711 -0.7581805649116099 -0.5089862306567888
776614 -0.7571008890027788 -0.5082975988181491
781517 -0.7575448150532862 -0.5050888768541593
786420 -0.762763618923883 -0.5017326201056995
791323 -0.7656921830295939 -0.5052303196021154
796226 -0.7675671725373492 -0.499654562069188
801129 -0.769697113968769 -0.4979398817105056
806032 -0.7700546156112519 -0.49287310955743074
810935 -0.7740657517118167 -0.4953303538476961
815838 -0.7709571052793072 -0.49311168160335167
820741 -0.7716483552965197 -0.4883043577165431
825644 -0.773348307426221 -0.4854008680013875
830547 -0.7769011483080939 -0.4850305683663701
835450 -0.7804412164542298 -0.48181695959965276
840353 -0.7751624549561368 -0.48008832692965364
845256 -0.7786455708446363 -0.4775398056631723
850159 -0.7846116771386074 -0.4747173650180854
855062 -0.7849039839532252 -0.4745958222853631
859965 -0.7864273971111349 -0.47249373643972614
864868 -0.7860076261606833 -0.47203258896732986
869771 -0.7892190252200985 -0.4696496674639831
874674 -0.789947626479083 -0.4684038346693776
879577 -0.7878007319325905 -0.4636452052091101
884480 -0.7925281020339577 -0.4641520736345175
889383 -0.7950330188867232 -0.4597840254164944
894286 -0.7972913468688732 -0.45837952313190233
899189 -0.7964008601929321 -0.4564500651937083
904092 -0.8004066167847534 -0.4526494780496473
908995 -0.8016336435117197 -0.45124813092507515
913898 -0.8017884182449065 -0.44921101773366856
918801 -0.8038952817985962 -0.4464893490122979
923704 -0.8019946037636934 -0.44713401953486565
928607 -0.8046630691546008 -0.4465973415887793
933510 -0.8049224426242455 -0.44472318187660326
938413 -0.8050677897879951 -0.4371458069034792
943316 -0.8060885778205787 -0.4387113101721328
948219 -0.8108198976107569 -0.43877146926047594
953122 -0.812698757787826 -0.43611175712141764
958025 -0.8080190701792755 -0.4322745148519321
962928 -0.8098845682052865 -0.4340457622335036
967831 -0.8132689091053139 -0.43118046163064044
972734 -0.8156057178348216 -0.4297715510792646
977637 -0.8133331789927581 -0.4317965771369812
982540 -0.81707026083691 -0.4280711839583997
987443 -0.8187687939395006 -0.42648677567984844
992346 -0.8198089152325141 -0.4253061019401089
997249 -0.8183318116402135 -0.42414357637537103
1002152 -0.8175511234653026 -0.42141540618320783
1007055 -0.8214130804124338 -0.4204578792969549
1011958 -0.8227086148650358 -0.419505704471478
1016861 -0.8267858256396962 -0.41861118312131795
1021764 -0.8264662514283467 -0.41476429842645224
1026667 -0.8248685320201304 -0.41452769319964167
1031570 -0.8290535175785806 -0.41333065863833
1036473 -0.8253280127760153 -0.4078615804987208
1041376 -0.8299829781640582 -0.40873422963702205
1046279 -0.829933909871379 -0.40644306142087877
1051182 -0.831906826818642 -0.4062646119158412
1056085 -0.8350826669963557 -0.4071973616445041
1060988 -0.8345727132604801 -0.40478495516762264
1065891 -0.8384993688107045 -0.4043050696567015
1070794 -0.8351074355719634 -0.40308009016024515
1075697 -0.8336307403348595 -0.4014130418398321
1080600 -0.8376456571195601 -0.39699615109327596
1085503 -0.8362942314961388 -0.3961493906019076
1090406 -0.8412254858823405 -0.39732756234662264
1095309 -0.8419591733865986 -0.39382185149717763
1100212 -0.8420093230059 -0.3962851040154001
1105115 -0.8414172552917816 -0.39078811637852723
1110018 -0.8422605044992469 -0.3922724627641838
1114921 -0.8403239886597375 -0.38616501111541846
1119824 -0.8462893017466826 -0.390168564463089
1124727 -0.8454262377773923 -0.38489640358983407
1129630 -0.8445374070623277 -0.37936021182119245
1134533 -0.8462372262025402 -0.3816484411591403
1139436 -0.8472133622279502 -0.38582361677107174
1144339 -0.8454255211206705 -0.3791058847482917
1149242 -0.8495475276298615 -0.3792728249787291
1154145 -0.8525350685422041 -0.37847262421101313
1159048 -0.8500305069918662 -0.3824194858446079
1163951 -0.851527175850254 -0.37274434947875285
1168854 -0.8488462920251845 -0.3740714702423611
1173757 -0.8529575846574495 -0.3725878105915582
1178660 -0.8535051061942432 -0.37043098220258674
1183563 -0.85151200327886 -0.3689470820562898
1188466 -0.8528456356622596 -0.3710493234561148
1193369 -0.8548993118095837 -0.3708705993741865
1198272 -0.8551810665345704 -0.36576187806265004
1203175 -0.8561555495186824 -0.3648928119141502
1208078 -0.8554519333614841 -0.36157914763923904
1212981 -0.8581984239725442 -0.36278959221086204
1217884 -0.8572382481702941 -0.36086426440164127
1222787 -0.8599279951046331 -0.3603305279588256
1227690 -0.8600362460326711 -0.35973532545425063
1232593 -0.8617116909980418 -0.35753743489388373
1237496 -0.8614304012985926 -0.35943165484930206
1242399 -0.8624982948163191 -0.3581835710518449
1247302 -0.8626452207786065 -0.35729668625975847
1252205 -0.861555024706039 -0.3552926878709769
1257108 -0.8669042907125765 -0.35155745296155155
1262011 -0.8629513054968768 -0.35199858167875986
1266914 -0.8663695323187259 -0.35065384982106357
1271817 -0.8661663336825053 -0.3544767832068779
1276720 -0.8655983149743967 -0.34738977398515347
1281623 -0.8663759094807926 -0.3445984731654138
1286526 -0.863608014166581 -0.34448129424488233
1291429 -0.8671829444398879 -0.3451654560134636
1296332 -0.8685485560183618 -0.3434409950248351
1301235 -0.8682282755125635 -0.34297376509381394
1306138 -0.8681654208588507 -0.342133430402067
1311041 -0.8708202919621189 -0.3385704687772516
1315944 -0.8680573367999912 -0.33951535147693007
1320847 -0.868079060910674 -0.33778771333001906
1325750 -0.867060821345523 -0.3394941325045565
1330653 -0.8692069556835933 -0.33452388011671597
1335556 -0.8708719156848467 -0.33803228015104003
1340459 -0.8707337609588305 -0.33601513529617616
1345362 -0.8716344616890749 -0.33515267642504143
1350265 -0.8723320954433038 -0.3339292094654018
1355168 -0.8744936365448004 -0.3333568326870658
1360071 -0.8775941049639442 -0.3307749848701585
1364974 -0.8767177583168304 -0.3310083617480631
1369877 -0.8758789715095187 -0.32878165119019553
1374780 -0.8760351360331332 -0.331000629925491
1379683 -0.8803211872156155 -0.32879206430750746
1384586 -0.8753072325140817 -0.32780639872471135
1389489 -0.8767837589332556 -0.32620662292725094
1394392 -0.8789469382269534 -0.3261051880593753
1399295 -0.8777683318244135 -0.3267913444941851
1404198 -0.8804514103064934 -0.32216180123556115
1409101 -0.8790829957229078 -0.32666889006076866
1414004 -0.883465552004946 -0.322669788547109
1418907 -0.877683770558526 -0.32287699802990427
1423810 -0.8809520671905409 -0.31898712036985416
1428713 -0.8828207093346305 -0.3194631937227821
1433616 -0.8823263555084887 -0.32037124368231107
1438519 -0.8809816446886026 -0.3145680876161151
1443422 -0.885711309565492 -0.31394636364511364
1448325 -0.8845583255259983 -0.31629226472542654
1453228 -0.8807454621095611 -0.31254742463866203
1458131 -0.8843851364973315 -0.3150776372021551
1463034 -0.8855027828726502 -0.31359805566078713
1467937 -0.8840402054440016 -0.3102971711477703
1472840 -0.8834516289672271 -0.31095363809072957
1477743 -0.8845328434311028 -0.3128771531577398
1482646 -0.8849474163256442 -0.3108135079610309
1487549 -0.8899055349710748 -0.30904459593966316
1492452 -0.8864956468490637 -0.3066837315756172
1497355 -0.8883796698196478 -0.30587905782009706
1502258 -0.8870792738247716 -0.3064936547233149
1507161 -0.888202472260736 -0.304084775110513
1512064 -0.8872260057457663 -0.30720954606423423
1516967 -0.8881055410327516 -0.30169125582761114
1521870 -0.8870886114846549 -0.302989819803268
1526773 -0.8874066535258759 -0.3007133355257664
1531676 -0.8889658420619297 -0.3005019880459325
1536579 -0.8904296505198087 -0.3023700914994813
1541482 -0.891129900129174 -0.3026705902498896
1546385 -0.8906200493299763 -0.2974774693735525
1551288 -0.8909115882025319 -0.29830181055253574
1556191 -0.890100373351146 -0.2970109073885469
1561094 -0.8935536346014944 -0.29429676999762744
1565997 -0.892354045061985 -0.29583835331617686
1570900 -0.8971639761966298 -0.29666642101468066
1575803 -0.8912515728246986 -0.2961332864166628
1580706 -0.8882998295186113 -0.29352613255650845
1585609 -0.8943811222952869 -0.29521560974490113
1590512 -0.8930247453283596 -0.2900930140210764
1595415 -0.8984575601664079 -0.29226192253660505
1600318 -0.8929131471855749 -0.2915389681222372
1605221 -0.8977020070059973 -0.2902472143706211
1610124 -0.8980353593349583 -0.28670514351341375
1615027 -0.8951638395779649 -0.28869881252433194
1619930 -0.8955356707581997 -0.2874789801048364
1624833 -0.8957132268315198 -0.2901460191054731
1629736 -0.8939828852699409 -0.28592117709610954
1634639 -0.895553879830742 -0.2849103701020891
1639542 -0.8983909714505851 -0.2849545223654095
1644445 -0.8973491273131068 -0.28587532303829954
1649348 -0.8971250996454252 -0.2815781746616999
1654251 -0.8976958435402325 -0.2832848742010149
1659154 -0.8991566883351506 -0.2806664674661373
1664057 -0.9023164090800754 -0.28154780633024706
1668960 -0.8991494443235748 -0.2822699267859241
1673863 -0.8989069333055937 -0.28305461116226843
1678766 -0.8989897651117661 -0.28366896980875145
1683669 -0.901829930345165 -0.2821371557351793
1688572 -0.9002282100649477 -0.28208479548076754
1693475 -0.905021828134168 -0.2754134916466869
1698378 -0.8988950597841147 -0.2772071302601587
1703281 -0.9000111854857058 -0.2752636426650486
1708184 -0.9001434824683701 -0.27891531078603105
1713087 -0.9001683847907782 -0.27553745148808634
1717990 -0.9032875476717973 -0.27662986432620357
1722893 -0.9020697876942629 -0.27130763858336376
1727796 -0.9043386965079214 -0.27477194757035467
1732699 -0.9013553225517282 -0.27384055869614105
1737602 -0.9029550598210335 -0.27205566284053045
1742505 -0.9039551605744071 -0.2734242133843821
1747408 -0.9038986847324522 -0.26735348061061825
1752311 -0.8996936603380493 -0.26773635557016867
1757214 -0.9090530796341028 -0.2715607883952723
1762117 -0.9016080609234531 -0.2737712128796578
1767020 -0.9034920473765036 -0.26991395075610064
1771923 -0.9063678859442327 -0.26696537380410973
1776826 -0.9038598790363918 -0.27164328965816553
1781729 -0.9101142747449812 -0.2667332211346476
1786632 -0.9062586162301639 -0.2661548653782115
1791535 -0.9065025779940016 -0.2669528144182206
1796438 -0.9045641329093875 -0.27031562931536507
1801341 -0.9052572071281949 -0.2636597844556971
1806244 -0.9062954195966952 -0.2622444126830794
1811147 -0.9096020400987175 -0.26023613813211666
1816050 -0.9082252279937443 -0.2613858638302568
1820953 -0.9077596362935555 -0.2643325346805832
1825856 -0.9080163421260478 -0.26111683406488273
1830759 -0.9086170893344176 -0.2596753862802055
1835662 -0.9065636910136761 -0.2617075972485156
1840565 -0.9092755271638278 -0.2616789112023117
1845468 -0.9099791286191178 -0.25969929861363994
1850371 -0.9100609951477661 -0.25681801821378003
1855274 -0.9092019791238058 -0.2585364242316219
1860177 -0.9070317791040898 -0.25691117275720665
1865080 -0.909602231797447 -0.25494000438280817
1869983 -0.9086777293671041 -0.2604956724376339
1874886 -0.9085221068571566 -0.2582680949495996
1879789 -0.9090300797337717 -0.256794642895884
1884692 -0.9112187188667429 -0.2539772865205899
1889595 -0.9110638304295019 -0.2544412613273852
1894498 -0.9068999148547915 -0.2483018145736414
1899401 -0.9147841553783151 -0.2536883715020132
1904304 -0.9114634667738368 -0.2540433450922297
1909207 -0.9150179884549514 -0.254514623376665
1914110 -0.9112274845789055 -0.25182971482785493
1919013 -0.9167102761148118 -0.25011726305625365
1923916 -0.9093077470189139 -0.2522730466391293
1928819 -0.9113131851779781 -0.2504901714773458
1933722 -0.9117227230142104 -0.24617155281305836
1938625 -0.9157215039712993 -0.24702104502461866
1943528 -0.9134185007265199 -0.25053342127403117
1948431 -0.9136817027677514 -0.24828940422380916
1953334 -0.9152835016364089 -0.24655445231356735
1958237 -0.9124976396535744 -0.24938992100618154
1963140 -0.9126163831005645 -0.247912495037203
1968043 -0.9144991784012432 -0.2459755394578045
1972946 -0.9145497185374274 -0.2462190915543935
1977849 -0.9162929369669721 -0.24806143723765325
1982752 -0.9131752680277612 -0.24610148470892096
1987655 -0.9158884134850382 -0.24322099620011595
1992558 -0.9176413050216766 -0.2444381514037746
1997461 -0.9151690195979453 -0.24470962569248397
2002364 -0.9153113328570889 -0.24600957190222672
2007267 -0.9138319677357739 -0.24096177881526504
2012170 -0.917862083592903 -0.24183239990906863
2017073 -0.9142575958216461 -0.24169204933869412
2021976 -0.9167247625937233 -0.23917216464628932
2026879 -0.9167740270369261 -0.2420911261493904
2031782 -0.917648409553344 -0.23629385197455335
2036685 -0.9176687606876434 -0.24266232642874486
2041588 -0.9142533277295432 -0.24031531397589062
2046491 -0.9193986587990323 -0.2380622613927387
2051394 -0.9177694812729104 -0.23874993050352752
2056297 -0.9189533407684318 -0.23883464034522076
2061200 -0.9174843228139455 -0.23764079385222844
2066103 -0.9191778757138189 -0.23150490652405536
2071006 -0.9162162211948033 -0.23705023893626878
2075909 -0.9192357570348201 -0.2358769622843306
2080812 -0.9174218751911724 -0.23659186645905522
2085715 -0.9189790455546005 -0.23595617038072716
2090618 -0.920571582532296 -0.2368898184109711
2095521 -0.917953035638478 -0.23495864407782957
2100424 -0.9185092744555304 -0.23266930994519078
