# HZ S RI R 50
100000 0.5365758295983306 -0.7188712053236918
104903 0.5114917764991745 -0.736396547508858
109806 0.482734286036254 -0.751384819823337
114709 0.45149739729887334 -0.7663894593203908
119612 0.42444536694089735 -0.7779136975758154
124515 0.40176538869541156 -0.7907668096811176
129418 0.37252106545473074 -0.8020266713399476
134321 0.34753026363648687 -0.8091769783348451
139224 0.32241980008754617 -0.8207378513410981
144127 0.29821838834643094 -0.8276348309078917
149030 0.27050995794744914 -0.8336874473461896
153933 0.2446980969433786 -0.8388147967945307
158836 0.22294320902711443 -0.8458404011735365
163739 0.1984745500433564 -0.8503557687676508
168642 0.17442158616758202 -0.8512607107823983
173545 0.15394948071854805 -0.8565931663490467
178448 0.1320668649442648 -0.8589434680171036
183351 0.10820021895819333 -0.8577117074973386
188254 0.0854799218619374 -0.8583851850557613
193157 0.06271956870725151 -0.8589135390967728
198060 0.04423994977192464 -0.8576129438897698
202963 0.02392269469810123 -0.8548392428689265
207866 0.008238000587632802 -0.8511956707354654
212769 -0.006667381837778235 -0.8445015387005641
217672 -0.015434472088706741 -0.841866851779668
222575 -0.025095728923826485 -0.850248800162942
227478 -0.04380546244015285 -0.8568686589392129
232381 -0.060325243808494654 -0.8606530324567695
237284 -0.07837271890574021 -0.856317486425789
242187 -0.09807864214271095 -0.8579281560813171
247090 -0.11273791995560345 -0.8558306279901239
251993 -0.12995173290028977 -0.8600535134660103
256896 -0.14354800395274211 -0.851682677985946
261799 -0.16284507015701374 -0.8524865309157541
266702 -0.17464759849189174 -0.8499543506282157
271605 -0.1929618433791441 -0.8459939626914407
276508 -0.20703336325469063 -0.844785700565644
281411 -0.22142055754543763 -0.8395647931721032
286314 -0.23239106577456015 -0.836319198843142
291217 -0.24243431231355986 -0.8316894133940621
296120 -0.2583648834596391 -0.8312183621964366
301023 -0.26714632331087057 -0.8251088986709606
305926 -0.28208003868710085 -0.8194590324388072
310829 -0.2895777709275019 -0.8204699315209896
315732 -0.3039302980789751 -0.816940028961495
320635 -0.31449421212116274 -0.8131783137316989
325538 -0.32465839997036267 -0.8057645967766418
330441 -0.3353151429189093 -0.8052748433621527
335344 -0.3475944870793505 -0.8004737050111983
340247 -0.3565198211571779 -0.7985967589539744
345150 -0.36596823526607747 -0.7928597551884456
350053 -0.376860345217982 -0.7893360925165983
354956 -0.3837302144943957 -0.7830850698962896
359859 -0.3946037125824138 -0.7775624839173519
364762 -0.40133650790550474 -0.7780920354229578
369665 -0.4105476355598838 -0.7694088993490976
374568 -0.41962221919167325 -0.7689208958179272
379471 -0.43169204053024196 -0.7644588008633915
384374 -0.43778242923541477 -0.7651428944702711
389277 -0.44239784066492704 -0.7557486397957118
394180 -0.4517571633615874 -0.753998045291762
399083 -0.46013910804089114 -0.7488066439071462
403986 -0.46695079991677735 -0.741727998529373
408889 -0.4741456581967802 -0.7431816828433787
413792 -0.4807897226579169 -0.7361106322294382
418695 -0.4879852222700535 -0.7306229450292712
423598 -0.49504969032626006 -0.7277989197509812
428501 -0.503328237103139 -0.7255629690372148
433404 -0.5092612605091658 -0.7231630997033628
438307 -0.5165996802067568 -0.713894461899509
443210 -0.5206867402736607 -0.7160422011528429
448113 -0.5259376227890857 -0.710323354265963
453016 -0.5320379431402201 -0.7064399653004649
457919 -0.5389896820200007 -0.7008443469238396
462822 -0.5465163809103446 -0.6982252751511072
467725 -0.550393367720103 -0.6929584461236794
472628 -0.556305581101099 -0.6900383607941891
477531 -0.5634563534100941 -0.687278237403134
482434 -0.5655225486401377 -0.6787455074183502
487337 -0.5719795456880211 -0.6819727987404182
492240 -0.5774320291861608 -0.6734926209656773
497143 -0.5840444848520714 -0.6725005855479376
502046 -0.5848601184382286 -0.6665090791298209
506949 -0.5910190904090448 -0.664109131357369
511852 -0.5941635108724459 -0.6632644973930052
516755 -0.6008077763569792 -0.6576591496406444
521658 -0.6065050144773192 -0.6561407926666832
526561 -0.609153215219251 -0.6496740398534945
531464 -0.6122572030982115 -0.6468588539419214
536367 -0.6208562007226844 -0.6437061860893487
541270 -0.6249160638288311 -0.6385153511414969
546173 -0.6252298205385852 -0.6386067153537835
551076 -0.6297092064296842 -0.6328366156913102
555979 -0.6333891099842678 -0.6286963581174844
560882 -0.6358045162370931 -0.6246017934479501
565785 -0.6411870892280482 -0.6222842361315939
570688 -0.6465568800383089 -0.6154190542640627
575591 -0.6512133178267605 -0.6159231398914758
580494 -0.6484833581348762 -0.6073618438202428
585397 -0.6515867008324254 -0.6061911773690387
590300 -0.6540703302548959 -0.6043220792895888
595203 -0.6610395629900051 -0.6013712344725662
600106 -0.6592326556509621 -0.601630361003262
605009 -0.6681294694725172 -0.600696088313192
609912 -0.6690787098640358 -0.5972239554593157
614815 -0.6721814496032089 -0.5934647396044446
619718 -0.6767127531116629 -0.5904046560050963
624621 -0.6802649681411779 -0.5870309440495095
629524 -0.6818653913071095 -0.5864329712067823
634427 -0.6875221843341274 -0.5838451364770187
639330 -0.6910413141722249 -0.5801867549511704
644233 -0.6940826849821905 -0.5754447638358927
649136 -0.6951672883715282 -0.5761998094428064
654039 -0.6982853015672432 -0.56981484214015
658942 -0.7072336470891647 -0.5689871587019595
663845 -0.7049274455110909 -0.56521415763903
668748 -0.7067753722022792 -0.5608139315498925
673651 -0.7097321842838114 -0.5609831535820986
678554 -0.712731689072074 -0.5561075599681279
683457 -0.715058266190822 -0.5568127215692638
688360 -0.7141328981151361 -0.551235123386039
693263 -0.7260301891490165 -0.551662550519082
698166 -0.7243242086202308 -0.5461307666809634
703069 -0.7276084352838262 -0.5417313070011825
707972 -0.7267707003453199 -0.5415869119007255
712875 -0.7300210925917785 -0.5352044936437282
717778 -0.7332193287865634 -0.5352971361045125
722681 -0.7349612944070414 -0.5328313636413725
727584 -0.7366248336428127 -0.5309658062302066
732487 -0.7387127595023841 -0.5289061720320083
737390 -0.7413757946565741 -0.5260970275010802
742293 -0.7439863353588922 -0.5255907312191453
747196 -0.7471543281058302 -0.5206289331155268
752099 -0.7487175555115664 -0.5164731050044231
757002 -0.7521247075523793 -0.5162888870634645
761905 -0.7517360381421382 -0.5136536889693062
766808 -0.7526828483247073 -0.5112755514655912
771711 -0.7537156675622237 -0.5088156042317734
776614 -0.7560560805235347 -0.5093815566027249
781517 -0.7597106954684584 -0.505058000082002
786420 -0.7639241256281076 -0.5013118200409729
791323 -0.7647039064775942 -0.5025276698721429
796226 -0.7675356020542102 -0.499443284364924
801129 -0.7653599433585359 -0.497788216048268
806032 -0.7699179713715917 -0.4923531096207479
810935 -0.7711870652601526 -0.4903362731571997
815838 -0.7704375818629974 -0.49305381081909244
820741 -0.7711235574420829 -0.4892985532314416
825644 -0.7745621109572389 -0.48618818711381073
830547 -0.7762361304678432 -0.4854857131138455
835450 -0.7796841274038248 -0.47914686231833525
840353 -0.7773460748010297 -0.4801239209119814
845256 -0.7798838575209777 -0.47629651503322584
850159 -0.7843021229159072 -0.4772480255885002
855062 -0.7847397355090501 -0.47369907968257047
859965 -0.7856737073017527 -0.47236653915026333
864868 -0.7876282760060269 -0.4697856254629056
869771 -0.7903948339960535 -0.47027671123749154
874674 -0.7908974203358242 -0.4670322188628694
879577 -0.7881728728118127 -0.46411990942621
884480 -0.7894485079891084 -0.4617530679588043
889383 -0.7935043721537581 -0.4562323968019256
894286 -0.7985534106253297 -0.4586757088905879
899189 -0.7990700100383017 -0.4545510282795381
904092 -0.8006588466069824 -0.4544494238873783
908995 -0.7997677034678322 -0.44968583222377007
913898 -0.8034446786434948 -0.4507066672034491
918801 -0.8018856288861838 -0.44623232050891304
923704 -0.8028447396290468 -0.4455447872633596
928607 -0.8056091347011243 -0.4434247908582084
933510 -0.8035384695134254 -0.4437553715816813
938413 -0.8072138653620645 -0.43801205888539
943316 -0.8058731275180121 -0.43776928341763405
948219 -0.8115743856118454 -0.44060934183420075
953122 -0.8100088728030294 -0.4361911820572811
958025 -0.8055968052657352 -0.43332474454914993
962928 -0.8125619462949586 -0.43196817718854696
967831 -0.813740541430725 -0.43216966799425827
972734 -0.8154639217607972 -0.4295797611505503
977637 -0.81321509895047 -0.42926196724994276
982540 -0.8141319853544073 -0.4261039131815819
987443 -0.8186479747659512 -0.4257741160321451
992346 -0.8194678646887252 -0.4240890213033033
997249 -0.8225171230392474 -0.4239203431636453
1002152 -0.8199443596017425 -0.4205917304093059
1007055 -0.8227845514731411 -0.4183776404297231
1011958 -0.8214291869832415 -0.4165784441869991
1016861 -0.8258514743848714 -0.4172511570884299
1021764 -0.8285383754298745 -0.41319663326796696
1026667 -0.8269806289227442 -0.41195415050595685
1031570 -0.8296313759330581 -0.41391427673266035
1036473 -0.825988106497591 -0.40942342905085105
1041376 -0.8318199368703931 -0.4099647093463538
1046279 -0.8275497463506829 -0.4085216803289991
1051182 -0.8321481066232354 -0.4074248760393382
1056085 -0.8371741097746342 -0.40315238149214233
1060988 -0.8341651613674211 -0.4062005760675642
1065891 -0.8349800360125988 -0.4000506899193333
1070794 -0.8371222619906271 -0.3997282353959458
1075697 -0.837498742326514 -0.4017495652835182
1080600 -0.8366539962938404 -0.3991725189220367
1085503 -0.8355163919064018 -0.39575064658409365
1090406 -0.838120272903891 -0.3951354740834948
1095309 -0.8421262105202197 -0.3932832217142118
1100212 -0.8419990842956699 -0.39671912480144106
1105115 -0.8400402701687442 -0.3896424239468145
1110018 -0.8431836296033484 -0.3870566844614163
1114921 -0.844439989017067 -0.3875608278355651
1119824 -0.8415200202285753 -0.3895813617509519
1124727 -0.8441599734665988 -0.3842547638428968
1129630 -0.8474752450117679 -0.3810456888371754
1134533 -0.8491139295582453 -0.3809517168640768
1139436 -0.8453499199818759 -0.38093340734940967
1144339 -0.8474662924198156 -0.3790324159934282
1149242 -0.8504721482579178 -0.3792980096583931
1154145 -0.8521439425190555 -0.3769461644638323
1159048 -0.8499164716591877 -0.3808441970925426
1163951 -0.8525346152199036 -0.3727493795102029
1168854 -0.8509301223802687 -0.3729669339805136
1173757 -0.8528268093067041 -0.37118678165433217
1178660 -0.8538843037468233 -0.37115851383140347
1183563 -0.8514579036877217 -0.3696558722170399
1188466 -0.8529034276198046 -0.3673777512367174
1193369 -0.8555826933781034 -0.370415677359093
1198272 -0.857154578348153 -0.36699846887164317
1203175 -0.8569169470955181 -0.36518501409067305
1208078 -0.8585993064985012 -0.3625318238056909
1212981 -0.8563248957297066 -0.36261195184918404
1217884 -0.8590781138997395 -0.36443513627621926
1222787 -0.8593912227531353 -0.35865021080886056
1227690 -0.8597790719234166 -0.3580076524593777
1232593 -0.8610677385731242 -0.3581466727502499
1237496 -0.861210082410822 -0.36020396195293897
1242399 -0.8610275131180267 -0.3557714806371326
1247302 -0.8625131813834848 -0.35622494312172887
1252205 -0.866519744264257 -0.35301492343327856
1257108 -0.8676174306548965 -0.35267715335588934
1262011 -0.8652400497729154 -0.3519825483246091
1266914 -0.8653917477383035 -0.3511421417688332
1271817 -0.8654406644583765 -0.35310441299044415
1276720 -0.8664734142397732 -0.34681017981140594
1281623 -0.8658731693821698 -0.345553471337621
1286526 -0.8626671295193702 -0.3478249948571464
1291429 -0.8668546063566426 -0.3460070108461914
1296332 -0.8695542884098233 -0.34172177900562056
1301235 -0.869007494586665 -0.3409607496736413
1306138 -0.875597414833943 -0.34563639817988934
1311041 -0.8697019594373909 -0.33853377391186007
1315944 -0.8677142901737438 -0.33786196791655004
1320847 -0.8684174259098116 -0.3398401571449062
1325750 -0.8699162866396105 -0.3385011402343969
1330653 -0.8681585539583979 -0.33615808314391504
1335556 -0.8735725288727579 -0.3369520468101806
1340459 -0.8728536491276274 -0.33789283552201793
1345362 -0.8727594635793398 -0.33385448634038245
1350265 -0.8737437974272562 -0.33385428896851077
1355168 -0.8733999767922737 -0.33510310238632135
1360071 -0.8750452383443006 -0.3329831962248513
1364974 -0.8765520560146771 -0.3289649270917506
1369877 -0.8769776990270325 -0.3290230420692482
1374780 -0.8767452654935748 -0.33273609393199666
1379683 -0.8804310677342316 -0.3267015611193099
1384586 -0.8759120124940575 -0.3282517296030098
1389489 -0.8791686168762507 -0.32785103837846974
1394392 -0.8786996083719428 -0.3284104443671141
1399295 -0.8769999839289457 -0.3252511347767519
1404198 -0.87874926198426 -0.3236968528326597
1409101 -0.8802558597117405 -0.32303356129273997
1414004 -0.8834464962169661 -0.31933354592661084
1418907 -0.8777769469235495 -0.32171647983276785
1423810 -0.8817697302498286 -0.31901334264450576
1428713 -0.8853416502441166 -0.3185292626027682
1433616 -0.8810802417342696 -0.3191890924919237
1438519 -0.8801765135702498 -0.31991952398996704
1443422 -0.8813739876772003 -0.3153262947063511
1448325 -0.8856916707036304 -0.3145236533407768
1453228 -0.8819226711972465 -0.31409117271280756
1458131 -0.8820286195483622 -0.31395578687636644
1463034 -0.8853926113081964 -0.31486750172283423
1467937 -0.8833011141893384 -0.3113044043924758
1472840 -0.8841059090807555 -0.3115440063097617
1477743 -0.8815110493736987 -0.3123078417475372
1482646 -0.8870742686230404 -0.30967578799637535
1487549 -0.8857137066829684 -0.3082349543670144
1492452 -0.887681472688108 -0.30463362140903444
1497355 -0.8877990434968918 -0.30600168191279
1502258 -0.8890144548141085 -0.3083885636465988
1507161 -0.8869502929142314 -0.3045191246864878
1512064 -0.8869706857595406 -0.30522111257876394
1516967 -0.8889475760027672 -0.30613712405009563
1521870 -0.8861072998935613 -0.30277389108436586
1526773 -0.8901126714209381 -0.30068591114917775
1531676 -0.8904399993534041 -0.29968473452540406
1536579 -0.8907659756869398 -0.2987525105384068
1541482 -0.8922617844118274 -0.30245226332237063
1546385 -0.8910384454147138 -0.2994309189574885
1551288 -0.8929804546728711 -0.2981245068335936
1556191 -0.8873833012537902 -0.29674203113400055
1561094 -0.8944852681579847 -0.2975251134831567
1565997 -0.8938228693911602 -0.2957519664221935
1570900 -0.8923796646287417 -0.29532109981216076
1575803 -0.8930840298426904 -0.30032801132773396
1580706 -0.8921396106925896 -0.29411609864240895
1585609 -0.89210518514187 -0.29572633096866524
1590512 -0.8935137137491405 -0.2909252700157455
1595415 -0.8961504873209108 -0.2931354636503925
1600318 -0.8922412607789426 -0.2914489928999536
1605221 -0.8985182791185075 -0.28946124151276204
1610124 -0.8981829267792468 -0.28767676418176175
1615027 -0.8959968504838606 -0.2868298008357263
1619930 -0.8948886689304948 -0.28587165495854155
1624833 -0.8948210045408237 -0.2888399588641998
1629736 -0.8971356474242974 -0.287980479543642
1634639 -0.898094999438069 -0.28448546166800065
1639542 -0.8985167365650549 -0.28562222706131085
1644445 -0.9008001379342864 -0.2843006189945062
1649348 -0.8952218436760971 -0.28343056677955447
1654251 -0.8969032336648066 -0.28476624997770433
1659154 -0.8993934556781424 -0.2789503839191013
1664057 -0.9003605284118473 -0.2814384535349877
1668960 -0.9018189253067577 -0.2790182047730982
1673863 -0.899946972732359 -0.28037767096342686
1678766 -0.9017383572548269 -0.28295664671541765
1683669 -0.9033357090951742 -0.279670423744195
1688572 -0.8979722719378488 -0.28071652947024095
1693475 -0.9044038784242141 -0.276066099276147
1698378 -0.8991440834703378 -0.27801945041213233
1703281 -0.900166710328122 -0.2760666010914225
1708184 -0.8998488431666194 -0.27912108945886854
1713087 -0.9024324547798283 -0.27474638390331096
1717990 -0.9000352812056568 -0.2753339639259634
1722893 -0.9033824928058289 -0.2727354051226779
1727796 -0.9036815435575468 -0.2715808212812873
1732699 -0.8991784473205696 -0.27094775148404193
1737602 -0.904476148985466 -0.273477130673828
1742505 -0.9037644127256002 -0.2713362152070839
1747408 -0.9050033285620418 -0.26915792610518385
1752311 -0.9015502917098415 -0.26866640666795033
1757214 -0.9067030677821074 -0.26871695217484465
1762117 -0.9024883157001146 -0.27305555920118524
1767020 -0.9043374767083104 -0.26705443015215463
1771923 -0.9084542921547242 -0.2669399691583974
1776826 -0.903303265080579 -0.2701137083026776
1781729 -0.9078532350198837 -0.2685159771303952
1786632 -0.9044240342726967 -0.2640574065489515
1791535 -0.9084395949895134 -0.26614036338465086
1796438 -0.9031460788969493 -0.2688125033197794
1801341 -0.9060753287801356 -0.26597889223867666
1806244 -0.9077360369597032 -0.2612958053231517
1811147 -0.9108343655712229 -0.26008269373180976
1816050 -0.9088304112882909 -0.2625000226918821
1820953 -0.9124109422266368 -0.2628745612835197
1825856 -0.907674168755495 -0.26216267439206703
1830759 -0.9103230209283659 -0.261481729542402
1835662 -0.9042102565631114 -0.2580959737902492
1840565 -0.9092261765916578 -0.25948268348314385
1845468 -0.9111950389081374 -0.2603113739628501
1850371 -0.9102555173325789 -0.2576629276858702
1855274 -0.9092537572917394 -0.2642805875773498
1860177 -0.9091704815693261 -0.2593506032836312
1865080 -0.9103479234135982 -0.2582659914006937
1869983 -0.9092691775203768 -0.25931990692658896
1874886 -0.9079208352249964 -0.26011604271527006
1879789 -0.9099719611117197 -0.2571586460335651
1884692 -0.9086240898678076 -0.2557124709298737
1889595 -0.9111192033423211 -0.25607058965926593
1894498 -0.9096273757921965 -0.2512821536426607
1899401 -0.9134018332623807 -0.25272475422833174
1904304 -0.909975089971796 -0.24982876215237065
1909207 -0.9135589014198809 -0.25470705475433714
1914110 -0.9107835715948897 -0.25185987303229374
1919013 -0.9152316247885554 -0.25035030309691786
1923916 -0.9126409893310986 -0.250616648393573
1928819 -0.9117447124517849 -0.251474217938167
1933722 -0.9135097626935041 -0.25002992975603033
1938625 -0.9137851861883401 -0.24907747661309745
1943528 -0.9125418996399309 -0.2497289445607841
1948431 -0.9145475187005453 -0.24742037080679088
1953334 -0.9148912812904032 -0.24581707561350222
1958237 -0.9128024735491844 -0.2495171887860816
1963140 -0.9132908018505921 -0.24537483488889889
1968043 -0.9124234931683304 -0.2500118372741201
1972946 -0.9141758727743255 -0.24707086680330845
1977849 -0.9176383493932735 -0.24698383391098191
1982752 -0.9134046923873492 -0.24632089202304938
1987655 -0.9141426594911415 -0.2447611964608898
1992558 -0.9130058285446889 -0.2431467951557651
1997461 -0.9154199511271686 -0.245079081004836
2002364 -0.9143118993303508 -0.2469493409681192
2007267 -0.9142187381983318 -0.241164801008346
2012170 -0.9173053364567688 -0.24114347832488042
2017073 -0.9162442637646345 -0.24379706871271786
2021976 -0.9161988482973076 -0.24360329572628173
2026879 -0.9165674908677944 -0.24272551292322855
2031782 -0.9161896749809496 -0.24175589509318393
2036685 -0.9161312300029822 -0.2404552326354381
2041588 -0.9162251356382776 -0.23726376325999382
2046491 -0.92007042682249 -0.23886333557800937
2051394 -0.9181361893641459 -0.23862219114510366
2056297 -0.919957648922333 -0.23648627406262393
2061200 -0.9194651442341429 -0.23737511264191707
2066103 -0.9185329526245448 -0.2344061857152772
2071006 -0.9160874159292506 -0.23703272648151769
2075909 -0.9205849410235736 -0.23679747536733725
2080812 -0.9175612519005094 -0.23523273746823103
2085715 -0.9173243792847131 -0.23407305110898843
2090618 -0.9221115940923069 -0.2405356660984499
2095521 -0.9209442863128218 -0.23239432337617816
2100424 -0.9144824248652068 -0.23595482391459977
2105327 -0.9201838221719296 -0.23242204391656676
