# HZ S RI R 50
100000 0.5428520449028573 -0.7192565676685573
104903 0.5157727464077009 -0.7357818969185849
109806 0.48777385166654436 -0.7513533023175547
114709 0.4561068690161474 -0.7667150052934784
119612 0.4311078694298399 -0.7793429336536922
124515 0.4074151168025789 -0.7902371852965413
129418 0.3793441954680684 -0.8029795509874262
134321 0.35330227364537403 -0.8096813598527002
139224 0.3283564430176802 -0.8212658653198954
144127 0.2987294408870302 -0.8321077902261996
149030 0.27670350043716063 -0.8358803569384035
153933 0.2513513770714362 -0.8410829164845537
158836 0.23025817830230844 -0.8470188343864365
163739 0.20603558911039263 -0.8526180901273447
168642 0.18437717014424013 -0.8557518651027337
173545 0.16183042936566097 -0.8602609811825956
178448 0.14077863706580762 -0.862359783882551
183351 0.1170148250150859 -0.8641985402299802
188254 0.09571168587088738 -0.865325822623683
193157 0.07437067261475121 -0.867302226798081
198060 0.05651878540981466 -0.8669903955674824
202963 0.035064196076425816 -0.869626336699874
207866 0.016524632420127666 -0.8713897279343921
212769 -0.004292062452963908 -0.8673162594637607
217672 -0.02066537620570969 -0.8687917744676545
222575 -0.040089097874041545 -0.8689524240439161
227478 -0.058378755049957695 -0.8699742407304365
232381 -0.07211489601853484 -0.866537388101113
237284 -0.08968944257598757 -0.8634616670268281
242187 -0.10690820217169149 -0.8634239394509585
247090 -0.12180858163331286 -0.8581842251749148
251993 -0.13427436594460448 -0.858501128000572
256896 -0.1529019880404806 -0.8552420241159404
261799 -0.16811813459887948 -0.8524197094910089
266702 -0.18183470884288624 -0.8487532846257482
271605 -0.19781054599248482 -0.8449211864453772
276508 -0.21045316069023412 -0.8427108298456
281411 -0.2251795616427366 -0.8419970507498044
286314 -0.2374802110163672 -0.8389926719352758
291217 -0.24693622167975243 -0.8333780631507376
296120 -0.25974759295965827 -0.8318468234028128
301023 -0.27178785370296765 -0.8236867857520461
305926 -0.2853554406051932 -0.8230460030396709
310829 -0.29399434340368835 -0.8214649953042837
315732 -0.305255969626145 -0.8174580073474056
320635 -0.3204705685546877 -0.8125850602821725
325538 -0.3301970528895243 -0.8091382462241797
330441 -0.3386638346398068 -0.8035147359799147
335344 -0.35055780271749354 -0.8009842238280327
340247 -0.3613625726470273 -0.7979143912577287
345150 -0.36801905188052236 -0.794315672397269
350053 -0.3812927276520416 -0.787547392035016
354956 -0.38822859162097345 -0.7839529179487196
359859 -0.3961979847254106 -0.7780161277218689
364762 -0.4067276464931736 -0.7770158248657465
369665 -0.4146378960418908 -0.7696765397971241
374568 -0.42148708924436873 -0.7683514125425296
379471 -0.43225477639593013 -0.7636844436609224
384374 -0.44086566555352447 -0.7661767814564834
389277 -0.4457962516672952 -0.7567197012930696
394180 -0.4566493616748088 -0.7503524815774943
399083 -0.46114694086897334 -0.7484244193872173
403986 -0.47138917033209304 -0.7434921397698806
408889 -0.4750113310436214 -0.7415670458928957
413792 -0.4844755878883449 -0.7339311917354852
418695 -0.4915523921527009 -0.7317328346359281
423598 -0.49631690901474346 -0.7267907597394496
428501 -0.5091518562851075 -0.7225987001789422
433404 -0.5101800422140039 -0.7186886827613047
438307 -0.5197939222123711 -0.7141818384430695
443210 -0.5217085991899943 -0.7141723143187505
448113 -0.527829090664738 -0.7066805235010405
453016 -0.5334341342833844 -0.7055392957869798
457919 -0.5398914955936798 -0.6978376695917144
462822 -0.5464207491434904 -0.6949282035114442
467725 -0.5505225876131361 -0.6909409502328989
472628 -0.5572768088836314 -0.6901953936947297
477531 -0.5642462224656092 -0.6833268670187214
482434 -0.5668738797286337 -0.6782572556291118
487337 -0.5717908480217586 -0.6799231879296667
492240 -0.5763461783654192 -0.6747413627087308
497143 -0.5847754845496245 -0.6698190863861576
502046 -0.587859780302756 -0.6678819771017579
506949 -0.5919405646884152 -0.6645905600522508
511852 -0.5959980358169701 -0.6611187913443554
516755 -0.6033377015373219 -0.6564719733476206
521658 -0.6060662036750533 -0.655564733574549
526561 -0.6103432115606185 -0.6481228611589441
531464 -0.6149968714739308 -0.6476733085642573
536367 -0.6195573475302824 -0.641838380449917
541270 -0.6235156803711882 -0.6388248870352597
546173 -0.6255791115402316 -0.6376603483528002
551076 -0.630669243698508 -0.635094673649012
555979 -0.635408009001592 -0.6309728348940261
560882 -0.6365511513554195 -0.6266255643358303
565785 -0.6406758975408141 -0.6220948721452901
570688 -0.6478753387304594 -0.619308857048133
575591 -0.6527740721789225 -0.6178999287903401
580494 -0.6536000464058404 -0.6100222637213517
585397 -0.655601682376331 -0.6088666181037596
590300 -0.658539169272063 -0.6048071080858023
595203 -0.665791637868065 -0.6054282460557743
600106 -0.6668186404956167 -0.6031212882471136
605009 -0.6739250377175877 -0.5998949311677468
609912 -0.6740726823749881 -0.5950718432201187
614815 -0.6766550943307723 -0.5946179730528725
619718 -0.679269839320259 -0.5898165060239741
624621 -0.6842664832613413 -0.5859133789917357
629524 -0.6881679731360115 -0.5815296014746267
634427 -0.6904669577834995 -0.5820513680413308
639330 -0.6932785434982016 -0.5784240778030001
644233 -0.697728449837948 -0.5726644921346867
649136 -0.6976602260399662 -0.5751540893299909
654039 -0.6998427498737668 -0.57000740236251
658942 -0.7078211435865324 -0.5662989906530906
663845 -0.7095195598059931 -0.5651305468767791
668748 -0.7104818973695699 -0.559932605125332
673651 -0.7105634975679188 -0.5558693042989321
678554 -0.7155183790098791 -0.5522305133869567
683457 -0.7173285681024388 -0.5562542713860839
688360 -0.7172963680762112 -0.5493982497615302
693263 -0.7241772099172953 -0.5460117706794316
698166 -0.7282399674296851 -0.543757371988884
703069 -0.7272179250726573 -0.5403329233001067
707972 -0.7295510775435848 -0.5387964695728743
712875 -0.7305795929649881 -0.5366631463775677
717778 -0.7340937216876927 -0.5350408534844067
722681 -0.7347090784242142 -0.5307082182559564
727584 -0.7371867552536465 -0.5293244815640975
732487 -0.7410431553804983 -0.5275832697080817
737390 -0.742978798759817 -0.5218070448004156
742293 -0.7468435260129934 -0.5212321065322418
747196 -0.7482826408348607 -0.5198990814422265
752099 -0.751428021266876 -0.5134942051655145
757002 -0.7526242574390914 -0.5139510165084853
761905 -0.7556023977740607 -0.5108235230067565
766808 -0.7544219858456814 -0.5106329767417043
771711 -0.7578139638356204 -0.5048319550878323
776614 -0.7592884947625227 -0.5073120646922101
781517 -0.7587075883564383 -0.5037286889574547
786420 -0.7636345227068 -0.49862544889884164
791323 -0.7653404967045414 -0.49867686668891525
796226 -0.7673173656574368 -0.49694012987730246
801129 -0.7681604348695981 -0.49344897767163465
806032 -0.7727087856663376 -0.49324715630585275
810935 -0.772463744505196 -0.4911338227891106
815838 -0.7745620927606747 -0.4895704009450786
820741 -0.7737370984319227 -0.48446352919926927
825644 -0.7750611783327057 -0.48544997444361554
830547 -0.7773327226971366 -0.48268603562981144
835450 -0.7839643351786928 -0.4786275086570858
840353 -0.7803787365769368 -0.47931413921326965
845256 -0.7835115806372868 -0.4743389990451413
850159 -0.7857991258157274 -0.4740036068236731
855062 -0.7834022889291151 -0.47108886101944436
859965 -0.7872473924293809 -0.4715103328775787
864868 -0.7874637090426111 -0.467014750026363
869771 -0.7910045727812463 -0.46844611073509457
874674 -0.7921965101021575 -0.4649973228762217
879577 -0.7907037595908347 -0.4619163573972847
884480 -0.7902372201900247 -0.45749813354994245
889383 -0.7964792836625545 -0.45559104054724797
894286 -0.7977182200081657 -0.4551780102862091
899189 -0.7983265285759401 -0.4541655848953904
904092 -0.7993120015406654 -0.4512042872888671
908995 -0.8007923468599221 -0.4483879959497663
913898 -0.8030647270437805 -0.4487929889281025
918801 -0.8036318349651496 -0.44483143149706106
923704 -0.80114401027376 -0.4454791135465466
928607 -0.8056258527645838 -0.4411623571823128
933510 -0.8059289339420029 -0.4413109606937479
938413 -0.8097524739299479 -0.4376132847705697
943316 -0.8072760693354252 -0.4364353955067068
948219 -0.8098958439357044 -0.43850172693617934
953122 -0.8138285380473497 -0.43502132983740827
958025 -0.8109861762151802 -0.43295001838542363
962928 -0.8133948759042757 -0.4313314675463935
967831 -0.819205715074285 -0.43040588347467884
972734 -0.8174728276707263 -0.4288032546096624
977637 -0.8156884085307918 -0.4268598917308917
982540 -0.8182975176150905 -0.4238749198403762
987443 -0.821443027241861 -0.422278661383331
992346 -0.8219547630316663 -0.42096335656083844
997249 -0.8232240371130997 -0.4214824394895804
1002152 -0.8208917206752709 -0.4145758117213194
1007055 -0.8234844365895111 -0.41491153076740955
1011958 -0.82384226470893 -0.41525973947650313
1016861 -0.8267740879787263 -0.41593472776879153
1021764 -0.8285709249157144 -0.4122304230122377
1026667 -0.8279825735369971 -0.4114642598326832
1031570 -0.8293842972774319 -0.4093802681864273
1036473 -0.8271717567251562 -0.40416618560398315
1041376 -0.8316398111812607 -0.4072032493902098
1046279 -0.8289893570328263 -0.40525190281377843
1051182 -0.8318011834090028 -0.40240430839579455
1056085 -0.837304961065018 -0.4007056560868904
1060988 -0.8346699836331235 -0.40235376115501315
1065891 -0.835790785058573 -0.4012836305009498
1070794 -0.836717106374945 -0.39887442279330293
1075697 -0.8368143115723179 -0.39851788051426823
1080600 -0.836962702384747 -0.39274067529066814
1085503 -0.8353117461467328 -0.3915546378798652
1090406 -0.8385460394855013 -0.39260708047535237
1095309 -0.8420716619796389 -0.3889803426780745
1100212 -0.8451287596244993 -0.3935291601349014
1105115 -0.8407975748145952 -0.38524002215685565
1110018 -0.843473827605609 -0.38699564823839755
1114921 -0.8413561166709821 -0.3834202931325868
1119824 -0.8431574404618959 -0.3866444803473247
1124727 -0.8458124374579578 -0.38296812117369194
1129630 -0.8465157230121084 -0.37900025831805817
1134533 -0.846884418207706 -0.3787283236129954
1139436 -0.8490394467941027 -0.3827143696877151
1144339 -0.8490021862234091 -0.3765016566763601
1149242 -0.8490472367661345 -0.3790500688658171
1154145 -0.8514900185941013 -0.37376427763652426
1159048 -0.8535739346003275 -0.37691190524717366
1163951 -0.8525830293381059 -0.3719153750083003
1168854 -0.8501653312549303 -0.3708669650989857
1173757 -0.8529744310467484 -0.36828580356635227
1178660 -0.8541434503602786 -0.3684198995894662
1183563 -0.8533515089957016 -0.3672500860085108
1188466 -0.8534654482910904 -0.3652885833233538
1193369 -0.8570086808299054 -0.36787958880219945
1198272 -0.853563197269872 -0.3639672789503042
1203175 -0.8597785498847131 -0.3655910354059186
1208078 -0.8576132767672954 -0.3575079313789525
1212981 -0.858139718120985 -0.3597829644978686
1217884 -0.8554307692386356 -0.3581723418827564
1222787 -0.8602209575438401 -0.3574713191420086
1227690 -0.8580418490149082 -0.35409571883063956
1232593 -0.8623841155637344 -0.3568525954311698
1237496 -0.8603209265910462 -0.35540218318600014
1242399 -0.8611344275409153 -0.35258893396661556
1247302 -0.8612759662475725 -0.35498795630073426
1252205 -0.8642683527032469 -0.3524153116919694
1257108 -0.8661961955009709 -0.3497473435774758
1262011 -0.8654227144287328 -0.3493872691067748
1266914 -0.8671864711070422 -0.34700478830965914
1271817 -0.8668141941238062 -0.35148159271034274
1276720 -0.8676803928579069 -0.3454309241276389
1281623 -0.8674175482900593 -0.34334306146918053
1286526 -0.8636356720567329 -0.34453380170144987
1291429 -0.8692516368584181 -0.3417462822099267
1296332 -0.8724614173870745 -0.3385298160015129
1301235 -0.8696591202231895 -0.34090608476295375
1306138 -0.8703057656532884 -0.34130728793515086
1311041 -0.8703858994594608 -0.3381444040058128
1315944 -0.8669456296244962 -0.33701797574381576
1320847 -0.8708926263393719 -0.3370655677501969
1325750 -0.8720415599381819 -0.3389358032160207
1330653 -0.8700081400608124 -0.3327072630795691
1335556 -0.8751936529981629 -0.3332289801294361
1340459 -0.8742510964283777 -0.33392099272597486
1345362 -0.8718124602704644 -0.33134140952940794
1350265 -0.8727083475630432 -0.3332898356473803
1355168 -0.8760757905729877 -0.3291398765992048
1360071 -0.8758220390364385 -0.32756273045528517
1364974 -0.8760370158448325 -0.3290164543202924
1369877 -0.8792582840900778 -0.32881360431140355
1374780 -0.8758107442785684 -0.3300053030132705
1379683 -0.8814562114324997 -0.32246727430575256
1384586 -0.876927536799682 -0.3226820691616064
1389489 -0.8772710774894766 -0.3218744214000885
1394392 -0.8782242936921669 -0.3210254248100686
1399295 -0.8754999330077756 -0.3237793580469427
1404198 -0.877834613463114 -0.32258435930817864
1409101 -0.8813907574491652 -0.3191383447929421
1414004 -0.881831001470846 -0.32095821525740437
1418907 -0.8798981145697942 -0.3192313339689135
1423810 -0.8810768864868799 -0.31703783076962283
1428713 -0.8823702149660465 -0.3174537113770643
1433616 -0.8810278758377255 -0.31792155406024425
1438519 -0.8825741768884248 -0.31804412476624006
1443422 -0.8845293220300068 -0.3142707235002109
1448325 -0.8829975813983617 -0.3137781280879036
1453228 -0.882509928426044 -0.3112490240403258
1458131 -0.8805218572196416 -0.3128376317804642
1463034 -0.8851031923749461 -0.31262311407909565
1467937 -0.8823447413365663 -0.3084287430444961
1472840 -0.8852963798184241 -0.30886127409311415
1477743 -0.8859742920307296 -0.3079578749737622
1482646 -0.8850164633075971 -0.30536139791367223
1487549 -0.8869337836016747 -0.30670452598245224
1492452 -0.8857093810413511 -0.3067213362176602
1497355 -0.8884091545893774 -0.30478217723710344
1502258 -0.8890056133737206 -0.3016522473367794
1507161 -0.8866950309687288 -0.3034783745250509
1512064 -0.8890943027451691 -0.30557240464654073
1516967 -0.8903159441143347 -0.3008584586424624
1521870 -0.8857652622898264 -0.3017174471062223
1526773 -0.8873365446022233 -0.30125713601358906
1531676 -0.8890716663251244 -0.2989102430821868
1536579 -0.8913086646121782 -0.2970861812243893
1541482 -0.8884811976687615 -0.2983829207440029
1546385 -0.8911840177513832 -0.2975621472474257
1551288 -0.8907376344970421 -0.29645818815796643
1556191 -0.8905630819375623 -0.29530044695979
1561094 -0.8921364487898428 -0.2947981049521682
1565997 -0.8932831954852194 -0.29379782606961624
1570900 -0.8917634807646438 -0.2945441006865993
1575803 -0.8936533533636802 -0.29395316497655116
1580706 -0.8908477203287486 -0.2929559484227641
1585609 -0.8928971695883475 -0.2932543572242077
1590512 -0.8928886297949142 -0.287654337249632
1595415 -0.8953106434306924 -0.2918158726789203
1600318 -0.8918765577967955 -0.28835444915813097
1605221 -0.8989557107154441 -0.28772479301155757
1610124 -0.8975807150285443 -0.2878503791728822
1615027 -0.8955619193556679 -0.2879500699576092
1619930 -0.8936199982350509 -0.2861388953053389
1624833 -0.894894489891819 -0.28691440129092644
1629736 -0.8947056122001107 -0.28527570755266946
1634639 -0.8959010396067864 -0.2822070425055148
1639542 -0.8981155561660955 -0.2852400858911616
1644445 -0.899180241573411 -0.2851432820574669
1649348 -0.898701666854848 -0.27994398562179873
1654251 -0.8961703398520954 -0.28204645427916347
1659154 -0.8999924149371842 -0.2780591095184607
1664057 -0.9011331440760186 -0.28006868754162845
1668960 -0.9000364050312472 -0.2775921808955963
1673863 -0.8988237657611928 -0.2808735436134971
1678766 -0.8984982723249749 -0.2796262823014158
1683669 -0.903301621814095 -0.27785937206344724
1688572 -0.9003298368372212 -0.27951927507032104
1693475 -0.9028303865100921 -0.2751469673352299
1698378 -0.8969031273607472 -0.2745473646500205
1703281 -0.9013283139590189 -0.2728819178908038
1708184 -0.8985686164940456 -0.2775412968319082
1713087 -0.9032375936032925 -0.2709590530839651
1717990 -0.8997548513896831 -0.2751227136532786
1722893 -0.9034707814245408 -0.2744009840240649
1727796 -0.9007384350419575 -0.2704354275254191
1732699 -0.9005593594308893 -0.270837535256231
1737602 -0.902664607047733 -0.27034047737968625
1742505 -0.9063635048012255 -0.27068246910157334
1747408 -0.905007152720847 -0.2658448666593353
1752311 -0.901419927268228 -0.26688400144757574
1757214 -0.9088792810028834 -0.2635177587714797
1762117 -0.9029280833652402 -0.26902579282731426
1767020 -0.9025797946590325 -0.2666268689628163
1771923 -0.9032607295478521 -0.2646251448176919
1776826 -0.9070560763766594 -0.2669148673710566
1781729 -0.9040920560368992 -0.26430278084532677
1786632 -0.9056053902283132 -0.26678140189230226
1791535 -0.9049394538752933 -0.26265140172133683
1796438 -0.9058732956739307 -0.2677932433279609
1801341 -0.9062289469400568 -0.2616842204093851
1806244 -0.9064705341947068 -0.2614333184375165
1811147 -0.908132919103625 -0.25966876223965873
1816050 -0.9098311649314337 -0.2598016525981909
1820953 -0.9069063086795558 -0.26403091531493494
1825856 -0.9056393970254658 -0.25657616808294126
1830759 -0.9101821219303333 -0.2614776019344768
1835662 -0.9030243999544187 -0.2555327899096608
1840565 -0.9096676772423609 -0.2607887701664912
1845468 -0.9103675053201381 -0.25571842839828957
1850371 -0.910925630725502 -0.2561427971172664
1855274 -0.9077164348712935 -0.25766098723806535
1860177 -0.9083970312230941 -0.25416429335706675
1865080 -0.909451817567917 -0.25608983963113857
1869983 -0.9091491308861214 -0.2573437150458808
1874886 -0.9084440467560472 -0.2546454260335993
1879789 -0.9107373882317924 -0.25755471959216386
1884692 -0.9074322297265236 -0.25326320452488543
1889595 -0.9114995671977816 -0.2527466380323426
1894498 -0.9105290697617759 -0.2512215482670862
1899401 -0.9108180811403217 -0.2527818609733827
1904304 -0.9091517867971498 -0.2537758428132228
1909207 -0.9137904338833926 -0.2521801430034675
1914110 -0.9119482005953022 -0.2509671194167647
1919013 -0.9150063076319552 -0.24981714185874185
1923916 -0.91225610533531 -0.24917539949239353
1928819 -0.9096812487819177 -0.24850852017349503
1933722 -0.9111627146478779 -0.2450225925969679
1938625 -0.9149447851198137 -0.24764112669004734
1943528 -0.9116912540749533 -0.24767978977217506
1948431 -0.9110514420290632 -0.24465706343292293
1953334 -0.9150444316967421 -0.24638635251234733
1958237 -0.9132102809297385 -0.24569988948397778
1963140 -0.9149741793505641 -0.2441692799242868
1968043 -0.9124091495233937 -0.24768694404340616
1972946 -0.9122798158641247 -0.24523539055065177
1977849 -0.9173473708795498 -0.24435409999596563
1982752 -0.9127353249068574 -0.24256373663806033
1987655 -0.9140898296280541 -0.24116863514372178
1992558 -0.9158057946159099 -0.2433543130795112
1997461 -0.9153528300428201 -0.2419099754777474
2002364 -0.913275607684753 -0.24429273638227106
2007267 -0.9102742304070071 -0.23836522866025278
2012170 -0.9172724782392049 -0.23892997377063144
2017073 -0.9115205532388453 -0.2411122798244232
2021976 -0.915699726593941 -0.23852335154668577
2026879 -0.9176752226606999 -0.2383306031407819
2031782 -0.9158947259869908 -0.23637382306803967
2036685 -0.9155458953788449 -0.2369934246993659
2041588 -0.9169089396104951 -0.23316167750248318
2046491 -0.9209474615465321 -0.2371760976166659
2051394 -0.9161666803699055 -0.234061483802075
2056297 -0.9153468759678803 -0.23981187697580766
2061200 -0.9171880196898403 -0.2336775370191199
2066103 -0.9186870558367479 -0.2326650493853982
2071006 -0.9145077211341228 -0.23693920072228242
2075909 -0.9193663902725526 -0.23837144608294425
2080812 -0.9145347348628886 -0.23851499320022188
2085715 -0.9195784120310125 -0.23101075682692346
2090618 -0.9175698464729646 -0.23376111467643265
2095521 -0.9173834758592556 -0.2328162556867587
2100424 -0.9180539219117653 -0.23632425549395944
2105327 -0.9168624795987602 -0.23044062502609078
