# HZ S RI R 50
100000 0.5252677095622161 -0.7192698933206968
104903 0.4981762369729273 -0.7353437700058635
109806 0.4693643333231676 -0.7511508991245411
114709 0.43668970265615786 -0.7672244527156247
119612 0.40924559254704485 -0.7773546772157678
124515 0.3817365949666843 -0.7894979983549577
129418 0.3514826235260035 -0.8017569746731003
134321 0.3236436665250299 -0.8080209184532704
139224 0.29338274531541236 -0.8179809232292261
144127 0.2605236946216191 -0.8273634014603994
149030 0.23322673298348165 -0.8276519704934565
153933 0.20454808640861238 -0.8316547333005866
158836 0.17634181623721093 -0.8347172086754561
163739 0.14526294071721563 -0.8340122619040213
168642 0.11696349374710184 -0.8292396459319067
173545 0.08809979040279288 -0.8252465655848682
178448 0.06414322304498454 -0.8161796950431022
183351 0.03441291449459074 -0.804944844892535
188254 0.006618466002567286 -0.7892913802247252
193157 -0.019563465456585518 -0.7685841726870024
198060 -0.03967485234361329 -0.7416144871600132
202963 -0.0543622424655649 -0.6994893113934636
207866 -0.038603254966003545 -0.6586534090395175
212769 -0.001056690391046049 -0.6183222443900765
217672 0.06584798295354002 -0.6128431467245035
222575 0.12872045546726416 -0.6746970064363925
227478 0.1204317042670024 -0.7490043471144072
232381 0.08883583210047288 -0.79077022211085
237284 0.055506872041986455 -0.8133636732493678
242187 0.023578408159390378 -0.8291804846162388
247090 -0.0011059221399983984 -0.8350100226646712
251993 -0.025913517206944243 -0.846435302896379
256896 -0.04848533871646659 -0.8471102145778584
261799 -0.07271712172848874 -0.8511713796905165
266702 -0.09390155083137103 -0.8538595306568885
271605 -0.11753873849607535 -0.8498131671070722
276508 -0.13570826575380762 -0.8483173097520167
281411 -0.15606411586526867 -0.8475206275478924
286314 -0.17421623550895177 -0.8447038125086043
291217 -0.1863478861130608 -0.8392539729574028
296120 -0.20369919698338448 -0.8373199607409567
301023 -0.21561065829624773 -0.8306567479255355
305926 -0.23000034692404062 -0.8253181531494718
310829 -0.23640744778177322 -0.8219203975016341
315732 -0.24930383709530007 -0.8218542582460598
320635 -0.2616711258545737 -0.8209173746851643
325538 -0.27343456392683363 -0.8176812175362992
330441 -0.28441611450037335 -0.8194717856599264
335344 -0.29747350007220236 -0.8120727109479032
340247 -0.3133930205906568 -0.8119332684514703
345150 -0.32308853801054077 -0.809485567834931
350053 -0.33594716634508254 -0.8043011733051517
354956 -0.3440942436514133 -0.7997656690027349
359859 -0.3584105917776201 -0.7944853113895167
364762 -0.36585629340940184 -0.7921440537523812
369665 -0.37619947525606434 -0.784535014859929
374568 -0.38453809757594143 -0.7843612124633966
379471 -0.39938782056040045 -0.7814636173105415
384374 -0.4070432271193424 -0.7797002651884226
389277 -0.412048768180892 -0.7706197645611298
394180 -0.42440496656351945 -0.7697202819115134
399083 -0.4315118536831561 -0.7633735425236263
403986 -0.4396491345320629 -0.758092954274033
408889 -0.44757922201569733 -0.7552621742566655
413792 -0.4558026386605544 -0.749535520359903
418695 -0.4632869705818182 -0.7447118417347616
423598 -0.4709884343056849 -0.7405212873042051
428501 -0.48131362505769865 -0.7358937791219109
433404 -0.4853040785965372 -0.7331470405087986
438307 -0.49610540925928187 -0.7262431882871557
443210 -0.4988084871857995 -0.7264435274863219
448113 -0.5070245327747512 -0.7213584684595535
453016 -0.5134281115184591 -0.718111492855163
457919 -0.5176442323719628 -0.7093985960537948
462822 -0.5271993771578767 -0.7064221777248308
467725 -0.5339368714300975 -0.7009951775611193
472628 -0.5403118673953599 -0.69799881994229
477531 -0.5485867045420384 -0.6932152737104316
482434 -0.5502630239727803 -0.6868700576205296
487337 -0.557166961533857 -0.6881733628672687
492240 -0.5606995951156406 -0.6780984600769661
497143 -0.5673433831585531 -0.6769210553809953
502046 -0.5706751170017219 -0.6739064531091716
506949 -0.5750307051456472 -0.6654280990437821
511852 -0.5785737331463503 -0.6649124207458573
516755 -0.5867351061661414 -0.6609355042918188
521658 -0.5923685570401727 -0.6566226318085636
526561 -0.5947326948440705 -0.6498741719536885
531464 -0.6013506811693032 -0.6435337193770087
536367 -0.6051650371598346 -0.6399739343401252
541270 -0.6085567945290584 -0.6332711423694168
546173 -0.6167714172122138 -0.6330854412054696
551076 -0.6200898799137741 -0.6225367949287802
555979 -0.6231445992717622 -0.6145611720147999
560882 -0.6208165113084197 -0.605836678406354
565785 -0.6261577049948192 -0.5942958913105734
570688 -0.6246491445194078 -0.5873990822914622
575591 -0.6143365853174302 -0.5790639562208177
580494 -0.5996260146193372 -0.577810172884802
585397 -0.5912858697160288 -0.5860748987363787
590300 -0.5903238680944579 -0.5972439170041903
595203 -0.5973978343088604 -0.6105430525764342
600106 -0.6040306784722739 -0.6137453307319866
605009 -0.6143740624115721 -0.6187342970905553
609912 -0.6218456233404673 -0.618725340405959
614815 -0.6272675545961337 -0.6191237739184843
619718 -0.6372149710479261 -0.616206072754134
624621 -0.6444845736856968 -0.612704903344833
629524 -0.6503232360464402 -0.6098029415668157
634427 -0.655628733094854 -0.6084453410214563
639330 -0.6621059782213911 -0.6060510649667732
644233 -0.6688208950961423 -0.5975265667383938
649136 -0.6722172521702247 -0.5994851113207035
654039 -0.6741868334771824 -0.5944545228847599
658942 -0.683730098674879 -0.5896364903213294
663845 -0.6813423639112551 -0.5873728451384047
668748 -0.6859847104389615 -0.5810230159374143
673651 -0.6891371699168142 -0.5768835844283858
678554 -0.6952184596297387 -0.5750847297773706
683457 -0.6949018490433903 -0.5742101549239607
688360 -0.6958967625329416 -0.5703618341908048
693263 -0.7041416209910413 -0.567194020665271
698166 -0.7064811765312919 -0.5661420695578915
703069 -0.7074466863013047 -0.5628027659539888
707972 -0.7138045235724448 -0.5627813838510194
712875 -0.7168031861831239 -0.5565055988384798
717778 -0.719310588614902 -0.5557650422236887
722681 -0.7204677829973678 -0.5494178000276683
727584 -0.7248073674620138 -0.545058682062229
732487 -0.7259764558413436 -0.5444826807305246
737390 -0.7288799105152772 -0.5393057335823931
742293 -0.7307889117414685 -0.5385438378711881
747196 -0.7346541137645498 -0.5354659782719334
752099 -0.7369317008686593 -0.5308899503678219
757002 -0.7426300426353505 -0.5300392819130196
761905 -0.7400580834236667 -0.5273232701059481
766808 -0.7429633845763658 -0.5238989879729632
771711 -0.744507841917149 -0.5216653808900061
776614 -0.7467910835747705 -0.5189627530595318
781517 -0.7514729965692087 -0.5178815869647254
786420 -0.7530991001158361 -0.5128233430909955
791323 -0.7573994692675666 -0.5130496915086894
796226 -0.757727701506778 -0.5086677450884053
801129 -0.758176125373672 -0.5057357218229386
806032 -0.7600246791963419 -0.5010733265884397
810935 -0.7638878012800088 -0.5020807094821792
815838 -0.7616691164964454 -0.5029887608554745
820741 -0.7618835076297683 -0.4986102879258592
825644 -0.7663599111887666 -0.4957450976426781
830547 -0.7678883015004642 -0.49352320710386866
835450 -0.7726823397270024 -0.48908667955034973
840353 -0.7683392023292062 -0.48808857722138016
845256 -0.7757055613219268 -0.484535475575584
850159 -0.7767034388270063 -0.48317577165802267
855062 -0.7755064259171548 -0.48067839847465343
859965 -0.7795346120471714 -0.47881786138845117
864868 -0.7816689845653578 -0.4735121728725421
869771 -0.7811059253399316 -0.4765569528917754
874674 -0.7832429628804004 -0.47174864531492033
879577 -0.7838078263325197 -0.4695824870854522
884480 -0.7859564302531423 -0.4684704595732904
889383 -0.7889686501457134 -0.4616811971047188
894286 -0.7876056064391298 -0.46112523037598024
899189 -0.793119985573316 -0.4583240127305056
904092 -0.789908790307815 -0.4539919978952309
908995 -0.7945696764604954 -0.4503323118575936
913898 -0.7942391500782137 -0.45107838530287636
918801 -0.7960792637995409 -0.44583470132454583
923704 -0.7902257194869614 -0.4403613413423425
928607 -0.793274293843118 -0.44068435756254676
933510 -0.7922283657916397 -0.4394968751785015
938413 -0.7911361808022607 -0.43350227118958207
943316 -0.788333130714986 -0.43170561671801305
948219 -0.7908417565878036 -0.4358201552524662
953122 -0.7879193887882415 -0.4347756861215128
958025 -0.7846373780495429 -0.4356501950191012
962928 -0.7892195711412338 -0.43677456956198024
967831 -0.7908855198803096 -0.4408552794843866
972734 -0.7928134071569637 -0.4404882894817869
977637 -0.7908675856735073 -0.4382609604014282
982540 -0.7978434156427974 -0.4368988579796825
987443 -0.8022353471657154 -0.4403952436337567
992346 -0.8028785217786444 -0.4370152191012667
997249 -0.805752541468765 -0.4346978571921174
1002152 -0.8061822152218632 -0.43352050168300416
1007055 -0.8118521726705044 -0.43296174900857637
1011958 -0.8118018218435942 -0.4323289841461178
1016861 -0.8152549705531187 -0.426118533348096
1021764 -0.814816496390862 -0.42594998289224595
1026667 -0.8157245700569576 -0.42295240441450066
1031570 -0.8198132876991465 -0.42211623158747047
1036473 -0.8173309483920989 -0.41846361383734987
1041376 -0.824918794363699 -0.41828481045594695
1046279 -0.8208211250362737 -0.4192907627670879
1051182 -0.8208881031006063 -0.4164491266201342
1056085 -0.828578487549012 -0.41497056725040066
1060988 -0.8257478637108706 -0.4180606064937234
1065891 -0.8297008764657084 -0.4114740671998062
1070794 -0.8275301198722723 -0.4079090360820796
1075697 -0.8300532068317293 -0.404890430625198
1080600 -0.8306578229189978 -0.4084475971328091
1085503 -0.8316811942419206 -0.4019504595460425
1090406 -0.8327893299060528 -0.4002457914814176
1095309 -0.833573757306188 -0.4007913259512417
1100212 -0.8342100508753036 -0.4038978021103283
1105115 -0.836056562114845 -0.3940323957507975
1110018 -0.8389704623056762 -0.39541308577296425
1114921 -0.8369012620773937 -0.39022989047511386
1119824 -0.8378619844917999 -0.39326426223852395
1124727 -0.840316220941258 -0.39193161861065384
1129630 -0.8415380030503385 -0.38700429089956273
1134533 -0.8398458936335089 -0.38594102979228445
1139436 -0.8442453183871564 -0.3881242478596167
1144339 -0.842787038321058 -0.38404065732842024
1149242 -0.8439775241377653 -0.3834171556843218
1154145 -0.8496076223231419 -0.3812767737849633
1159048 -0.8462131047650197 -0.38195146350194625
1163951 -0.8468934147241808 -0.3767728130027252
1168854 -0.8451440442094897 -0.3768766166953489
1173757 -0.8481740230134869 -0.3745429294730705
1178660 -0.8481128083300165 -0.37448729739706216
1183563 -0.8494435654079507 -0.3713185239466115
1188466 -0.8495483754247074 -0.37150311448332035
1193369 -0.8496345557637345 -0.371508528670456
1198272 -0.850335969432528 -0.3677057215117192
1203175 -0.8536116272267167 -0.36478264575498043
1208078 -0.8527001260431899 -0.36488496363391815
1212981 -0.8522826462147185 -0.3608744881782462
1217884 -0.8543395972059761 -0.3625026662708174
1222787 -0.8572931972844947 -0.35831169665614176
1227690 -0.8532987903499708 -0.3587866906762534
1232593 -0.8540684572639491 -0.35741966603743114
1237496 -0.8598401208398555 -0.3604846803165289
1242399 -0.8553803455875378 -0.35768934787269724
1247302 -0.8635779828227246 -0.3565319096615657
1252205 -0.8593785687901897 -0.3490125355680822
1257108 -0.8610789463372651 -0.35109731538903444
1262011 -0.8603125901499378 -0.3475056640129163
1266914 -0.8620897488223992 -0.347874165114422
1271817 -0.8600419600742855 -0.3488649343999926
1276720 -0.8585534468968639 -0.34005389704934696
1281623 -0.8586119504020618 -0.34148382761610774
1286526 -0.8584644131012616 -0.33935745034078263
1291429 -0.8572404558175525 -0.33976259769463674
1296332 -0.8552434024550598 -0.33704068148976574
1301235 -0.855548326968011 -0.34070250196403445
1306138 -0.8566730853834514 -0.340615057740383
1311041 -0.8535649619230085 -0.33697874140619855
1315944 -0.8535669400086947 -0.3387729030304365
1320847 -0.8566829159180214 -0.34080497098594265
1325750 -0.8570153616593605 -0.34040174622712277
1330653 -0.8601696906862999 -0.3416994376333711
1335556 -0.8619713482674795 -0.341502822684657
1340459 -0.8626645436985947 -0.3412590207029428
1345362 -0.8643408781208167 -0.33556941627905607
1350265 -0.8642237369915355 -0.3388681773561818
1355168 -0.866183165307101 -0.337381167156159
1360071 -0.8715097747186759 -0.33432566181075796
1364974 -0.8691137578374819 -0.332140226216985
1369877 -0.8695400343481606 -0.33435069979224413
1374780 -0.8710229389351266 -0.33022907274605556
1379683 -0.8745667923107363 -0.3315895580763517
1384586 -0.8708595183441601 -0.32546219456288256
1389489 -0.8732897602991226 -0.3271960011370216
1394392 -0.872285752620422 -0.3264041992561761
1399295 -0.8721499764711849 -0.32537876592034204
1404198 -0.874794955636612 -0.32610654078545304
1409101 -0.8753367306309602 -0.32148016107248695
1414004 -0.877039676939208 -0.32092661449357224
1418907 -0.8730389523456803 -0.3188926233196402
1423810 -0.8770248448766972 -0.31875498204865726
1428713 -0.8765980358452398 -0.31755625039509794
1433616 -0.8775557015093295 -0.32094791617950147
1438519 -0.8769039604455815 -0.3164032880860398
1443422 -0.8798292474650717 -0.3131694691291676
1448325 -0.876993935920065 -0.3121719465973618
1453228 -0.8769774251076474 -0.31406396283827837
1458131 -0.8792621955658892 -0.3127723838807914
1463034 -0.88210765064012 -0.3126193543573815
1467937 -0.878595640425602 -0.3075046964662306
1472840 -0.8811383628567551 -0.30756212270634614
1477743 -0.876655434894213 -0.30624151897620855
1482646 -0.8806889891024908 -0.3053578658879213
1487549 -0.8841177282243766 -0.3063218308296256
1492452 -0.8820888142333538 -0.3037307797190491
1497355 -0.8819310062128856 -0.30040251068332446
1502258 -0.8841873739464622 -0.3006037879262368
1507161 -0.8825659140445029 -0.3013405875176999
1512064 -0.8836782480514852 -0.3011216310666306
1516967 -0.8859901665021166 -0.29720583176867565
1521870 -0.884394980341705 -0.29703596998501347
1526773 -0.8848541521150005 -0.29688065921549306
1531676 -0.8835712930096409 -0.29156128139977977
1536579 -0.8836121599134117 -0.2937198729131835
1541482 -0.8853779541132849 -0.2964104903034842
1546385 -0.887734888152253 -0.2904612173557718
1551288 -0.8859534286236727 -0.28757607797130086
1556191 -0.8883891836348541 -0.29115833209300074
1561094 -0.8878399031974817 -0.29023436177639383
1565997 -0.8859726494257009 -0.287528698851994
1570900 -0.8893920227734233 -0.288446363365285
1575803 -0.8880000218681398 -0.2881854446155955
1580706 -0.8839084330559283 -0.28629328867073167
1585609 -0.8837528805131788 -0.2849676989706298
1590512 -0.8812476868620114 -0.2836065052989272
1595415 -0.884247114603681 -0.28532424499166326
1600318 -0.8828439782575271 -0.2848206406171011
1605221 -0.885837689601305 -0.28114909963842405
1610124 -0.8840938250238465 -0.28778286082374466
1615027 -0.8861787122277817 -0.2841659535406225
1619930 -0.885939641125214 -0.2840009542785193
1624833 -0.8882546698181342 -0.2850357677600014
1629736 -0.8914693122252805 -0.28500018157479823
1634639 -0.888792664616993 -0.2794276267413505
1639542 -0.8930258302723897 -0.2797093327388286
1644445 -0.8918593491889409 -0.2804491472374983
1649348 -0.8939083900518132 -0.2820498967741458
1654251 -0.8933942313081447 -0.27737256377336555
1659154 -0.893120411197057 -0.2730829951139006
1664057 -0.8938146819167277 -0.27328186690680834
1668960 -0.8987993627285858 -0.27636947756640656
1673863 -0.8936900833239766 -0.2788455458914746
1678766 -0.896511484970442 -0.27368123788215215
1683669 -0.8937955267285134 -0.2728001640002865
1688572 -0.8950685832561507 -0.27380030908592556
1693475 -0.8947030771369514 -0.271444329197813
1698378 -0.8915736748562338 -0.2705467072761197
1703281 -0.8932023070965327 -0.2705585679317955
1708184 -0.8970632629508716 -0.2723212754284797
1713087 -0.8963779511233448 -0.2684943454898091
1717990 -0.8990587558719818 -0.2663079031971646
1722893 -0.8963197020258488 -0.2655982350480532
1727796 -0.8980073789263587 -0.2649991436622445
1732699 -0.8966427569628196 -0.26186546022933077
1737602 -0.8993631172357571 -0.26436089653841294
1742505 -0.8977319965272216 -0.2627414757359109
1747408 -0.8981862283209096 -0.2558528081433303
1752311 -0.8960279767246888 -0.26215399607571227
1757214 -0.9005951625596583 -0.25857905035732515
1762117 -0.896683441550058 -0.2581204288644544
1767020 -0.8970453811706763 -0.2624987818621927
1771923 -0.9006727108201231 -0.2561332004706344
1776826 -0.89715506560423 -0.26098072916957277
1781729 -0.9017929106233936 -0.25396810799616526
1786632 -0.8959656924834872 -0.25384658867304555
1791535 -0.8980487333176251 -0.252435578019586
1796438 -0.8996308847862567 -0.2538123065890966
1801341 -0.8977795626801827 -0.25115009820016626
1806244 -0.8995593261755809 -0.25116734116304046
1811147 -0.8958690476947487 -0.2484041126876429
1816050 -0.8984552918659887 -0.25152154462235826
1820953 -0.8966597542239806 -0.2534766019624943
1825856 -0.8972657449788727 -0.24964545091322182
1830759 -0.9001301622980528 -0.251353673721758
1835662 -0.899019552315237 -0.24979051502436095
1840565 -0.8967097373290668 -0.25000102322180345
1845468 -0.9049414808604501 -0.24929530562407257
1850371 -0.8996058257432475 -0.25182125222463597
1855274 -0.9011462765420462 -0.25033770721258936
1860177 -0.8987803945665475 -0.24648626398037782
1865080 -0.9046005491967084 -0.2472193697290389
1869983 -0.901565964655017 -0.2488190731769293
1874886 -0.8997500337212857 -0.2475727939456594
1879789 -0.9066294886974355 -0.24527782696139694
1884692 -0.9019293605274543 -0.24371576003852008
1889595 -0.9050409762930818 -0.2374951099825353
1894498 -0.9062201279024246 -0.23851116544671283
1899401 -0.9049911480966161 -0.240955570133619
1904304 -0.9028480675969957 -0.23959122799566876
1909207 -0.9052198321334143 -0.2412380774824831
1914110 -0.9003006403474432 -0.2392702272650341
1919013 -0.9073843619287916 -0.2371809228979244
1923916 -0.8999327237325822 -0.2367356054398631
1928819 -0.9052079844020948 -0.23810858107186084
1933722 -0.9033680293212288 -0.23316624163405283
1938625 -0.9032630261354885 -0.2343187963602259
1943528 -0.9028086160518082 -0.23819215887601078
1948431 -0.9008032023573929 -0.23543044271294128
1953334 -0.9041381170295599 -0.231155275501698
1958237 -0.9017835871581557 -0.23200059049551935
1963140 -0.9020059000886553 -0.23578432068238447
1968043 -0.9008048509394723 -0.23628490844704594
1972946 -0.9042653490508676 -0.2346528680442608
1977849 -0.9047232505467869 -0.2348864380079165
1982752 -0.9005150181945704 -0.2348373526830343
1987655 -0.9032534165760162 -0.2300970239664071
1992558 -0.9069706223968189 -0.235118576857701
1997461 -0.906779409361646 -0.2316790151721278
2002364 -0.9080856196023617 -0.2319001988556981
2007267 -0.9048320093457788 -0.22976905906321274
2012170 -0.9091305531298353 -0.23027372870399163
2017073 -0.9040769143382104 -0.23179335025549622
2021976 -0.9072384121009619 -0.23004032477288233
2026879 -0.9079675142701211 -0.22592702166595185
2031782 -0.9099917719641683 -0.2266081377681851
2036685 -0.905937635168676 -0.2288751978214809
2041588 -0.9069858637881671 -0.22799966152284326
2046491 -0.9115574204714237 -0.22539490406232152
2051394 -0.9084462700951949 -0.22448135370621536
2056297 -0.9113228945093791 -0.22410051017999313
2061200 -0.9108820648008292 -0.22135332874346192
2066103 -0.9153749533307097 -0.21785854176887734
2071006 -0.9084959490386513 -0.218547091961039
2075909 -0.909206224631757 -0.22151899837537942
2080812 -0.9073716349319466 -0.22125408535936325
2085715 -0.9118263248373104 -0.2196098278352274
2090618 -0.9100572599857552 -0.2184563603227951
2095521 -0.9119329979355612 -0.21356215289706745
2100424 -0.9088324417118787 -0.21641925628304587
2105327 -0.9103443126988676 -0.2176895326165923
