# HZ S RI R 50
100000 0.5277443606979955 -0.7198349390935409
104903 0.502018876899796 -0.7357168362926652
109806 0.47202710716374024 -0.7516307125895754
114709 0.4395061933297508 -0.767056725509626
119612 0.4064894006887518 -0.77961741020276
124515 0.38672000850994653 -0.7894354495110247
129418 0.35737632130742436 -0.8015355582747133
134321 0.32861323127347347 -0.8087360413723752
139224 0.3023978012948129 -0.8196040057539411
144127 0.27448438348278936 -0.8280844658298818
149030 0.24378411674932468 -0.8300537319616212
153933 0.21405001401497684 -0.8339796917080566
158836 0.18896873672020348 -0.8384068350369451
163739 0.1588778055809293 -0.8401465024708549
168642 0.13089095316088514 -0.8351202901941027
173545 0.10533362935952152 -0.8329680032150749
178448 0.08087370949677414 -0.8282717946744048
183351 0.0536432359942247 -0.8183961831858896
188254 0.025693882227860405 -0.8095299561240176
193157 0.0012330838011589765 -0.7944541062025727
198060 -0.020022855132689844 -0.7725978908923691
202963 -0.03765279687323816 -0.7417516690597628
207866 -0.03128556542504658 -0.7074910781500746
212769 -0.006739779757844841 -0.6730213304906676
217672 0.043895895350670296 -0.6663679284523871
222575 0.0917958560474238 -0.7179762520428603
227478 0.0826419430796725 -0.7784293627745777
232381 0.05072999260536389 -0.8096954514976986
237284 0.020108570107022307 -0.8261480387159931
242187 -0.00877314956134885 -0.83833268879526
247090 -0.03125129203952422 -0.8409824942956061
251993 -0.05246592657644177 -0.8479078501621242
256896 -0.07588245294983798 -0.8499275976999543
261799 -0.0972811715562881 -0.8513169032996413
266702 -0.11607386486761802 -0.852296205916656
271605 -0.13803723222289888 -0.8484873563691048
276508 -0.15632403243344822 -0.8506911127103033
281411 -0.1731169963649879 -0.8457445629849024
286314 -0.19118717002846064 -0.8418387274326098
291217 -0.20141724770325725 -0.8382088632132537
296120 -0.21907792309414406 -0.8348304440300293
301023 -0.22935314413664176 -0.8285201632058965
305926 -0.24397011916685862 -0.8223611049136355
310829 -0.2517196904729565 -0.823464988801662
315732 -0.2626902225625888 -0.8190554312373879
320635 -0.27638636273665296 -0.8186779375657793
325538 -0.28731033855726684 -0.8164806599832315
330441 -0.29976686784792284 -0.8153174657909907
335344 -0.31073819006898146 -0.8095620447383066
340247 -0.3248849770295997 -0.8087132600597546
345150 -0.33465301967312455 -0.8060421539321286
350053 -0.34820556768121175 -0.7996644590553519
354956 -0.3568654656629839 -0.7938719872329575
359859 -0.368233146302892 -0.7902585605348429
364762 -0.3755491680544197 -0.787876492947666
369665 -0.3862077255517942 -0.7800468178917098
374568 -0.3955634301526989 -0.7800811093996067
379471 -0.4060385368031632 -0.7765241391590966
384374 -0.41660132803711714 -0.7750511198254396
389277 -0.42131418646854124 -0.7661337336283974
394180 -0.43102281082323995 -0.7641131994680458
399083 -0.4390939663008614 -0.7605643130852477
403986 -0.4505587505148274 -0.7526440437034647
408889 -0.45652190023903005 -0.7535039206739965
413792 -0.46458892200250074 -0.7438662858525409
418695 -0.47184423863673325 -0.741849863611384
423598 -0.47800933615732183 -0.7371133510696672
428501 -0.48958773258312727 -0.7321168702385231
433404 -0.4932011584480327 -0.7296729968870467
438307 -0.5048883088493649 -0.722356424906247
443210 -0.5051801810069331 -0.7227897881911616
448113 -0.5131841718624338 -0.718621310783148
453016 -0.5184628327319162 -0.7128926244257419
457919 -0.5253025918548557 -0.7068981102000503
462822 -0.5319830637115938 -0.7036251009920975
467725 -0.5381937085065935 -0.6993639568914252
472628 -0.5460661483907912 -0.6955764692503911
477531 -0.5508680618427065 -0.6919480516878245
482434 -0.5535118217449508 -0.6844404684736467
487337 -0.560884110146622 -0.6847873188065807
492240 -0.5673422589926445 -0.6787312886968848
497143 -0.5724859691960865 -0.6763503868791411
502046 -0.5750894202818588 -0.6697196766413114
506949 -0.5803213598547002 -0.6650040122023672
511852 -0.5832767047550496 -0.6642282594422085
516755 -0.5916070435083612 -0.6567864394529607
521658 -0.5961238594823568 -0.6561819544179349
526561 -0.5966045842316261 -0.6498301792611486
531464 -0.602764795865997 -0.6443092336951527
536367 -0.6100883242642114 -0.641852987209048
541270 -0.6128039148014348 -0.6346191908805765
546173 -0.6163594582861692 -0.6332404332495265
551076 -0.6238608094109436 -0.6259774550603572
555979 -0.6276486505795185 -0.6184255330181686
560882 -0.627736163773778 -0.6144602899130273
565785 -0.6327075022725989 -0.6030716751969678
570688 -0.6309182331794426 -0.5965367757138124
575591 -0.6278178729100575 -0.5882054858092661
580494 -0.6171941765305561 -0.5848284581622389
585397 -0.6093579023547028 -0.58670179899114
590300 -0.6095128216596243 -0.5960655216938585
595203 -0.6126416897108176 -0.6064327342883982
600106 -0.6183063335467767 -0.6086603722068515
605009 -0.6270461720953592 -0.611273150661689
609912 -0.6321048870575381 -0.6124479616062951
614815 -0.6392985152741126 -0.6096782701990868
619718 -0.6488125071638935 -0.6088403906614281
624621 -0.6535734423756634 -0.6069549468593157
629524 -0.6605716288296549 -0.6043267017251723
634427 -0.6692512886976739 -0.6010347750540009
639330 -0.6726314300401172 -0.5968014514674412
644233 -0.6764786842798141 -0.5926971770472255
649136 -0.67661111214959 -0.5906929697632306
654039 -0.6818304720017674 -0.5860098809500351
658942 -0.6904887293767794 -0.583765560394227
663845 -0.6905465341314962 -0.5825827076704987
668748 -0.6890750693685737 -0.5772528996640985
673651 -0.695274911440962 -0.5697625900483655
678554 -0.6994548779867528 -0.5719222893174392
683457 -0.6999232236160967 -0.5694793228793205
688360 -0.7033514350815251 -0.5625441294980645
693263 -0.7109047666280014 -0.5638012361683704
698166 -0.712652583083789 -0.5592129168059403
703069 -0.7126920490860967 -0.557116189165444
707972 -0.7163382915219767 -0.554474836624726
712875 -0.7210836985703186 -0.5521310790638776
717778 -0.7244379844802007 -0.5482631574459388
722681 -0.7252029736347112 -0.5420790967463219
727584 -0.7279622986621551 -0.5421066045179505
732487 -0.7305820412452512 -0.5396972338232028
737390 -0.7337135006968687 -0.5338977727589502
742293 -0.7359996799351665 -0.5341546354938939
747196 -0.7384506357388793 -0.5310156487685425
752099 -0.7415974349188393 -0.5267844678851815
757002 -0.7421976983248098 -0.5254299389594975
761905 -0.7469326278242953 -0.5244059893666231
766808 -0.743105679749146 -0.5226724738115349
771711 -0.74841353032631 -0.5155662128872536
776614 -0.749724098138351 -0.516276820905034
781517 -0.7537341908353359 -0.5140101190240339
786420 -0.756569224984946 -0.511542838649041
791323 -0.7587931474423559 -0.509338901727141
796226 -0.7630115699431543 -0.5050608360367955
801129 -0.7595222060794365 -0.5040175923446317
806032 -0.7642893936741509 -0.4976189572213257
810935 -0.7663442588924998 -0.49946574790770865
815838 -0.764024785401183 -0.493992366559555
820741 -0.7648621567727957 -0.4930684652009887
825644 -0.7697688696780135 -0.49144888830901556
830547 -0.7733277507481757 -0.4906470431903818
835450 -0.7744323264697957 -0.4866598322270007
840353 -0.7744042624669163 -0.48596452329648443
845256 -0.7772995238859799 -0.4799233855905109
850159 -0.7796216795353037 -0.4816430289251593
855062 -0.7775722608055982 -0.47887385635140517
859965 -0.7854808337432795 -0.4780216367627106
864868 -0.7864174193543301 -0.4726761606698173
869771 -0.7841508945100562 -0.4745067384710894
874674 -0.7878081337396858 -0.46779234016494303
879577 -0.7838251087447495 -0.4659527243092839
884480 -0.787402077352595 -0.4656317688340745
889383 -0.7909706561618475 -0.4596124112868717
894286 -0.7925793830750776 -0.45840258284726765
899189 -0.7939769001611007 -0.45913781993575287
904092 -0.7934676434053909 -0.4542554495558771
908995 -0.7963127667396729 -0.45057795072472523
913898 -0.7983865572326088 -0.44843039787125083
918801 -0.7976717489264378 -0.4472063442033371
923704 -0.7974401238707872 -0.44311059011471327
928607 -0.800440807529919 -0.44116421555300533
933510 -0.7970406111832992 -0.44080427642418296
938413 -0.7990983496784541 -0.4345038928405672
943316 -0.795375297086922 -0.4309798515489625
948219 -0.7983952415550728 -0.4336119938520597
953122 -0.7987456531867538 -0.4334239970985802
958025 -0.7908693823029141 -0.43208232550314074
962928 -0.7977903064747255 -0.4336115032980279
967831 -0.7992822218980133 -0.43563327592358114
972734 -0.800900156629917 -0.43612488211153366
977637 -0.7975837249567234 -0.43508648153205165
982540 -0.8038714415892273 -0.43055009236850633
987443 -0.8043310247738285 -0.43414154434031443
992346 -0.8087703337694906 -0.4309902271806427
997249 -0.8098747464979675 -0.4331886959107546
1002152 -0.8112601500428969 -0.4305663103197074
1007055 -0.8129616183088032 -0.42891082911609835
1011958 -0.8143993152426207 -0.42452014454642684
1016861 -0.8199545467896062 -0.42377053373017276
1021764 -0.8182320850294678 -0.42426545485246986
1026667 -0.820302992713704 -0.4179102363721135
1031570 -0.8209359488585214 -0.42137249163831386
1036473 -0.818530428381914 -0.4164408226436005
1041376 -0.8248244488582555 -0.4156004912578367
1046279 -0.8242519828437284 -0.41191969912061255
1051182 -0.82752926008313 -0.41130786033260847
1056085 -0.8310840696804191 -0.41390962252996405
1060988 -0.8292167377763698 -0.41215812531360363
1065891 -0.8318321512537405 -0.4071690956870867
1070794 -0.8325362444887673 -0.4045690055974801
1075697 -0.832547786288713 -0.4035044337049352
1080600 -0.8314776747298157 -0.40037592408378436
1085503 -0.8367350814755455 -0.401156872293085
1090406 -0.8398335143914327 -0.3971441316047732
1095309 -0.8338621285647412 -0.3951389775135977
1100212 -0.8365242657351792 -0.3980529229160473
1105115 -0.8372693964724858 -0.390519735939367
1110018 -0.839154036036679 -0.3933867325099809
1114921 -0.8402715528030922 -0.3892476078535708
1119824 -0.8414002204489475 -0.3917237668101133
1124727 -0.8427533107532993 -0.38868900026535486
1129630 -0.8454596913873781 -0.38462234852093424
1134533 -0.8449951302402231 -0.3850176407669105
1139436 -0.8454766871023441 -0.38573258172505237
1144339 -0.845211646208341 -0.3813047843152602
1149242 -0.8428910866952036 -0.3782762611615244
1154145 -0.8491988457514713 -0.3781764573047446
1159048 -0.8494430868016024 -0.38176346062515865
1163951 -0.8490003864541525 -0.37525136411938975
1168854 -0.8460885981102381 -0.37444632301163083
1173757 -0.8517545873367596 -0.3721275077305628
1178660 -0.8517810992635774 -0.3727965446711731
1183563 -0.8506447676137355 -0.36989260274003083
1188466 -0.8508553468185852 -0.3697455183397993
1193369 -0.8559112712225887 -0.3696514566356684
1198272 -0.8553390692033515 -0.3682913585669661
1203175 -0.855059793970353 -0.36508813503825904
1208078 -0.8550021799534785 -0.3594450383066238
1212981 -0.8544867647711412 -0.3625577669496139
1217884 -0.8541881148565705 -0.3604625245266711
1222787 -0.859078643764043 -0.35613848543122145
1227690 -0.8575622898893435 -0.35697079579123
1232593 -0.8574299580976498 -0.35828295892815515
1237496 -0.8595804357338892 -0.35807712211476617
1242399 -0.8582725177248519 -0.35366642640500423
1247302 -0.8623035345581453 -0.35344990514125807
1252205 -0.8580727200283041 -0.350956015011636
1257108 -0.8629924753734203 -0.3488101094788974
1262011 -0.8627547264998809 -0.3486369868379817
1266914 -0.8625487654317541 -0.3453250142979954
1271817 -0.8624654637363448 -0.3470399293085581
1276720 -0.864973207597 -0.3402545209130634
1281623 -0.8642586884388143 -0.3408759838865409
1286526 -0.8609326479609569 -0.3381785459235358
1291429 -0.8622046249200739 -0.34023006561213875
1296332 -0.8612657144698549 -0.3365259786602906
1301235 -0.8615496847086739 -0.3379790462913726
1306138 -0.8616624479399957 -0.33981388614740077
1311041 -0.8596003891156556 -0.33679940660347574
1315944 -0.8565485336220523 -0.3365924083206824
1320847 -0.8616424533517096 -0.33777418726259195
1325750 -0.8610030629456772 -0.3397097409573462
1330653 -0.8626886481950187 -0.33428492451646113
1335556 -0.8654271743446972 -0.33709515082932334
1340459 -0.8652186435222179 -0.3375740696895836
1345362 -0.865869444895872 -0.33467365052760323
1350265 -0.8653958040488801 -0.334373593610941
1355168 -0.8715595379079215 -0.3310503846628771
1360071 -0.8713146720223978 -0.3318982388302987
1364974 -0.8728611370365712 -0.3271539346480373
1369877 -0.8713879355166352 -0.33465987913410866
1374780 -0.8699123784323373 -0.3300631932807573
1379683 -0.8764807393590184 -0.32764957609918505
1384586 -0.8728205429231538 -0.32214780705543294
1389489 -0.8752721109234304 -0.3233563896530731
1394392 -0.8749480149653286 -0.3242582352739682
1399295 -0.8753622958882962 -0.32402783410846914
1404198 -0.8756935401240864 -0.32304315400281797
1409101 -0.8787285061279428 -0.32046494953627674
1414004 -0.8764473845026618 -0.3202791756172686
1418907 -0.8754827811248016 -0.3175385834697073
1423810 -0.877020530200227 -0.3171061622300339
1428713 -0.8797975134388821 -0.317441397808893
1433616 -0.879582577739661 -0.3189116172001421
1438519 -0.8795563462221602 -0.3167382605458378
1443422 -0.8811451636460822 -0.3141745842021678
1448325 -0.8784708551261983 -0.31166220970430697
1453228 -0.8798886472582101 -0.3114716165269522
1458131 -0.8773456851878982 -0.30868340245700454
1463034 -0.8817638240327664 -0.31047070734009186
1467937 -0.8821362007187521 -0.3061682467338196
1472840 -0.8812928569242318 -0.3071659957789927
1477743 -0.8825526852601047 -0.30348894430252343
1482646 -0.8837370386009408 -0.30499859914462313
1487549 -0.8836512113130074 -0.3081596815592119
1492452 -0.8830898228433212 -0.30312978487284886
1497355 -0.8874281415467467 -0.301466016320159
1502258 -0.884213249533494 -0.2995838744029456
1507161 -0.885780510804229 -0.2994974568575796
1512064 -0.886348226720144 -0.30104125667397064
1516967 -0.8859409857716303 -0.298176978809942
1521870 -0.884266057558826 -0.2993854240008229
1526773 -0.8815806446897299 -0.298992664253755
1531676 -0.8839010498063484 -0.2959301817598144
1536579 -0.8880446073900248 -0.2941990082117002
1541482 -0.8848000335655609 -0.29493487113645483
1546385 -0.8886388176693331 -0.29203188674338804
1551288 -0.8891406383610619 -0.2877564703558766
1556191 -0.8880381539130562 -0.28973517720117153
1561094 -0.8897757542610105 -0.29037368216574766
1565997 -0.8882335095177881 -0.2903548806933284
1570900 -0.8938147894088239 -0.2894208550418823
1575803 -0.8911382417847886 -0.28646149928033515
1580706 -0.8860866330237861 -0.28472262807833
1585609 -0.8894599174750473 -0.28697382744158867
1590512 -0.883980814073891 -0.28233047746675793
1595415 -0.8910058926356089 -0.2846183700271141
1600318 -0.8856871685344404 -0.2824912053530551
1605221 -0.8887228190712074 -0.28117941886553505
1610124 -0.8879546154038761 -0.27953269543289755
1615027 -0.8889497498141048 -0.28336079598347913
1619930 -0.8868314063457619 -0.2819185164036955
1624833 -0.889735310665698 -0.28250184920870136
1629736 -0.8896141396280978 -0.2814051830762196
1634639 -0.8927430377968096 -0.2794622621507979
1639542 -0.8937972407468768 -0.2812108586226169
1644445 -0.8951207724955416 -0.2814058798830714
1649348 -0.8934716529484156 -0.27954322550475363
1654251 -0.8962470659737097 -0.2775728326523093
1659154 -0.8947684719674119 -0.2737599552527629
1664057 -0.8961120948121181 -0.2753863323468003
1668960 -0.8998161824966014 -0.27670444169969993
1673863 -0.8953888559052557 -0.2765036778068231
1678766 -0.89258752215838 -0.2761102608011285
1683669 -0.8987434004808288 -0.2726428964918858
1688572 -0.8960491483680129 -0.273163477426737
1693475 -0.9006745246635919 -0.2688832644572196
1698378 -0.8937901713457841 -0.2703086716323895
1703281 -0.8934811698152617 -0.26796554704805137
1708184 -0.89696233648447 -0.27208649111360095
1713087 -0.894026972930158 -0.267215544575965
1717990 -0.8976827537498598 -0.2669380425671413
1722893 -0.8958522465369496 -0.2633850958423458
1727796 -0.9016568217392501 -0.2631468400945788
1732699 -0.8948397888537049 -0.26339246365271146
1737602 -0.8996900465906951 -0.26629376421919765
1742505 -0.8990556007614927 -0.26549681967151034
1747408 -0.8993231158319063 -0.25913734416463197
1752311 -0.9029252327946777 -0.2632865398405502
1757214 -0.9025436434710711 -0.25941994119189593
1762117 -0.8974955570807363 -0.262477553805726
1767020 -0.9005387278618807 -0.2588966161276768
1771923 -0.9026922762447317 -0.25802556753107003
1776826 -0.8989480142917856 -0.26145431595673496
1781729 -0.9027290926949557 -0.25531310665918966
1786632 -0.8996093322656431 -0.2549294567762889
1791535 -0.9009782203551764 -0.2566590306452245
1796438 -0.9006487337390753 -0.2598402100567436
1801341 -0.899518986782722 -0.2538514875578211
1806244 -0.903072217465112 -0.25002733672004707
1811147 -0.9002785417285661 -0.24909984960024462
1816050 -0.9001351584106624 -0.24733442564843222
1820953 -0.9003137442401952 -0.24685705312914122
1825856 -0.8969377344592957 -0.24961964795728883
1830759 -0.8977515812371754 -0.25104394153427895
1835662 -0.8977173717784979 -0.25169207098796814
1840565 -0.902578300051818 -0.25161914598705065
1845468 -0.901972322670156 -0.2516761092585838
1850371 -0.9015752459384422 -0.250295459673047
1855274 -0.905096658948745 -0.24987798487963384
1860177 -0.9006641895177013 -0.24859998655259222
1865080 -0.9060227273679767 -0.24592762965795037
1869983 -0.9059620432190237 -0.24909240180002304
1874886 -0.9035698111371788 -0.24779566320419383
1879789 -0.9056820906926757 -0.24534648214842708
1884692 -0.9032639651658201 -0.24508180768250332
1889595 -0.9036386313020729 -0.2445956219339688
1894498 -0.9047224527371642 -0.24009977412850525
1899401 -0.9052388864406906 -0.24475075357163717
1904304 -0.9035293067600713 -0.238270517512342
1909207 -0.9097719662928648 -0.2421075071675337
1914110 -0.9031534283324603 -0.23966719548217283
1919013 -0.9139638739315924 -0.23828775394934534
1923916 -0.9050639607226496 -0.23952736478457812
1928819 -0.9094987100370276 -0.23881452982313287
1933722 -0.9050378158479289 -0.23679829397201976
1938625 -0.9069872257419324 -0.23452317553618188
1943528 -0.9078889885082635 -0.2411436635092509
1948431 -0.9093502866794306 -0.23922752719870588
1953334 -0.9058410635547719 -0.23619974257686896
1958237 -0.901931036836047 -0.23160868871862628
1963140 -0.9062483377076463 -0.236031365677135
1968043 -0.9016723075714655 -0.23768486481142687
1972946 -0.9025180391722701 -0.2353068876363507
1977849 -0.9077418292747303 -0.23459700254415117
1982752 -0.9043891761918373 -0.23563520205625865
1987655 -0.9090480126629612 -0.23568088175530766
1992558 -0.9078923225689735 -0.23444314002256078
1997461 -0.9111339699057972 -0.23667741721543173
2002364 -0.906081840391134 -0.2358583305288808
2007267 -0.9042919509668956 -0.23023675163309543
2012170 -0.9097795706268711 -0.23065737173119782
2017073 -0.9046372533337443 -0.2339510615677545
2021976 -0.9053722554088405 -0.23060702456751014
2026879 -0.9127653095273037 -0.229611478897875
2031782 -0.908032781850442 -0.2282746894215852
2036685 -0.9100797980371561 -0.23078996632242896
2041588 -0.9123596243925115 -0.2259761458745193
2046491 -0.9134791130936321 -0.22754014260312147
2051394 -0.9102625594674522 -0.2249233421902309
2056297 -0.9109066830475265 -0.2257819198220115
2061200 -0.911294883163149 -0.22531218146696202
2066103 -0.912652029255275 -0.22658018462879315
2071006 -0.9120374756446955 -0.22388497669414756
2075909 -0.9152044446153624 -0.2249163511972807
2080812 -0.9044498754221876 -0.2238395989554653
2085715 -0.9112074510961276 -0.22270635464022603
2090618 -0.9141005864495606 -0.22340238721350394
2095521 -0.9103082995428485 -0.21380521614229067
2100424 -0.9108502328729525 -0.21884257798481568
2105327 -0.912238733336102 -0.21889119987516395
