# HZ S RI R 50
100000 0.5204752320257122 -0.7126450532727249
104903 0.4914214982978999 -0.7286668034834966
109806 0.4626340902387831 -0.7451936940946149
114709 0.4281032971637925 -0.7607843379566054
119612 0.39325520855224577 -0.7716260449442931
124515 0.3675327313218445 -0.7834063560348831
129418 0.3343898197435014 -0.79487726632344
134321 0.30003920046590704 -0.8006214444830869
139224 0.2662394247905061 -0.8104699844069911
144127 0.22811096217385862 -0.8144193728551069
149030 0.19434771888377508 -0.8131152859830307
153933 0.15903880325442293 -0.8136421335428786
158836 0.12113473154040753 -0.8113833786046937
163739 0.07944654244860178 -0.8016755361220649
168642 0.04719748403437826 -0.7799500150514799
173545 0.013302009163434105 -0.7642274474044801
178448 -0.01743992948474864 -0.7383451258560285
183351 -0.05047175878975285 -0.7089968591396002
188254 -0.07714446347660543 -0.6687261241025455
193157 -0.099805140091965 -0.6186675324202572
198060 -0.11215467344831255 -0.556490892350005
202963 -0.09279860090075061 -0.46900103450020814
207866 -0.02556427236229427 -0.4073040503336093
212769 0.07018067594489112 -0.3600673644370573
217672 0.19766668411040567 -0.374805104755823
222575 0.30648878058659934 -0.4765753114193998
227478 0.31698852161957486 -0.6028902830025422
232381 0.2796231711049669 -0.6827334856213217
237284 0.23990460470864966 -0.7350807021146859
242187 0.19816703018797271 -0.7694310318661233
247090 0.16350697695175828 -0.789685248447189
251993 0.13591440476024316 -0.8112183836370209
256896 0.1038688592201004 -0.8264439168307195
261799 0.07058372665077152 -0.8406550884403029
266702 0.04176933285616935 -0.8492822662938176
271605 0.012773242217167061 -0.8515869210457664
276508 -0.01542100067321335 -0.8531989523048957
281411 -0.040889538081839844 -0.8581042409031714
286314 -0.06345999398372583 -0.8549227659128041
291217 -0.08170046798943142 -0.8501111617707702
296120 -0.10387886001627135 -0.846661899506693
301023 -0.11965296589055055 -0.844489799302497
305926 -0.13482815859244585 -0.8356516145401108
310829 -0.14343138140383105 -0.832967679179769
315732 -0.1551666394572963 -0.8331885108375963
320635 -0.16777935128109395 -0.8355353682824139
325538 -0.18113230708057457 -0.8352944017274895
330441 -0.19639704425471952 -0.8399130064977622
335344 -0.2138128884393241 -0.8394967919331542
340247 -0.23058730326734597 -0.835831393810653
345150 -0.23919735270912013 -0.8342751940813175
350053 -0.25916038462070606 -0.8313642084202665
354956 -0.2703389918811469 -0.8248481183579621
359859 -0.28503162005670907 -0.8195334929878956
364762 -0.29338999600149207 -0.8192145401372991
369665 -0.3052628458203914 -0.8133428054876376
374568 -0.31838012409000455 -0.8113309102356692
379471 -0.3326391771707244 -0.8071648255298615
384374 -0.34119721622666066 -0.8063079391074329
389277 -0.3505990433117157 -0.7984181565490494
394180 -0.3643862927312532 -0.7943319962337728
399083 -0.37187479605888857 -0.7905886245935703
403986 -0.38266536973398785 -0.7838061756857065
408889 -0.39146887123966023 -0.7842221875917287
413792 -0.40017673584451496 -0.77543851517792
418695 -0.41055466608787267 -0.7726324615958209
423598 -0.4204128945597635 -0.767199933411646
428501 -0.43059959316670915 -0.7638492552442067
433404 -0.4366191989494291 -0.7596992705832312
438307 -0.4465974213214363 -0.7537224558151594
443210 -0.45469484690920026 -0.7528779252367407
448113 -0.4604212809645684 -0.745758028876339
453016 -0.4679255889500723 -0.7415069175061262
457919 -0.4760604971704654 -0.7345371061740935
462822 -0.483979133855249 -0.7316360652352714
467725 -0.4895254335834581 -0.7255898887202066
472628 -0.5012460049608495 -0.7207601818336722
477531 -0.5072307807329212 -0.7150471202046653
482434 -0.5130827068398078 -0.7071593758588376
487337 -0.5195792607871956 -0.7078609070057909
492240 -0.5290103331731613 -0.7006246409344941
497143 -0.536136123304064 -0.6936556319137612
502046 -0.538157909283529 -0.6876714711393026
506949 -0.5467408813513828 -0.6810142189397279
511852 -0.5496682641862191 -0.6780452066724542
516755 -0.5596652369210876 -0.6676492451470131
521658 -0.5670002755513206 -0.6638608237915731
526561 -0.5724921110054588 -0.6517028852401576
531464 -0.5783752877154202 -0.6450513091782902
536367 -0.5835331898208698 -0.6344749514418481
541270 -0.5874214580578897 -0.6190977507680633
546173 -0.5884685477134319 -0.6115163354436954
551076 -0.5897917778487421 -0.5938654188432729
555979 -0.5888017383902853 -0.5780850742159359
560882 -0.5763098333508765 -0.5573544748310651
565785 -0.5609756523690383 -0.5413371107925539
570688 -0.5329836713319206 -0.5336099206807411
575591 -0.5022365277856824 -0.5441525530319186
580494 -0.47469483199048657 -0.5664001588161858
585397 -0.47247036381064783 -0.5969445472744089
590300 -0.48225892359962874 -0.6243374505351489
595203 -0.4971375752767732 -0.6424195105049114
600106 -0.5127534164434141 -0.6533786730080243
605009 -0.5304491070591607 -0.6613745367686571
609912 -0.5428943935724736 -0.663811127253016
614815 -0.5581901887419011 -0.6630527683644633
619718 -0.5681875860398956 -0.6608812159162063
624621 -0.579723004155863 -0.6597320710337566
629524 -0.5887752056743443 -0.6556636955904517
634427 -0.6008377018815481 -0.6538430327308287
639330 -0.6112800858387758 -0.6498304626102979
644233 -0.6150322142049682 -0.643142011432818
649136 -0.6197421923227134 -0.6402307536815922
654039 -0.6252605100804024 -0.6344459723051522
658942 -0.6373998422508205 -0.6313570951394991
663845 -0.6385439641389831 -0.6283138020266418
668748 -0.6432176037062566 -0.6199464905892826
673651 -0.6484051146763987 -0.6168412295977633
678554 -0.6522169638934252 -0.6129374150824836
683457 -0.652144963073451 -0.6146651376350086
688360 -0.6554063992909025 -0.6051023537761072
693263 -0.6658317200706244 -0.6032502151262283
698166 -0.6677964497712247 -0.6022140269408149
703069 -0.6684944636023267 -0.5965951723110734
707972 -0.6714282919329672 -0.5959682512670077
712875 -0.6754433800327787 -0.5944356628140206
717778 -0.6834661010393602 -0.594058948242566
722681 -0.6867640715209804 -0.5846995322105424
727584 -0.6915229964522361 -0.5841236756297261
732487 -0.6934088107909266 -0.5789925083414129
737390 -0.6989564914141704 -0.5752651161184321
742293 -0.6978592493522767 -0.5713568156415303
747196 -0.7023425521941372 -0.5681682861434675
752099 -0.7050639070944377 -0.5657806770678613
757002 -0.7087559927869906 -0.5635415809971629
761905 -0.7111296777761866 -0.5624125509085164
766808 -0.7119348431505887 -0.5568040225650556
771711 -0.7168306877163804 -0.5537401087908868
776614 -0.7198299178681946 -0.5514312484060139
781517 -0.7219908184520392 -0.5522633143441571
786420 -0.7262508888046997 -0.5444502273194003
791323 -0.7309997273907866 -0.544380010548188
796226 -0.7291982374346838 -0.5384658460509611
801129 -0.7326904449370546 -0.5384365009008073
806032 -0.733603084907666 -0.5305110933497037
810935 -0.7387672640718004 -0.5313146827871505
815838 -0.738393715268375 -0.5294723038589176
820741 -0.7385679691401617 -0.5238552428472755
825644 -0.7431189243337954 -0.5207110140096618
830547 -0.747188342820229 -0.5165058601479556
835450 -0.7511563058429994 -0.5162932475638211
840353 -0.7499594742907754 -0.5128493548428149
845256 -0.7523269444578243 -0.5103735854500845
850159 -0.7524620399635306 -0.5045155703547393
855062 -0.7537813930907357 -0.5044887756828835
859965 -0.7586670884139332 -0.5011920948098121
864868 -0.7621802804465232 -0.4981084266615828
869771 -0.7623544957263662 -0.4954831739538574
874674 -0.7648516588612702 -0.4908403886271237
879577 -0.7619411730433472 -0.4876712459485425
884480 -0.7638595957389466 -0.4795710239682323
889383 -0.7692057577566992 -0.47730433069244044
894286 -0.770777862831835 -0.4738725336469996
899189 -0.7701457652577324 -0.4705023561015131
904092 -0.7702171321176653 -0.4630269711520909
908995 -0.7702855348047224 -0.45679542500107173
913898 -0.7664716382693024 -0.45446065190780877
918801 -0.7632816314939104 -0.44492564478537955
923704 -0.7537864932866355 -0.4433461109485671
928607 -0.7515406053854614 -0.441740961783549
933510 -0.7411526923302054 -0.44404358794428134
938413 -0.7386865826725412 -0.4446487535157908
943316 -0.7340112353064183 -0.4551243589123251
948219 -0.7368313974668035 -0.46457372519071305
953122 -0.7405769588315068 -0.47236398114464606
958025 -0.7406842147894095 -0.47168435482547144
962928 -0.7489999209558407 -0.47503206108102003
967831 -0.7569631654761299 -0.47857414504795104
972734 -0.7641551926254097 -0.47474296486069634
977637 -0.7648887598371472 -0.47338199709776174
982540 -0.7710539671164883 -0.4715826532910688
987443 -0.7744956708190482 -0.472893224554795
992346 -0.7767816709082813 -0.4673971148926997
997249 -0.77867338876965 -0.47000102493596996
1002152 -0.7803817242502012 -0.465844477684509
1007055 -0.7875624945643803 -0.463741123045433
1011958 -0.7903350949200816 -0.458784025685188
1016861 -0.7926159813637234 -0.4589321461896245
1021764 -0.793730751077877 -0.45765689648771796
1026667 -0.7941988757835821 -0.4519933186986319
1031570 -0.8005329634839143 -0.4522038914593433
1036473 -0.7953711538611654 -0.448434181920961
1041376 -0.8004847317015304 -0.44932531567643647
1046279 -0.8005967145411516 -0.4440765479645788
1051182 -0.8060101235068399 -0.44401904337462955
1056085 -0.8086325178606499 -0.4418518479573988
1060988 -0.8092778244942348 -0.4399135655097017
1065891 -0.8108456326950498 -0.4376614659185012
1070794 -0.8100409277512882 -0.43431111748037965
1075697 -0.8126602439399491 -0.4357295568519223
1080600 -0.8147321501690588 -0.43072794548762183
1085503 -0.8145085711087754 -0.43013604307898556
1090406 -0.8172009339545646 -0.42562870202772907
1095309 -0.8168182289701547 -0.4247528447910401
1100212 -0.8198932118014957 -0.4283199399142644
1105115 -0.8191019198037542 -0.41892976393775455
1110018 -0.8221810370004584 -0.4218809548475488
1114921 -0.8231678913383024 -0.41542264819957225
1119824 -0.8248561436045432 -0.417964205837268
1124727 -0.8259038742948005 -0.4157171142675669
1129630 -0.8276592357520534 -0.4107261710597363
1134533 -0.8300778489439302 -0.4088201628140318
1139436 -0.8282431186847947 -0.4114564691098208
1144339 -0.8267365833727932 -0.4061424951673287
1149242 -0.831557968145226 -0.4020072612850332
1154145 -0.8327697061233998 -0.4011680080734359
1159048 -0.8367178050359252 -0.39850868886085833
1163951 -0.8340643000522784 -0.3967554234248137
1168854 -0.8337341881049919 -0.3963454714922882
1173757 -0.8351061661285002 -0.39380358345623095
1178660 -0.8360919607461235 -0.38890158352384824
1183563 -0.8350280143399946 -0.38975634361800565
1188466 -0.8342739385847021 -0.3866790486267787
1193369 -0.8396987466233146 -0.3877590157047988
1198272 -0.8388607648759802 -0.3813126274643588
1203175 -0.8405525247731623 -0.38278168068771534
1208078 -0.8387596968259171 -0.3757749574748939
1212981 -0.8412695806222592 -0.3777268425058597
1217884 -0.8405202847157722 -0.37592650957963886
1222787 -0.8434437623660502 -0.37360667955714283
1227690 -0.8429210912575152 -0.3703965665026391
1232593 -0.8433107325386412 -0.3708715522646939
1237496 -0.8419631473947506 -0.3677975530690596
1242399 -0.8426674871217111 -0.364276669752423
1247302 -0.8412072405374832 -0.36401611520661653
1252205 -0.8440805368424051 -0.35788604409126584
1257108 -0.8392198168184144 -0.3585909450312969
1262011 -0.8374321923243073 -0.3550003671662915
1266914 -0.8346500676005539 -0.3563717809360048
1271817 -0.8323826066822172 -0.3572158092514151
1276720 -0.8321280299760012 -0.3546258678571994
1281623 -0.8300104256996068 -0.35840691479614484
1286526 -0.8265403365318633 -0.361163579175935
1291429 -0.8300373564808262 -0.363019222925687
1296332 -0.8367518550238028 -0.3623053873535894
1301235 -0.8343143528679388 -0.36251032042144304
1306138 -0.8410457894023692 -0.3691219064669524
1311041 -0.8412872537848508 -0.3596805114118127
1315944 -0.8407469909188415 -0.36177067455758555
1320847 -0.8428709470990366 -0.3637544785474213
1325750 -0.8458140946917326 -0.3629097191495734
1330653 -0.8440699310750582 -0.36283044480433363
1335556 -0.8524122118079129 -0.3587339117966136
1340459 -0.8491801690970336 -0.36233091031228454
1345362 -0.8534498392401249 -0.3552955827644763
1350265 -0.8504421505112546 -0.35599277782702593
1355168 -0.8546139773017032 -0.35166037223567953
1360071 -0.856656703003765 -0.3530378388805317
1364974 -0.8611882327015864 -0.34628388726067855
1369877 -0.8603156498222084 -0.3508813036076532
1374780 -0.8584987237164642 -0.34851210346778494
1379683 -0.8650222682076483 -0.34705590405947967
1384586 -0.8614323158764537 -0.34475110359890027
1389489 -0.861851496168659 -0.3405997904230292
1394392 -0.8627729917808565 -0.3410787414795009
1399295 -0.8637253380625418 -0.34277736669147696
1404198 -0.8675657507129261 -0.3420758320574675
1409101 -0.8676782342270437 -0.3378993053644746
1414004 -0.8709056568527188 -0.33622883685502186
1418907 -0.865495292944379 -0.3361481890938848
1423810 -0.8689034620219093 -0.33082651193160484
1428713 -0.8715933445057303 -0.33028627232011165
1433616 -0.8679064843291447 -0.3320036716972338
1438519 -0.8665773009218553 -0.3309788497004773
1443422 -0.8706620228980363 -0.3260813321824115
1448325 -0.8734400358036547 -0.3250077883985462
1453228 -0.8686349336845299 -0.3249005567859869
1458131 -0.8709586081650407 -0.3239850658929906
1463034 -0.8740737907142581 -0.32177127099385183
1467937 -0.871493464011434 -0.3191054293462308
1472840 -0.8732432012854627 -0.3182560062143227
1477743 -0.8722529339938065 -0.31689427425775224
1482646 -0.8747982692510511 -0.3144314933318806
1487549 -0.8757854318396381 -0.3125248543323926
1492452 -0.8757072621129725 -0.3106449410996262
1497355 -0.8747140374570578 -0.31102262387419477
1502258 -0.8731960129593077 -0.3088812722816131
1507161 -0.8767391505502095 -0.30644631453349913
1512064 -0.874438689427994 -0.30820363010808016
1516967 -0.875306876349579 -0.3050578837155212
1521870 -0.8738498778000623 -0.303514495663743
1526773 -0.874977425920459 -0.3004484655224591
1531676 -0.8717408753820569 -0.3002214811880353
1536579 -0.8746571120451573 -0.2984865238973538
1541482 -0.8708659719960211 -0.30011684986561116
1546385 -0.8714310780735636 -0.29573845566399565
1551288 -0.8712987578935062 -0.297067573779035
1556191 -0.8668316605302351 -0.29632837124332884
1561094 -0.8681160546823744 -0.29791290539406284
1565997 -0.86599969292489 -0.29879072200133294
1570900 -0.8714301310974771 -0.3007125604490768
1575803 -0.8650954353798468 -0.3026691477828475
1580706 -0.868841476094324 -0.3034552466875243
1585609 -0.8725697727504009 -0.30182468934058493
1590512 -0.8719205623211609 -0.30380873568590017
1595415 -0.8742724411664891 -0.30291391829672376
1600318 -0.8726740940624651 -0.29894520404402297
1605221 -0.8805509380656728 -0.2998802551673397
1610124 -0.8769217967626132 -0.29657233917997666
1615027 -0.876701618836029 -0.3027987185195442
1619930 -0.8815052280618567 -0.2993641707562598
1624833 -0.8824273244023183 -0.29669658531481174
1629736 -0.8840226426162194 -0.29397551452747234
1634639 -0.8851891516950724 -0.2873778272985365
1639542 -0.8863547147372398 -0.2850945734832932
1644445 -0.8873110126181374 -0.2873946815952183
1649348 -0.8885610678489485 -0.2878930817910181
1654251 -0.8877925811815182 -0.28753511928857284
1659154 -0.887785389203464 -0.28179884044376496
1664057 -0.8901513509466269 -0.28148004340758315
1668960 -0.8875134118787589 -0.2814470305890789
1673863 -0.8897932776521696 -0.279736055646642
1678766 -0.8897633551548869 -0.28171258791904913
1683669 -0.8919480898930392 -0.2793050787016315
1688572 -0.885887988849807 -0.2785635754453025
1693475 -0.8928405457445523 -0.27360581986783067
1698378 -0.8865954197714885 -0.2721121992995164
1703281 -0.8881314161439379 -0.2706082963219582
1708184 -0.8900117024944872 -0.2722361169601434
1713087 -0.8915105559244041 -0.26763419560769597
1717990 -0.8889294052104231 -0.27047330311385925
1722893 -0.8903213767388064 -0.2653053078582457
1727796 -0.8905806449348792 -0.2645943989342786
1732699 -0.8879189748533669 -0.26147979614583067
1737602 -0.8908342801685853 -0.2625328611782781
1742505 -0.8881234832221395 -0.26394515952107384
1747408 -0.887967574930478 -0.25753143462144523
1752311 -0.8856304318060877 -0.2581926795794988
1757214 -0.8892147766873069 -0.258542577055407
1762117 -0.8839544275639458 -0.2603786686807213
1767020 -0.8845426734245327 -0.26115829635441434
1771923 -0.8852431225146137 -0.25761608698588734
1776826 -0.8848391670288108 -0.26428736784451917
1781729 -0.8859319584657371 -0.2589498747859016
1786632 -0.8859788397136228 -0.2570994574735129
1791535 -0.8893238877212197 -0.25906304079677056
1796438 -0.8854170143433161 -0.2676080314206178
1801341 -0.8871061691724952 -0.26097535637747094
1806244 -0.88986049486262 -0.2567227749592529
1811147 -0.8927010825160148 -0.25369497032299904
1816050 -0.894393156967411 -0.25364588090973733
1820953 -0.8919195877425822 -0.25583071210120495
1825856 -0.8899000460943787 -0.25225434966302573
1830759 -0.892981971992855 -0.25055694623517644
1835662 -0.88980435110612 -0.25104953996463186
1840565 -0.8922537934808916 -0.25135027448325287
1845468 -0.8931722899685166 -0.249075803026844
1850371 -0.8910910645353983 -0.24846118264677772
1855274 -0.891017034026822 -0.24669221499686225
1860177 -0.8935595750006704 -0.24280443350606767
1865080 -0.8898233467507578 -0.24113770116145486
1869983 -0.8905100632791689 -0.24632228585866162
1874886 -0.8883671990309137 -0.2451539209703182
1879789 -0.8930958690494584 -0.24441352047054393
1884692 -0.8912951817586626 -0.2428536336438509
1889595 -0.893325658029453 -0.24021790381391944
1894498 -0.890726350507575 -0.23811357602072372
1899401 -0.8912303483098862 -0.2442723428372469
1904304 -0.8873859791816315 -0.23923085400330302
1909207 -0.8966140474687573 -0.24431096432595467
1914110 -0.8895489765699902 -0.2433681599865435
1919013 -0.8967487109473191 -0.2402189700774806
1923916 -0.8919547909330118 -0.24265128093371366
1928819 -0.89425759532029 -0.24139420091405858
1933722 -0.8922270164258754 -0.2381479744157813
1938625 -0.896851482403788 -0.23957940930739902
1943528 -0.8970107433995771 -0.23989135125063227
1948431 -0.8960666778070172 -0.2373819119424478
1953334 -0.899648738924558 -0.23783285789421915
1958237 -0.8995247972451875 -0.23902320960501142
1963140 -0.8998513407872913 -0.23826890282954902
1968043 -0.899120078610622 -0.2362084243332661
1972946 -0.9018076450215797 -0.23362405495506808
1977849 -0.905237140247186 -0.23608486993870967
1982752 -0.9007674386395575 -0.2320183866541802
1987655 -0.903287867197157 -0.22996281684090372
1992558 -0.9079751985824341 -0.23317453807469035
1997461 -0.9064561987414569 -0.22996359943362144
2002364 -0.9020273335650046 -0.2316220953973156
2007267 -0.9021620860515024 -0.22670138334586917
2012170 -0.9052488096055675 -0.2250073120508257
2017073 -0.9035530507539442 -0.22632626339476986
2021976 -0.9079394193879863 -0.2235957527818351
2026879 -0.9051137763645698 -0.22247618305190434
2031782 -0.9066292419303832 -0.21899140821642948
2036685 -0.9053862164062907 -0.2223831911385815
2041588 -0.9047330652138178 -0.2158027368901171
2046491 -0.9067373973746773 -0.2177541299536395
2051394 -0.9064405822982833 -0.21438284314366765
2056297 -0.9059573594126552 -0.21180146317296042
2061200 -0.9067118616691664 -0.21415878598822796
2066103 -0.9115296826537317 -0.21280766844564283
2071006 -0.9059940392318259 -0.21191247414369407
2075909 -0.9086302686865975 -0.21200170923597242
2080812 -0.9055574178568293 -0.2161673987634502
2085715 -0.9104763238270789 -0.20957249355748497
2090618 -0.9068912670781247 -0.21330990049508783
2095521 -0.9145492771478886 -0.20846862313614214
2100424 -0.9067090629309269 -0.20863191153246122
2105327 -0.9133003180128266 -0.20619168171605826
