# HZ S RI R 50
100000 0.5240482120886327 -0.7182565036777881
104903 0.49659157580318347 -0.7354223390986736
109806 0.4691824093704084 -0.7511937435706683
114709 0.4370907015221806 -0.7669156576915132
119612 0.4087327710642588 -0.7799309792678002
124515 0.37899827427038457 -0.7888794897319941
129418 0.34961941697230486 -0.8013265025990067
134321 0.31997399917950253 -0.8080912947832655
139224 0.29145392861882985 -0.8171364830019832
144127 0.26226502437948623 -0.8255372052020938
149030 0.2296518622839898 -0.8274442818818368
153933 0.19898305580008907 -0.8302083769950581
158836 0.17027333193044503 -0.8335419760312934
163739 0.1384532652957363 -0.8311889108845807
168642 0.10915053750783062 -0.8217506301336398
173545 0.08144997974125148 -0.819112646439874
178448 0.05389369797252516 -0.8081687219021464
183351 0.025689097620141897 -0.7954266651126519
188254 -0.003013094515350542 -0.7790037617759304
193157 -0.028705709419313868 -0.7554206486288446
198060 -0.05123107172691168 -0.7241918270403553
202963 -0.0610225266761227 -0.6772355598012662
207866 -0.04092839524345451 -0.6322016573803521
212769 0.0034382048207228354 -0.590264554025992
217672 0.07964779472035116 -0.5867167060186058
222575 0.14922765053581194 -0.6528556042314767
227478 0.14437693393602533 -0.7335901192081037
232381 0.10860626265824691 -0.7798577684930592
237284 0.07365506007749095 -0.8067459826850528
242187 0.04207358921889234 -0.8244367794448286
247090 0.014845279215256598 -0.8307400470706873
251993 -0.01048897469344939 -0.8441813846332977
256896 -0.03383298232118122 -0.8465892565102285
261799 -0.05865297984602502 -0.8501537719253631
266702 -0.08330408607939313 -0.8525619385565504
271605 -0.10577132897397616 -0.8510438575166731
276508 -0.12526623973676268 -0.849129736307907
281411 -0.14752861542315673 -0.8500076803108384
286314 -0.1626329325907894 -0.8442485488526444
291217 -0.177908666915332 -0.8400394902536393
296120 -0.19493497548132177 -0.8372896328185341
301023 -0.20753744747120934 -0.8293978052803338
305926 -0.2221234227779703 -0.8270527583201434
310829 -0.22943421658179822 -0.8246062743347582
315732 -0.23979001802104763 -0.8219403440430757
320635 -0.2538061256157288 -0.8210716270740089
325538 -0.26353631420474377 -0.8191771110471442
330441 -0.27882611760071585 -0.8195491647582538
335344 -0.2903596547703578 -0.814922803017795
340247 -0.3066159253561777 -0.8153525111023268
345150 -0.3146290482413065 -0.8113606952369872
350053 -0.32924920711470274 -0.8073360567853334
354956 -0.33796280388578626 -0.8035535694322987
359859 -0.35317881368667986 -0.797846130578539
364762 -0.3587464014100815 -0.7939987844065949
369665 -0.36961501539671404 -0.7872888878134031
374568 -0.3797904653498492 -0.7876067566913332
379471 -0.39141740523439134 -0.7815369365436334
384374 -0.4001770221413351 -0.7812952922286819
389277 -0.4069183436782077 -0.7745073080636955
394180 -0.41854886281206427 -0.7713917933951387
399083 -0.4264996752242994 -0.7649477698441989
403986 -0.43396697782114035 -0.7603641845552218
408889 -0.4415152283643828 -0.7588491583538017
413792 -0.4518143192858911 -0.7505946323459549
418695 -0.46017588731253406 -0.7475311316233172
423598 -0.466123205938959 -0.7418897061890701
428501 -0.47556115823195294 -0.7397258667096268
433404 -0.48135715021879233 -0.7353706075149249
438307 -0.49136942645887355 -0.7283768520738386
443210 -0.4950393782283586 -0.7293050651269833
448113 -0.5016073511520998 -0.7213336937748355
453016 -0.5107087256280762 -0.7207469137341849
457919 -0.5149868546304041 -0.7115767526523814
462822 -0.5229324254019242 -0.7096168364905258
467725 -0.5290575709241764 -0.7030884552828383
472628 -0.5367984368846743 -0.7010557933549745
477531 -0.5414278282625152 -0.694795117999548
482434 -0.5464047554453404 -0.6874369181810082
487337 -0.5540535871512156 -0.6883792497887672
492240 -0.5601511792796318 -0.6823363650766208
497143 -0.5651161650132959 -0.6766302734575894
502046 -0.5683979538162023 -0.6733892863394594
506949 -0.5730546324601261 -0.6705486253018567
511852 -0.5765791625076108 -0.665524821143751
516755 -0.583527576334581 -0.6585168435711185
521658 -0.5918533224497534 -0.6588722112642282
526561 -0.5951165314807558 -0.6489227763783906
531464 -0.5996981802857925 -0.6462903870106556
536367 -0.6067618064571989 -0.639794567860738
541270 -0.6072207547010795 -0.6346488733357042
546173 -0.6109580752654471 -0.6290166957197629
551076 -0.6171746650887856 -0.621361783775492
555979 -0.6199404092740187 -0.6107730314633114
560882 -0.6180848611048791 -0.6035910097108126
565785 -0.6192398604457511 -0.5894848279802056
570688 -0.6172014978825502 -0.5808262872977299
575591 -0.6072767868707194 -0.5734986988699287
580494 -0.5880330271327379 -0.5738767700780383
585397 -0.5802745422779173 -0.5823818503562147
590300 -0.5788988721724626 -0.5973290245307453
595203 -0.5865788156243157 -0.6108633441719609
600106 -0.5945096176976501 -0.6174111037211865
605009 -0.6051231063889475 -0.6230543065478503
609912 -0.6140019008282347 -0.6221732298024861
614815 -0.6240802138571105 -0.6210651288248901
619718 -0.6307977744605975 -0.6202316730580228
624621 -0.6385048847618634 -0.6184852194479081
629524 -0.6423157435076765 -0.6139626351155225
634427 -0.6511921075393665 -0.6135531332378504
639330 -0.6583150366246746 -0.6087472453011147
644233 -0.6654225788718006 -0.6017479258393565
649136 -0.6657456872673769 -0.6021507845373739
654039 -0.6701558926122378 -0.596775502213097
658942 -0.6793401821927888 -0.5947468364550161
663845 -0.6807151888558794 -0.5896160471801061
668748 -0.6830098298706941 -0.5860670771521491
673651 -0.6851692677920775 -0.5810585087506399
678554 -0.6911904855542361 -0.5789709479713809
683457 -0.6923740858549371 -0.578066780255592
688360 -0.6938191990547793 -0.5726220620535328
693263 -0.7022675419380052 -0.566785059040757
698166 -0.7035550934949729 -0.5694838747045622
703069 -0.704262783760377 -0.5649144493216756
707972 -0.7096073577747062 -0.5647903274559312
712875 -0.7130284018591981 -0.5597240272231344
717778 -0.7177409333175698 -0.556615234641763
722681 -0.7161784524866883 -0.5525669031371095
727584 -0.7227725442146384 -0.550090250110465
732487 -0.7224836092742005 -0.549142219284548
737390 -0.7280132160878693 -0.544769604912881
742293 -0.7305076359237684 -0.5450201553402365
747196 -0.7345177806195541 -0.5368758796798039
752099 -0.73265077494077 -0.533654624006928
757002 -0.7358083854096472 -0.5319828438502888
761905 -0.7406450793101632 -0.5310153379694537
766808 -0.7409388404238995 -0.5276090967867268
771711 -0.7439955597135203 -0.5250429399826013
776614 -0.7457114799665263 -0.5228778294003447
781517 -0.746581323710323 -0.5193235051885449
786420 -0.7505967034594517 -0.5151984600765754
791323 -0.7536601377056197 -0.5144730141446167
796226 -0.7539061197399726 -0.512352802955973
801129 -0.7556194959622433 -0.5077128696351065
806032 -0.7556253398136691 -0.5063035226999542
810935 -0.761047804980465 -0.5043900652774906
815838 -0.7584683432059387 -0.5032060185424474
820741 -0.7618961729525467 -0.49885106407173274
825644 -0.7629754358263585 -0.49846293268703834
830547 -0.765291116126245 -0.4940887588566368
835450 -0.7692368944465044 -0.49023953482227195
840353 -0.7684389587870507 -0.49191524140930076
845256 -0.7719849524190163 -0.4864351873546944
850159 -0.7716198053119152 -0.48522383381497924
855062 -0.7747585174060567 -0.48317849388692474
859965 -0.7774658734864313 -0.47969104203729335
864868 -0.7778772298880748 -0.4795713326181022
869771 -0.7822014823628427 -0.4746447092842563
874674 -0.7826061699629125 -0.47516546372752283
879577 -0.7794172761687981 -0.470642215480918
884480 -0.7852645782291077 -0.4687851694704938
889383 -0.7855853028976907 -0.4638874341501021
894286 -0.7884769984208152 -0.4638636703402652
899189 -0.7905288008323952 -0.4581563223866961
904092 -0.7914825281655041 -0.4579234666441508
908995 -0.7883504486399716 -0.4524492543610886
913898 -0.7938463998787978 -0.4509566880843147
918801 -0.794155297018944 -0.4460850312522106
923704 -0.7911526985793883 -0.44163235730785483
928607 -0.792363928646116 -0.44015725904526576
933510 -0.788864097594225 -0.43808945923416587
938413 -0.7886463256346357 -0.43223664412077745
943316 -0.786379078168694 -0.43115253171058066
948219 -0.7849425284124061 -0.43531037559872005
953122 -0.7846490105405552 -0.4371089656394228
958025 -0.7788666966873148 -0.4376128780625206
962928 -0.7866344109086189 -0.44093753777494216
967831 -0.788041506898484 -0.4424444698994132
972734 -0.7896834629738205 -0.4420906809143449
977637 -0.7913141261192166 -0.44292339231359373
982540 -0.7933083724154527 -0.43851994539385286
987443 -0.8010301243723132 -0.4410035625820947
992346 -0.8001620132160978 -0.43607082507926576
997249 -0.8053481927171571 -0.43991715905929674
1002152 -0.8016029982939125 -0.4361671770047044
1007055 -0.8082784679412413 -0.4349173651820863
1011958 -0.8114455788965742 -0.4345466178087443
1016861 -0.8123015821892714 -0.4289275762472373
1021764 -0.8130637378133397 -0.42957030289192144
1026667 -0.8134098563269887 -0.42533784950500847
1031570 -0.8180307541667438 -0.42574272343836767
1036473 -0.8148415555790368 -0.4227232838491505
1041376 -0.821871730856012 -0.42161040318197296
1046279 -0.8184628718835449 -0.41860579122739033
1051182 -0.8240317259867181 -0.4215172244558927
1056085 -0.8257773003561723 -0.41876685857269735
1060988 -0.8253690132057919 -0.41537031019926524
1065891 -0.8278518609844988 -0.4125893201860864
1070794 -0.8246046024373286 -0.41203063106621857
1075697 -0.8262639996143103 -0.4122547948821222
1080600 -0.8292748273700361 -0.4068934992792546
1085503 -0.8304009137175914 -0.40492551828193757
1090406 -0.8308132858201847 -0.40672393738814216
1095309 -0.835349632596182 -0.39994923635816687
1100212 -0.8359901258901445 -0.40477551861994565
1105115 -0.833995016530375 -0.3968882517546891
1110018 -0.8350961528251164 -0.4004051732925927
1114921 -0.8368192764435979 -0.39491660381584826
1119824 -0.8373136994996442 -0.3977784310039483
1124727 -0.8410155962821174 -0.3918067406135748
1129630 -0.8416097815851109 -0.3884368183227687
1134533 -0.8396874813182764 -0.3901099378035857
1139436 -0.8424444994072164 -0.39271457466472726
1144339 -0.8422032222462765 -0.3860599281848413
1149242 -0.8436019565124792 -0.3843073185822503
1154145 -0.8458212581997925 -0.3811683296861355
1159048 -0.8473569558001803 -0.38378646647760495
1163951 -0.8480757508348039 -0.37871859661980234
1168854 -0.8454042068045574 -0.3795970547915334
1173757 -0.8473120999738105 -0.3757790485217613
1178660 -0.8499409258980984 -0.37375133060512383
1183563 -0.8458702792019918 -0.37432537644717834
1188466 -0.8476357959635061 -0.3696350476552619
1193369 -0.8513923894011866 -0.3727653759460181
1198272 -0.8508493776376108 -0.3667816011839305
1203175 -0.8535730508621427 -0.369583559527646
1208078 -0.8488140810484125 -0.36359567812171895
1212981 -0.8511511051333771 -0.364834498483242
1217884 -0.8482649795616833 -0.362003592357156
1222787 -0.8562977134538308 -0.3592660007448205
1227690 -0.8543399667804131 -0.3592792277361361
1232593 -0.8576234326952036 -0.3590807543538558
1237496 -0.8552647127273832 -0.3587504306696833
1242399 -0.8564792691089326 -0.3527387215042087
1247302 -0.8555576377444537 -0.35785109990008795
1252205 -0.8541084079414715 -0.35473070212528396
1257108 -0.8618555461037042 -0.34955067021391517
1262011 -0.8592838682215655 -0.34510208040895246
1266914 -0.8614067139802761 -0.34707096089016065
1271817 -0.8567518563152312 -0.34557377898081276
1276720 -0.8606297220842548 -0.3422967436216413
1281623 -0.852892725028247 -0.34277558286472637
1286526 -0.8535942041652458 -0.33931058543598536
1291429 -0.8552288338896756 -0.3384917037644364
1296332 -0.8557566398140253 -0.3384416512620299
1301235 -0.8527380171621736 -0.33968675301935747
1306138 -0.8537653964331658 -0.3427351087561258
1311041 -0.8544921267749522 -0.34080688261999803
1315944 -0.8521840326818245 -0.34251568503468316
1320847 -0.8516685652473022 -0.3424003435811255
1325750 -0.8563149106753594 -0.34442727653799315
1330653 -0.8589128317972475 -0.34432489770433344
1335556 -0.8627796696005312 -0.34151716753415123
1340459 -0.8616082977357973 -0.3401587476864437
1345362 -0.8608945652885571 -0.33814439917264916
1350265 -0.8640664454201727 -0.3390053224196339
1355168 -0.867343788754107 -0.3348780732474895
1360071 -0.8714276056987825 -0.33781429416790854
1364974 -0.8704387322309107 -0.33366403191698235
1369877 -0.870360754486019 -0.3324117896799118
1374780 -0.8710327640075757 -0.3334643004434762
1379683 -0.8742973027720098 -0.330976214394015
1384586 -0.8681599946539558 -0.32953891030460125
1389489 -0.8731918904102663 -0.3290890154787532
1394392 -0.8730677995066124 -0.32972710115809833
1399295 -0.8713732820419897 -0.32619179358752126
1404198 -0.8750298185381982 -0.3246797142539553
1409101 -0.8770331556197064 -0.32327889541305366
1414004 -0.8777645895887005 -0.3240662436495179
1418907 -0.87195089324484 -0.32219733684714413
1423810 -0.8764080393946924 -0.31829228702410883
1428713 -0.8769118712254265 -0.3202649876896159
1433616 -0.8734795022167561 -0.3209756505488752
1438519 -0.8768792586766458 -0.3185674513215698
1443422 -0.8823517778452253 -0.31496752022987934
1448325 -0.881829820356321 -0.3147908503565642
1453228 -0.8782262885289217 -0.31269854678979314
1458131 -0.8789665706353996 -0.31445861760799015
1463034 -0.8793047159990526 -0.31258386652356246
1467937 -0.8817576136274821 -0.3108046461172761
1472840 -0.8830072448119145 -0.3096746865574663
1477743 -0.8816532628866557 -0.30836514869602716
1482646 -0.8787408384479641 -0.3061546204072627
1487549 -0.8824839871249912 -0.3070704617010018
1492452 -0.8826077863437957 -0.30633118014833594
1497355 -0.8795280263966682 -0.30154811879267135
1502258 -0.8822840865875685 -0.3004973833903547
1507161 -0.8817096716070896 -0.3032008767326121
1512064 -0.8829309284677086 -0.30193805277278835
1516967 -0.8879080602953862 -0.29802775666838666
1521870 -0.8829796302854197 -0.29995170427906964
1526773 -0.8803542898481225 -0.2971419115498341
1531676 -0.8832550522366769 -0.29654355767109364
1536579 -0.886216746592726 -0.2955815905753303
1541482 -0.8852585489655248 -0.29541655378677295
1546385 -0.8859117356564216 -0.2928891814451061
1551288 -0.8851743199561647 -0.29023594467872205
1556191 -0.8836471964949092 -0.2905958105146664
1561094 -0.8851895167469678 -0.2868269672314312
1565997 -0.8855565865317896 -0.28549588699898976
1570900 -0.888831822093051 -0.28831268772979984
1575803 -0.8822312571194023 -0.28718807357341763
1580706 -0.8826372470570354 -0.28424377908732423
1585609 -0.883748286428403 -0.28701168077097533
1590512 -0.8788512123401014 -0.2822311080343421
1595415 -0.8832079589570713 -0.28613753067090947
1600318 -0.8778711469845948 -0.28360816412758805
1605221 -0.8857641584072199 -0.2826954140656084
1610124 -0.8858996154682401 -0.28473693771901437
1615027 -0.8853714453036423 -0.2847258038930213
1619930 -0.8866439397673587 -0.2843511323996662
1624833 -0.8879409364460402 -0.28658435675004407
1629736 -0.8884738501420486 -0.28425759869489176
1634639 -0.8901849448665544 -0.27882989645324646
1639542 -0.891296651941781 -0.28295585499683656
1644445 -0.8906120614961791 -0.2816755588833746
1649348 -0.8923963300527574 -0.2773033762037853
1654251 -0.8909586006497118 -0.27936631454519883
1659154 -0.8929082845872091 -0.27795441648209956
1664057 -0.8931295140049382 -0.2738968714067805
1668960 -0.8948120551134435 -0.27466628985922714
1673863 -0.8936808557709555 -0.2775218500449833
1678766 -0.8937019998206504 -0.27563513464498096
1683669 -0.8979475994516046 -0.2742420160257122
1688572 -0.8937730757827995 -0.2739497509619373
1693475 -0.899125690180287 -0.2679992897573038
1698378 -0.8950197179325798 -0.27050950810577795
1703281 -0.8929134718091885 -0.2705720619395695
1708184 -0.8952467079852325 -0.27106187595032966
1713087 -0.8978493134258413 -0.265913990740939
1717990 -0.8944014683938092 -0.26866976147848937
1722893 -0.8959949254074285 -0.26558026667795054
1727796 -0.8987615234685339 -0.2651068885251799
1732699 -0.8935181582067052 -0.2654343691131919
1737602 -0.895302826194571 -0.2636892962672543
1742505 -0.8993892183123628 -0.2610449948866917
1747408 -0.8964105172461637 -0.25803587560636443
1752311 -0.8954733242972408 -0.2592542165191864
1757214 -0.9009426641295998 -0.2590201678582159
1762117 -0.9017473342366974 -0.25890480385829495
1767020 -0.8966330716894853 -0.2550727290102972
1771923 -0.9010498709091704 -0.2526716050071282
1776826 -0.8950483088405354 -0.2570328866081217
1781729 -0.8997810956663386 -0.25598877571686557
1786632 -0.8958978364253697 -0.25352935033114443
1791535 -0.8981752635680585 -0.2538629070856211
1796438 -0.894975893256893 -0.2566259310778304
1801341 -0.8929824061815959 -0.24996100452762857
1806244 -0.8937446728962785 -0.25281237729652045
1811147 -0.8964929775577463 -0.2481645907480592
1816050 -0.8965192008534527 -0.25067083996793293
1820953 -0.9018092207722304 -0.25062483217586173
1825856 -0.8951143771867298 -0.251248112069164
1830759 -0.8996156359963634 -0.2546470592609657
1835662 -0.896621970343937 -0.24996838285983297
1840565 -0.9017046865856975 -0.2486278585839112
1845468 -0.9017479744096956 -0.2458263603273971
1850371 -0.9037666113960067 -0.24776653514411945
1855274 -0.9002635442315423 -0.25047510954532426
1860177 -0.899019994531305 -0.24796741726666435
1865080 -0.9036283670763187 -0.250015297777787
1869983 -0.9017539640780361 -0.24790843369019933
1874886 -0.8987556859028015 -0.24669226542515788
1879789 -0.905170020599657 -0.24296333054097674
1884692 -0.9033571620655847 -0.24303739905528013
1889595 -0.9031674492925427 -0.2427340974410277
1894498 -0.9016973894129721 -0.23905555283498092
1899401 -0.9038797399300158 -0.2428938385345054
1904304 -0.903693693915992 -0.23950581600809914
1909207 -0.9063638636090977 -0.24303922727674165
1914110 -0.9016400928667239 -0.23820308862537803
1919013 -0.9044374601518672 -0.23634105514612225
1923916 -0.8996102711068841 -0.23703850143571384
1928819 -0.9024852688254179 -0.24030355317752095
1933722 -0.9029853298767163 -0.23488552404321283
1938625 -0.9025238781856553 -0.23746936897895993
1943528 -0.9011956287723256 -0.23308821290856785
1948431 -0.903114258509312 -0.23286081689244423
1953334 -0.9014063629481172 -0.2333055213864721
1958237 -0.902094595238129 -0.23362368071436349
1963140 -0.8997444492667163 -0.23420987881548894
1968043 -0.8994218064666489 -0.23614813226483441
1972946 -0.9016377808382487 -0.23381651163606348
1977849 -0.9063714658290086 -0.23684732394138447
1982752 -0.9002777265123476 -0.23072940995316754
1987655 -0.9026554598274523 -0.23218796742512335
1992558 -0.9049716347420097 -0.2308594717374272
1997461 -0.9075282793740523 -0.234797395747408
2002364 -0.9043431386871652 -0.23278123506294637
2007267 -0.9055644252630505 -0.22865183538589015
2012170 -0.9092422743916296 -0.2299090320889408
2017073 -0.9038169963506537 -0.23036807558816327
2021976 -0.9048101589255091 -0.22675088076648245
2026879 -0.9085040734512327 -0.22857822901329464
2031782 -0.9112417894032534 -0.2257971372040724
2036685 -0.9081048693051379 -0.2263079582996314
2041588 -0.9094032487098855 -0.2238218288817204
2046491 -0.9098619648794833 -0.22562558300153335
2051394 -0.9075852206760563 -0.22574546443440052
2056297 -0.9103519490310231 -0.22351812363595225
2061200 -0.911629770142062 -0.22200678633747806
2066103 -0.910708038296634 -0.2208103280541269
2071006 -0.9095042051083622 -0.22213046183787724
2075909 -0.9126628492085871 -0.21941801560683186
2080812 -0.9095197988688329 -0.2193025536787153
2085715 -0.9111976801597403 -0.21942910040825758
2090618 -0.9119029094374091 -0.220399481850657
2095521 -0.9094058975011925 -0.21314273156973015
2100424 -0.9063385345234688 -0.21590080800513853
