# HZ S RI R 50
100000 0.531357953346359 -0.7193314982097705
104903 0.5019622419773063 -0.7368479477131984
109806 0.47436787914080597 -0.751544849382164
114709 0.4422259104998478 -0.7671378759248562
119612 0.41902334979165806 -0.7787606972259671
124515 0.39110085074770873 -0.7885919152110905
129418 0.3620405723824406 -0.8023038758920069
134321 0.33372677037075016 -0.8091198358453479
139224 0.307244514958741 -0.820358097228675
144127 0.27680134536096207 -0.8260422194636798
149030 0.250644650340403 -0.8315585842836762
153933 0.22427018944653562 -0.8365324012494689
158836 0.1989771888949534 -0.8411686614109974
163739 0.17042521690429585 -0.8432273742526432
168642 0.14462898619176542 -0.8396108637454347
173545 0.11954630182979117 -0.8419457962625658
178448 0.09568288745617531 -0.8385514140987305
183351 0.06908571448398913 -0.8320769065513494
188254 0.04335445452127523 -0.8253494860282625
193157 0.018448258471637686 -0.8144902217288355
198060 -0.0021707695516838643 -0.7989662879540242
202963 -0.021207220505481156 -0.7779521768270716
207866 -0.022891190824852428 -0.7503062430508589
212769 -0.010905555006102994 -0.7227768002758306
217672 0.025211351640871637 -0.7173714953638599
222575 0.058035791398474486 -0.7561952455573188
227478 0.045199296941158776 -0.8013821733496906
232381 0.016942147014390875 -0.8247738462513443
237284 -0.008373911254676819 -0.8368365511314831
242187 -0.03588854453941951 -0.8452747453409922
247090 -0.05665313310496837 -0.8459925485989542
251993 -0.07600397650231196 -0.853336741421844
256896 -0.09602742728335888 -0.8509014753179718
261799 -0.11800537075580765 -0.8519785578223068
266702 -0.1361442417284391 -0.8517596588082651
271605 -0.15451688390188123 -0.8490610033771786
276508 -0.17082082519446098 -0.8448624732532133
281411 -0.18933065498357285 -0.8445992933533978
286314 -0.2039016185169322 -0.8420132352270376
291217 -0.2165421331526059 -0.8362507529097689
296120 -0.23265280036136868 -0.8334872690724888
301023 -0.24188570418268893 -0.825446045819009
305926 -0.2577015240460151 -0.8242319465088018
310829 -0.26477337381307825 -0.8213464203727812
315732 -0.2768045636811166 -0.8200342475646609
320635 -0.2884935615761402 -0.8169437073998075
325538 -0.3001365464238444 -0.8112606748207243
330441 -0.31265090794397915 -0.8130431442086129
335344 -0.3263086890114239 -0.8068083056514422
340247 -0.33602172666816177 -0.8039970006956908
345150 -0.3460874053844782 -0.8013786768750388
350053 -0.3572206430035538 -0.7970229401599226
354956 -0.3655079485773249 -0.7903308207554139
359859 -0.37890629075674076 -0.7860209522556342
364762 -0.3848158655517452 -0.7816759338585105
369665 -0.3923608377801025 -0.7783115782854481
374568 -0.40352386313094757 -0.7771650333703429
379471 -0.4161991345606139 -0.7722824760954886
384374 -0.4216829334440773 -0.769481049391177
389277 -0.42991289544705696 -0.7635586989802915
394180 -0.4389543753692481 -0.7614354344437027
399083 -0.4470171079207509 -0.7558137877385455
403986 -0.4559541458139834 -0.7491395746026256
408889 -0.4635541169055183 -0.7514292346954227
413792 -0.47165157026982607 -0.7422899875294277
418695 -0.4771337044285986 -0.7382630207548961
423598 -0.4853837081779385 -0.7333496168327315
428501 -0.4936587151391552 -0.7281794262115066
433404 -0.49917367469899243 -0.7296990283438303
438307 -0.5071941224181121 -0.7194217769233899
443210 -0.5110946884628099 -0.7203438597190787
448113 -0.5164983933737952 -0.7149704682074198
453016 -0.5240616893241657 -0.7096251001358101
457919 -0.5302236900314641 -0.7050390648441559
462822 -0.5383433955654807 -0.703120392366341
467725 -0.5414838394172878 -0.696017640625614
472628 -0.5488878987934209 -0.6921763874517126
477531 -0.5556767267400964 -0.6922185849421991
482434 -0.5580600474332933 -0.6804767275513036
487337 -0.5641296054428484 -0.6835734183932827
492240 -0.5694884854065342 -0.6752881249797046
497143 -0.576169276725572 -0.6736076700712441
502046 -0.5787604256220312 -0.6690290840261497
506949 -0.5833020982795043 -0.6650783393515989
511852 -0.5867438205331272 -0.6628587404736507
516755 -0.5956464673326278 -0.6569075751119011
521658 -0.600135134970429 -0.6569118229219459
526561 -0.6024862539241171 -0.6491520061432318
531464 -0.6070484709587562 -0.6458754201672776
536367 -0.6130831120084204 -0.6402648176130433
541270 -0.6149478446773826 -0.6352785686898818
546173 -0.6194396863696323 -0.6353436941473619
551076 -0.626610171098412 -0.6300273357194487
555979 -0.6282885036569061 -0.6233533863037721
560882 -0.6312574060626486 -0.6183692863138918
565785 -0.6354888002624155 -0.6078391907194867
570688 -0.6395838799573202 -0.601942885997885
575591 -0.6353207581988383 -0.5997171422376514
580494 -0.6285036165928853 -0.5912606513086163
585397 -0.6236007729109418 -0.5931732725634323
590300 -0.6251736433058047 -0.5971059537654246
595203 -0.6288139487664894 -0.6004184578921703
600106 -0.6316091050998647 -0.6058077799812146
605009 -0.6418111287624767 -0.6089532473595858
609912 -0.6445287818776217 -0.608347282980546
614815 -0.650963771650462 -0.606831690100981
619718 -0.6588081596896468 -0.6022672692391006
624621 -0.6630581382385092 -0.6011076420287965
629524 -0.6674339559449216 -0.5985010248400304
634427 -0.6717505280504579 -0.5937517103344204
639330 -0.6785890676956262 -0.5916936389480073
644233 -0.6820717565442546 -0.5870367209753996
649136 -0.6839681808955341 -0.5847672140841745
654039 -0.6859887852196334 -0.5803944682573906
658942 -0.6956425611520417 -0.5774406362675104
663845 -0.6955875082525421 -0.5759806622093065
668748 -0.6982789816328665 -0.5689021082795056
673651 -0.7008539572541863 -0.5687072627804054
678554 -0.7052330230292013 -0.5629062303185272
683457 -0.7049016265104388 -0.5645951804577631
688360 -0.7044935069107569 -0.5561077690452328
693263 -0.7149314914446914 -0.5580977388916075
698166 -0.7185947255181249 -0.5552308344231741
703069 -0.7189433440418951 -0.5541421097245347
707972 -0.7209496412730974 -0.5521384985618533
712875 -0.7239033496311523 -0.5446208935123084
717778 -0.7275278049339767 -0.5459730506102816
722681 -0.7281557746358757 -0.5403812850040101
727584 -0.7330112926728249 -0.5370732148408516
732487 -0.7346889522587405 -0.5340201397146606
737390 -0.7356200045345235 -0.5322203801595397
742293 -0.7380247047460111 -0.5282353747264368
747196 -0.7416403933854372 -0.5255920770033288
752099 -0.7445071100438512 -0.5234237055614189
757002 -0.7464737700484414 -0.5231858502221878
761905 -0.7479803054402002 -0.5204763696868864
766808 -0.7473058601079992 -0.5169348094629653
771711 -0.7508599327360159 -0.5135042822341888
776614 -0.7538139866387563 -0.5103626635954266
781517 -0.7559730624570101 -0.5103527789126019
786420 -0.7593376709235272 -0.5070220461008345
791323 -0.760134262328984 -0.5043751471122878
796226 -0.763772918780641 -0.5029511730243993
801129 -0.7650433093585487 -0.49991727084538073
806032 -0.7671905270699941 -0.494482376189241
810935 -0.7694858530886484 -0.4977174936536843
815838 -0.7663178685711541 -0.4939252727609274
820741 -0.7701978041424106 -0.4910753359921138
825644 -0.7719957501275849 -0.4878191629407442
830547 -0.7754208362019167 -0.4888151159987558
835450 -0.7798506515646411 -0.4816795668813333
840353 -0.7723623964269523 -0.4814103017135145
845256 -0.7764291906544816 -0.47904234117579525
850159 -0.7801419460555025 -0.47562518850360697
855062 -0.7813955338244429 -0.4755093530321309
859965 -0.7848722063153706 -0.4747540596657606
864868 -0.7852028904175116 -0.46947097006237754
869771 -0.785993618858269 -0.4707218971827293
874674 -0.788097825575122 -0.467270219720372
879577 -0.7879755807023394 -0.46839811478825993
884480 -0.7870610321966859 -0.46026291919532913
889383 -0.7917128804887974 -0.45934261826027956
894286 -0.7957369555032477 -0.45853448425375765
899189 -0.7980003634074978 -0.4559929384360223
904092 -0.7960515452456406 -0.45035768689149075
908995 -0.8004827636143353 -0.4496396411920495
913898 -0.79983900289789 -0.449076117874538
918801 -0.8013574938821288 -0.44458751034822297
923704 -0.7990041579124832 -0.4435342789349948
928607 -0.8027589802451661 -0.4423123612916703
933510 -0.7995935023927794 -0.44107785989836196
938413 -0.8048759962321936 -0.4341709859475397
943316 -0.8017386383656893 -0.4346117550314276
948219 -0.8030185550584332 -0.4346593033279438
953122 -0.803451494489954 -0.4322632877375522
958025 -0.7975571545024664 -0.4320176678539673
962928 -0.8025343683415971 -0.43152491025178397
967831 -0.8041151948232419 -0.43186912504388303
972734 -0.8043180339930267 -0.4315633435444641
977637 -0.8035465426594869 -0.4305618948696039
982540 -0.8042886724358126 -0.42733069462973317
987443 -0.8089400763799423 -0.43032822715207214
992346 -0.8126278546545939 -0.4276072049008141
997249 -0.8123865795160846 -0.4281523367959939
1002152 -0.8115505557215839 -0.42397286021580144
1007055 -0.8167130354224814 -0.4229268892176694
1011958 -0.8173880970535329 -0.4248923615107839
1016861 -0.8209630891115224 -0.4220959851097983
1021764 -0.8229850964059211 -0.41872345511690306
1026667 -0.821589323029694 -0.41624713059717083
1031570 -0.8278374222544707 -0.4176916606192204
1036473 -0.8217663954872204 -0.4114843080091367
1041376 -0.8276168432304584 -0.4128704471411112
1046279 -0.8268481298569547 -0.4120171707658188
1051182 -0.8307831718289804 -0.4096589818572577
1056085 -0.8332463654364275 -0.40939652529984055
1060988 -0.8290688859383439 -0.4064837043485807
1065891 -0.835262191263004 -0.40341455507537555
1070794 -0.8313438873955663 -0.40170292112598016
1075697 -0.8345552674581603 -0.39994904582281926
1080600 -0.8335965014104558 -0.3981942225269021
1085503 -0.8333595664484609 -0.3951261588159401
1090406 -0.8348937943864415 -0.39770105065086525
1095309 -0.8393803017809525 -0.3960480684265508
1100212 -0.840669588458033 -0.39799017732483116
1105115 -0.8396920812592747 -0.3897133540141172
1110018 -0.8410779001736088 -0.39141624641731654
1114921 -0.8409696169876828 -0.3864765944828246
1119824 -0.8410062549007281 -0.3890635077044265
1124727 -0.843925979210389 -0.3844471217388959
1129630 -0.8435464240211251 -0.38173117285355246
1134533 -0.8442115754275799 -0.3810046694019488
1139436 -0.8480305475990659 -0.38333844665587724
1144339 -0.8463312709341394 -0.3784741577317438
1149242 -0.8472806497947567 -0.381430046751615
1154145 -0.8510992953297892 -0.37849913198294105
1159048 -0.8495901098061229 -0.3791669106880384
1163951 -0.8480618573495996 -0.3769410982015041
1168854 -0.8467664409169094 -0.3726385813827346
1173757 -0.8517942133934285 -0.37186780948195014
1178660 -0.8543652344943949 -0.3692119355837385
1183563 -0.8503656360673539 -0.36899166999279476
1188466 -0.8496340068671437 -0.36746823597534956
1193369 -0.8558001885522707 -0.36894682357945824
1198272 -0.8542645537882225 -0.363085994810019
1203175 -0.8564815947128583 -0.36263596185003344
1208078 -0.8536648646498001 -0.35815719106668303
1212981 -0.8545910388795006 -0.3627039156098745
1217884 -0.8555345752797284 -0.35733352752746156
1222787 -0.8576697184106787 -0.3558130841464667
1227690 -0.8579061882003557 -0.3554972365734491
1232593 -0.8597785306028635 -0.3566443007804344
1237496 -0.8598738516021284 -0.35504788350454075
1242399 -0.8611670526438641 -0.3540470450685687
1247302 -0.8636156876367874 -0.3523413669899594
1252205 -0.8614707257032616 -0.3496502275110978
1257108 -0.8644166892720211 -0.3489016197208457
1262011 -0.8633593167771446 -0.34914776574246
1266914 -0.8658387293157779 -0.34534228296584696
1271817 -0.8622172610540955 -0.34983848165441744
1276720 -0.8641507605260088 -0.34110673352083987
1281623 -0.8660404555976003 -0.34141724440085064
1286526 -0.8631449314678569 -0.34210642629877924
1291429 -0.8646539173244326 -0.3395344114679415
1296332 -0.8664957294745204 -0.33519004674093467
1301235 -0.8656807868828855 -0.3358232017768364
1306138 -0.865511250604802 -0.33837788022951437
1311041 -0.8624408293308512 -0.3342451113109001
1315944 -0.8629850630072121 -0.3319216777906489
1320847 -0.8610655521304417 -0.3354824779756065
1325750 -0.863253281500358 -0.33763166595398403
1330653 -0.8648866989598823 -0.33320506546385775
1335556 -0.8654082009935542 -0.3347784611862216
1340459 -0.8665273722496404 -0.33440147904228273
1345362 -0.8690249629065439 -0.333822792347794
1350265 -0.8669375707320373 -0.33388766319487984
1355168 -0.8726167990963333 -0.329739680373801
1360071 -0.8761036072807699 -0.3289873442152028
1364974 -0.8723708044221663 -0.3281575903200455
1369877 -0.872229615420059 -0.32990028092655893
1374780 -0.8725905467728062 -0.32900894890959387
1379683 -0.8751400770826129 -0.32531022545402877
1384586 -0.8746473674257705 -0.32295518298999315
1389489 -0.8762359135290996 -0.32114594998123924
1394392 -0.8768378021432781 -0.3234066939425513
1399295 -0.8738239149027213 -0.32377637773829415
1404198 -0.8764582618818465 -0.3194425257925876
1409101 -0.8810269966385195 -0.3200594234709453
1414004 -0.8780219670094375 -0.31850992003916767
1418907 -0.8762656585684969 -0.3179158637984012
1423810 -0.8784205645767859 -0.31365683600139665
1428713 -0.8812061957305958 -0.3160791187959049
1433616 -0.8763593921718574 -0.3155851507736191
1438519 -0.8789452245672262 -0.3152727671423419
1443422 -0.8820791689132169 -0.31410754516861394
1448325 -0.88142956797567 -0.30758506192404284
1453228 -0.8796150703592261 -0.3089937433156662
1458131 -0.8818388511114035 -0.3094541660989798
1463034 -0.8834943848816719 -0.30894812248055786
1467937 -0.8832767936772752 -0.30580875095986193
1472840 -0.8812068827613292 -0.3071355882745152
1477743 -0.878801255414039 -0.3065675923763451
1482646 -0.8845735388448763 -0.30595380003028866
1487549 -0.8845541288390562 -0.3015661651504365
1492452 -0.8817696777367782 -0.30246465715376225
1497355 -0.8852865669372741 -0.301306274433563
1502258 -0.8840452966417193 -0.3010601331466202
1507161 -0.8857074880220905 -0.3002023423207044
1512064 -0.8859432533650601 -0.3025609543621558
1516967 -0.8867604707060688 -0.29841285990317695
1521870 -0.8859650541408529 -0.2970306028476525
1526773 -0.8850431503478184 -0.29472652475703015
1531676 -0.8853561151859346 -0.2937540142207363
1536579 -0.8882183611452489 -0.29390033834193596
1541482 -0.8894425900353125 -0.29778398336320056
1546385 -0.8872631200139136 -0.2910777411033805
1551288 -0.8912224831088289 -0.29177196134162775
1556191 -0.8882383054717241 -0.2907490644089052
1561094 -0.8914043189609486 -0.2912413199315579
1565997 -0.8898901714841183 -0.2891645613785289
1570900 -0.8935435877491514 -0.2898469465709871
1575803 -0.8869367081031164 -0.2926529926986966
1580706 -0.8891199546185998 -0.28746498874336357
1585609 -0.889925367911559 -0.2867555085250366
1590512 -0.8852423474356698 -0.2836340599549205
1595415 -0.8907517964346566 -0.28166933880345324
1600318 -0.8920221354774096 -0.2832880168485253
1605221 -0.8886123831523566 -0.2820292737450624
1610124 -0.8914484381971384 -0.2831232858543656
1615027 -0.8876753908427346 -0.2803715233213937
1619930 -0.892582155471938 -0.2812589347379684
1624833 -0.8907893874569278 -0.28238598822439254
1629736 -0.8913689476058594 -0.2826091357455636
1634639 -0.8906793879101615 -0.27979221850152547
1639542 -0.8953034923435674 -0.2795335761876963
1644445 -0.8942206751069378 -0.28282360811393137
1649348 -0.8954554759990093 -0.2806413472093114
1654251 -0.8937986451674903 -0.27994561047013117
1659154 -0.8943594917155363 -0.2767656668383691
1664057 -0.8954848637675097 -0.2730179972480993
1668960 -0.8961684001366192 -0.2748757490013771
1673863 -0.8959724095396994 -0.2771753737950346
1678766 -0.8972958065555116 -0.2734960057622696
1683669 -0.8968624965193535 -0.27282712364385286
1688572 -0.8957531088711136 -0.2762330798620691
1693475 -0.897160232830027 -0.270931829411035
1698378 -0.896092325863307 -0.2701367402495899
1703281 -0.8984706836049741 -0.2705538735007342
1708184 -0.8988529710112552 -0.2715877714047632
1713087 -0.8984100309228232 -0.2672724391570249
1717990 -0.897416321483927 -0.26656548556397835
1722893 -0.899070775334888 -0.26588488359942775
1727796 -0.9020994803396807 -0.2644932837857127
1732699 -0.8994308672085551 -0.26782319267999516
1737602 -0.8996489794522531 -0.26573509496852565
1742505 -0.8996559459665514 -0.2663230887677987
1747408 -0.9019428850115006 -0.26024700499170733
1752311 -0.8969010526972981 -0.2619256021884071
1757214 -0.9032659104892722 -0.26116642804697343
1762117 -0.8994786508184336 -0.26536730918656454
1767020 -0.8967790323293705 -0.2615737795850615
1771923 -0.8989043459279441 -0.2562659694416509
1776826 -0.9008544798966089 -0.26167122241467167
1781729 -0.9050783816070538 -0.2567191174680021
1786632 -0.8977906571782096 -0.2538868867066228
1791535 -0.9020902068032753 -0.2560588680807975
1796438 -0.900883259537301 -0.2595701078996646
1801341 -0.8989602675247585 -0.254020910391037
1806244 -0.9022809418126899 -0.2528616523576842
1811147 -0.9030826247470285 -0.25506604619799655
1816050 -0.9016631009107384 -0.249037747138049
1820953 -0.8999786577345795 -0.25541609729821
1825856 -0.9039952859390377 -0.2556807891649971
1830759 -0.9033614233067916 -0.2522072879156774
1835662 -0.8956535649382635 -0.2538714297962477
1840565 -0.9024939411465387 -0.251501065909682
1845468 -0.9046153849161832 -0.25433246971731927
1850371 -0.9030819734552412 -0.2439538088119643
1855274 -0.9045233388889525 -0.25369517175256157
1860177 -0.9018376019916847 -0.2463385260932951
1865080 -0.905848009332134 -0.24741590491948662
1869983 -0.8989620295059256 -0.25186639040537745
1874886 -0.9018069405859035 -0.25008417580801834
1879789 -0.9079846951466258 -0.25065561986799095
1884692 -0.9073613004983282 -0.245322288836206
1889595 -0.9054400937507252 -0.24772507184923317
1894498 -0.9026516195195288 -0.24489714175671765
1899401 -0.9070936660311582 -0.24582023984011964
1904304 -0.9077682614503121 -0.24186029723702093
1909207 -0.9073894538192974 -0.24291613547407362
1914110 -0.9083279905265246 -0.24593567566420746
1919013 -0.9109928481165599 -0.24210644041957524
1923916 -0.9086915801454548 -0.24291696906142798
1928819 -0.9077711442912315 -0.24206183053914612
1933722 -0.9061377967409454 -0.23830434118923588
1938625 -0.911960057044914 -0.23946677415414308
1943528 -0.9064493465949962 -0.23850740335212267
1948431 -0.9093717833736793 -0.23538651487984788
1953334 -0.9119791313283532 -0.23444721663564996
1958237 -0.9050081914624365 -0.24012283472719345
1963140 -0.9063009175475449 -0.23519264713610213
1968043 -0.9045419616760231 -0.23771803936086636
1972946 -0.9034553003609579 -0.23828007671132403
1977849 -0.9075186972697823 -0.23808189692514986
1982752 -0.9039420242961079 -0.23493214735712256
1987655 -0.9030505758666986 -0.2333931491624914
1992558 -0.9070033576770663 -0.23514554534261636
1997461 -0.9094624635816942 -0.23523135577822635
2002364 -0.9072010189579635 -0.23744737738126653
2007267 -0.906846534859191 -0.2305198785769985
2012170 -0.9090276464605972 -0.23346167637757603
2017073 -0.9084727853266698 -0.23545280522019324
2021976 -0.9051290986401236 -0.2358642955329181
2026879 -0.9116293362933927 -0.23632980374010734
2031782 -0.9121380335171437 -0.2297958226887052
2036685 -0.9107911912641888 -0.23294800037135155
2041588 -0.9110948824654661 -0.2261760075430245
2046491 -0.9183718335520065 -0.23039609078898632
2051394 -0.9102197129630708 -0.230009176405304
2056297 -0.9155586305419983 -0.22713624695120105
2061200 -0.9131606192934695 -0.2277423812969782
2066103 -0.9116609677251779 -0.22536229833704563
2071006 -0.9113965228072327 -0.22625723114385038
2075909 -0.9143718782279779 -0.22891578189586717
2080812 -0.9067688144645046 -0.22503749153714225
2085715 -0.9119238894102808 -0.22434994044282716
2090618 -0.9127935501879934 -0.22699344465391896
2095521 -0.9125611841771254 -0.220810740315891
2100424 -0.9108981570993417 -0.22339305086418576
