# HZ S RI R 50
100000 0.5189998392111005 -0.715859809076233
104903 0.49117516010726897 -0.7310900581752645
109806 0.46198478823955336 -0.7481105651627187
114709 0.4267430341493955 -0.7632385989467512
119612 0.3978381269319867 -0.7759670759661931
124515 0.36900407249193184 -0.784822349956617
129418 0.33573159493036525 -0.7979481984304683
134321 0.3033720706531155 -0.8040327669633401
139224 0.2703637045393765 -0.8127553860612001
144127 0.233729633282089 -0.8204706330352641
149030 0.20029389311290433 -0.8180498766595534
153933 0.16782429762394896 -0.8191571778371958
158836 0.13239604205745797 -0.8193226881856708
163739 0.09306913559512368 -0.8098742078882684
168642 0.057613900366073896 -0.7940290855135903
173545 0.029141492221676273 -0.7780248744254229
178448 -0.0013580558287058955 -0.7581329878545416
183351 -0.0348904250126709 -0.7339318684122362
188254 -0.06179221482953826 -0.698191112006457
193157 -0.08790123338973894 -0.6563880557653897
198060 -0.10176422209479694 -0.6007236547081111
202963 -0.09230212591666977 -0.5224806993203841
207866 -0.03605052867504205 -0.46176351039425273
212769 0.047910605690183655 -0.4127702476375219
217672 0.16624754988838977 -0.4225806880521645
222575 0.2680544639304655 -0.5186271957264555
227478 0.27603208455164174 -0.6355780824906304
232381 0.23672598901721292 -0.7093288302018287
237284 0.19771979573284443 -0.7553077900506568
242187 0.15791169303680033 -0.7846790269643311
247090 0.12409409680050425 -0.8025844261301786
251993 0.09739477244561365 -0.8228495353452314
256896 0.06708500708687963 -0.8322527901568211
261799 0.03630319283332175 -0.8439540396788989
266702 0.0068913828335399 -0.8506173079235744
271605 -0.02069491832946264 -0.8537970905394066
276508 -0.04497779342488713 -0.8542749617308599
281411 -0.07157919089888988 -0.8559727737529821
286314 -0.09160102583277425 -0.8521460635324943
291217 -0.10980550818868853 -0.8482192213607408
296120 -0.1300695011738235 -0.8456793685570778
301023 -0.14572964475437022 -0.840123420974739
305926 -0.15985867418676714 -0.8332187587864933
310829 -0.16812885182524004 -0.8303248880457671
315732 -0.17828767652972657 -0.8304933654389504
320635 -0.19148607865987777 -0.833296193328117
325538 -0.20495554909366126 -0.8309628803880633
330441 -0.22040060116781368 -0.8342956186311561
335344 -0.23554420956984554 -0.8311497111621169
340247 -0.2521285401440984 -0.8303779807145208
345150 -0.26407016953923296 -0.8270356671419247
350053 -0.27971541383778104 -0.8246391977803608
354956 -0.2897210594235757 -0.819884992348011
359859 -0.3062655383818041 -0.813933942627137
364762 -0.31492793302627664 -0.8138877801313064
369665 -0.32481112867639983 -0.8051887156083027
374568 -0.3373040839049435 -0.8052762866910406
379471 -0.35136841540798563 -0.8022681938519296
384374 -0.35960276179697637 -0.8019093818786365
389277 -0.3682669727748724 -0.7917024649466226
394180 -0.379944882630165 -0.7882531838367266
399083 -0.38743566297380877 -0.7856167512359303
403986 -0.39923054789547363 -0.777509335239918
408889 -0.4072549468070239 -0.7754889389069874
413792 -0.4180769988112364 -0.7692756900658098
418695 -0.4255911423784278 -0.7654890390298345
423598 -0.43481879018087716 -0.7618487342731478
428501 -0.4444138460398158 -0.7539436174475346
433404 -0.45091826093210474 -0.7520473162095501
438307 -0.46224449663113243 -0.7468525361502409
443210 -0.46504711634198376 -0.7454717915727597
448113 -0.47145905631727447 -0.7399352846388518
453016 -0.4818497315565571 -0.7356104962262485
457919 -0.48815528426387284 -0.7294078565059311
462822 -0.4963706148992399 -0.7259658392817259
467725 -0.5042675473038405 -0.7179748915883948
472628 -0.5121824420140567 -0.7160651804862223
477531 -0.5185613388884835 -0.7108865335149253
482434 -0.5238319814732756 -0.7013093800325367
487337 -0.5304096986452816 -0.701274895470807
492240 -0.5374704041705437 -0.6952212638671461
497143 -0.5449617047427012 -0.6877311823662631
502046 -0.549756145981246 -0.6810919562190458
506949 -0.5565676193984364 -0.6778242466077176
511852 -0.5589352320428286 -0.6717742603478571
516755 -0.5701695037745245 -0.6666321168693364
521658 -0.5747741481913577 -0.6620834011079242
526561 -0.5786580477831833 -0.6529573107560599
531464 -0.583843465948305 -0.6447058530019799
536367 -0.592573380026234 -0.634313904682329
541270 -0.5948843127072595 -0.6252717561216984
546173 -0.5970874364063491 -0.617757412531368
551076 -0.6004770712259423 -0.6022344148896496
555979 -0.5978784491509108 -0.5864627061663903
560882 -0.5926975355864339 -0.5728150271546755
565785 -0.5805718986738982 -0.553583909658266
570688 -0.5617003863848075 -0.54307802353351
575591 -0.534447726162414 -0.5467563826733096
580494 -0.5095298428335163 -0.563450104974086
585397 -0.5006305664124427 -0.5917775245804122
590300 -0.5075068400310201 -0.61547505539394
595203 -0.5235820338656603 -0.6345082691921504
600106 -0.5321187697844049 -0.6433171997028181
605009 -0.5501401088118455 -0.6499561905219114
609912 -0.5647769180787174 -0.6528454900050846
614815 -0.5767992515518023 -0.650383783266563
619718 -0.5871633831198089 -0.6498232601634721
624621 -0.5968141111086671 -0.6480840181219855
629524 -0.6064594860688943 -0.6454450496869639
634427 -0.6170288362157477 -0.6414575956936587
639330 -0.6247628543387533 -0.6376005373793177
644233 -0.6301166394756093 -0.6324367290981232
649136 -0.6354727589882518 -0.6314972305946203
654039 -0.639909639762538 -0.6238535520136351
658942 -0.6512611356149829 -0.6196016427903391
663845 -0.6515188545323457 -0.6163753014148238
668748 -0.6568690844483952 -0.609656272341389
673651 -0.6611130965092114 -0.6088890440130333
678554 -0.6650697825774966 -0.6036058224382878
683457 -0.6674942553907138 -0.6038381635712972
688360 -0.6661123739289164 -0.5955121868295341
693263 -0.678111205819458 -0.5959068383719658
698166 -0.677588627756144 -0.5908395784963858
703069 -0.6803548771154642 -0.5873892143105228
707972 -0.6821583818932703 -0.5914929947956116
712875 -0.6876605123489231 -0.5840401547285032
717778 -0.6948718881555823 -0.5844192548973769
722681 -0.6973458611864124 -0.5750248900359681
727584 -0.7014330710384835 -0.5737648837497339
732487 -0.6994390640769107 -0.5709100341472614
737390 -0.7073768897706048 -0.565883399102941
742293 -0.7102265858242219 -0.5628537959002304
747196 -0.7125098061731198 -0.5596041510732861
752099 -0.7134189658746619 -0.5557171742860386
757002 -0.7216374891457134 -0.5556765215575107
761905 -0.7206310399468369 -0.5508106095933478
766808 -0.7223493072102066 -0.5490898192723583
771711 -0.7247116619295393 -0.5452820916738724
776614 -0.7284187163792192 -0.5437514577395977
781517 -0.7289703808704234 -0.5403703710164381
786420 -0.7339782183515722 -0.5350184849182036
791323 -0.7386256799620284 -0.537327287038098
796226 -0.7371773351672126 -0.5303283921767086
801129 -0.7408348067944079 -0.5274204657206397
806032 -0.7435857663226402 -0.5227424097572798
810935 -0.746960754630091 -0.5224229217093825
815838 -0.7445148045766714 -0.5211610124664603
820741 -0.7483358908752062 -0.5168299999286609
825644 -0.7511145929094523 -0.5176576942773278
830547 -0.7532177980537815 -0.5142204205550608
835450 -0.7577572335371733 -0.509018984661496
840353 -0.7537971946631682 -0.5071509326738198
845256 -0.7560138360317691 -0.5021353198282917
850159 -0.7602532302894451 -0.49811822559993424
855062 -0.7630975736457162 -0.49828282380685757
859965 -0.7635828635885336 -0.49233546223057845
864868 -0.7673242761765972 -0.49203578913663903
869771 -0.7706046091199973 -0.49070115790696134
874674 -0.7712388935745536 -0.4848865240119094
879577 -0.7678359898334448 -0.48299793494642435
884480 -0.7705839174682326 -0.478770359088319
889383 -0.7770515647024338 -0.4714405636073258
894286 -0.7778907720898596 -0.47044528540416264
899189 -0.7768484563681898 -0.46575660370849686
904092 -0.7789672074525995 -0.4621813977141916
908995 -0.7777938941912559 -0.45789764616191164
913898 -0.7773283006525281 -0.4520238301053792
918801 -0.776387631375281 -0.4472121769340132
923704 -0.7698989405505695 -0.4400553290759648
928607 -0.766276931503147 -0.44109159055810954
933510 -0.7575003104491901 -0.4397847627329369
938413 -0.7546510311960315 -0.4367684667972805
943316 -0.7481766760013688 -0.44493625476694765
948219 -0.7482550494512813 -0.45421859790730396
953122 -0.7519694540870427 -0.4583926659255426
958025 -0.7518198429481261 -0.46088320196505295
962928 -0.7592130432425267 -0.4670380101674773
967831 -0.7686218093313069 -0.46839781367601824
972734 -0.7703016063500457 -0.4682610183134881
977637 -0.7720912354948294 -0.4648292431883571
982540 -0.7774868106958689 -0.46466780119702494
987443 -0.7822877809845312 -0.46195246592157396
992346 -0.7863500867710974 -0.45978886500369764
997249 -0.787691325635411 -0.4619524603358405
1002152 -0.789712732584588 -0.4559010186996571
1007055 -0.7932030628625882 -0.45457331552521774
1011958 -0.7985516429910271 -0.45243328531551924
1016861 -0.7984156649117237 -0.4518278434671447
1021764 -0.7982416499039443 -0.44938667117549835
1026667 -0.8030379258089687 -0.4437861929736886
1031570 -0.805393745745818 -0.44540397314041136
1036473 -0.8021225525310032 -0.43990182633276964
1041376 -0.8091530636662061 -0.44096269823553613
1046279 -0.8068952059738317 -0.4365193823194373
1051182 -0.8102779690946774 -0.4356037979621763
1056085 -0.8121221875224222 -0.433489844636809
1060988 -0.8134234155496255 -0.43363028657713343
1065891 -0.8159319069487143 -0.43334609050889705
1070794 -0.8164619337792913 -0.4271332122945484
1075697 -0.8168445241454152 -0.4256876610411806
1080600 -0.8194064096248543 -0.42576681525554194
1085503 -0.8186327728663204 -0.42236954402589627
1090406 -0.8221406458751926 -0.4184598635543382
1095309 -0.82654229978555 -0.41814687927704947
1100212 -0.8244076898146807 -0.4193140242920526
1105115 -0.8246009523224339 -0.41349336850917184
1110018 -0.8249169300003055 -0.4143630635991615
1114921 -0.8280553269764817 -0.41076234544708834
1119824 -0.8284811068180176 -0.41296751503123535
1124727 -0.8312239860053602 -0.40734965494075104
1129630 -0.8301813917440143 -0.40277298573061987
1134533 -0.8337063023804688 -0.40113333467117906
1139436 -0.8371439781150378 -0.40385277266235453
1144339 -0.8324844334577279 -0.40010054236238546
1149242 -0.8348189664800187 -0.39803200233472286
1154145 -0.8377772803380201 -0.3939001617771766
1159048 -0.8369964083783372 -0.39729585457615296
1163951 -0.837996821205126 -0.39089850057001324
1168854 -0.837313509168426 -0.38946211083881416
1173757 -0.8416211499625557 -0.38896736074024607
1178660 -0.8423678832118158 -0.3863097336007199
1183563 -0.8381479655419137 -0.3848205985295893
1188466 -0.8403140049240989 -0.380974546617127
1193369 -0.8456394868670772 -0.3864521605156369
1198272 -0.8434191492229032 -0.3792506540295396
1203175 -0.8449634854348499 -0.3753879486679362
1208078 -0.8431337907191292 -0.37306948618309316
1212981 -0.8450446528598802 -0.3730453704278473
1217884 -0.8436525092561638 -0.3714404324789136
1222787 -0.8506872577068963 -0.3675617627385604
1227690 -0.8465776633855153 -0.3674976257459411
1232593 -0.8467806878179527 -0.3648916957596172
1237496 -0.8484556282786386 -0.3644879585416457
1242399 -0.8498305575549286 -0.3599917608771735
1247302 -0.8475902150527537 -0.35945405576670536
1252205 -0.8451941181166683 -0.35722977654744675
1257108 -0.8506107325790542 -0.35504234984953087
1262011 -0.8451765977067388 -0.353347488755964
1266914 -0.8462511910308385 -0.3515347028743701
1271817 -0.843028454534267 -0.34831984432266627
1276720 -0.8425627236907591 -0.34913513942459373
1281623 -0.8349320548398372 -0.3498471990142626
1286526 -0.8356467346626701 -0.35297674407890794
1291429 -0.838742521562879 -0.3561217359224013
1296332 -0.8379684072536463 -0.35581117290929243
1301235 -0.837448350108795 -0.3552694763141008
1306138 -0.841902865584164 -0.3639577212509552
1311041 -0.844614580618527 -0.35864737437722644
1315944 -0.8436277072126888 -0.35447812885934465
1320847 -0.8487987101134602 -0.35916510986621986
1325750 -0.8467942691227361 -0.3587284906381008
1330653 -0.8505934456333647 -0.3534378652334856
1335556 -0.8559562100678496 -0.3577124853695117
1340459 -0.8565689245834849 -0.3544556419622302
1345362 -0.8553359060815316 -0.3513219624729209
1350265 -0.8565535621257131 -0.34576747478794373
1355168 -0.8633873982898712 -0.3497909494176688
1360071 -0.8618494690061693 -0.3456484517865871
1364974 -0.8603911977652409 -0.34613049756768327
1369877 -0.8641528748399032 -0.34497776432019556
1374780 -0.8645066468528159 -0.3480647986285872
1379683 -0.8668773198255179 -0.34209692483417586
1384586 -0.8636098263682158 -0.3394890990083005
1389489 -0.866160157221519 -0.33827519307407783
1394392 -0.8658535801404891 -0.33916015291880164
1399295 -0.8673454325771411 -0.3373186559360168
1404198 -0.8690725937585864 -0.33377810801045266
1409101 -0.8682638184743218 -0.3345861844397804
1414004 -0.8701206060834188 -0.33137443651416265
1418907 -0.867754490021837 -0.32994807323639064
1423810 -0.8704639966565441 -0.32668978663039067
1428713 -0.8724512770029612 -0.33195741430302295
1433616 -0.8695563437326407 -0.3275267215912452
1438519 -0.8713607416063411 -0.32743124283025105
1443422 -0.8742791602430198 -0.3218794175938367
1448325 -0.8759677970787806 -0.3236826634443596
1453228 -0.8726794294832851 -0.31807016013454315
1458131 -0.8738960201317981 -0.32061715315432954
1463034 -0.876145800845189 -0.32039469736326504
1467937 -0.8743975659819248 -0.31663656499348386
1472840 -0.8777561618235715 -0.31733222792260524
1477743 -0.8750184479540725 -0.3140322087531021
1482646 -0.8751572451952466 -0.3129967496006952
1487549 -0.8764840377537942 -0.31219375604545785
1492452 -0.8760356098653976 -0.3096591616157131
1497355 -0.8796029715702299 -0.30834338072452244
1502258 -0.8785783007902356 -0.3057982101248221
1507161 -0.8782675820681314 -0.3074407056717754
1512064 -0.8779108213202632 -0.30726225794259265
1516967 -0.8803620772534841 -0.29973440984569333
1521870 -0.8769453017215693 -0.30164201414491554
1526773 -0.8761051539019535 -0.30022719706968215
1531676 -0.8790037413358807 -0.2991863731496346
1536579 -0.8810576309694813 -0.29567375834935844
1541482 -0.8786606126185439 -0.29588934495629887
1546385 -0.8781617554871041 -0.29498959426592863
1551288 -0.8785531229977325 -0.2925319223305026
1556191 -0.8726341588362769 -0.2932466404507479
1561094 -0.8732083900976579 -0.2918219315332067
1565997 -0.8691745604090014 -0.29137655037680216
1570900 -0.8734755446096938 -0.2912392973755812
1575803 -0.8724228621557877 -0.2986748979361441
1580706 -0.8702608794527267 -0.29585048420321153
1585609 -0.8691557243667112 -0.2965133307085629
1590512 -0.87251069286548 -0.29450446296847765
1595415 -0.8769851727066251 -0.29921476465626984
1600318 -0.8778900673771465 -0.29604986920444576
1605221 -0.8795171574287978 -0.2962634672298292
1610124 -0.8769723104597975 -0.29365723412246575
1615027 -0.8808506422938859 -0.2949348543076182
1619930 -0.8804382980158453 -0.29289927831668255
1624833 -0.8844936828948076 -0.29323254323215375
1629736 -0.8848163716210495 -0.29033088428497617
1634639 -0.8886983598935757 -0.28709778361340454
1639542 -0.8885011235602192 -0.28689416790444533
1644445 -0.8890742668652016 -0.2871620515143783
1649348 -0.890117168215328 -0.288753648773173
1654251 -0.890022410864044 -0.2840388997287625
1659154 -0.8885799529840732 -0.2793338720053369
1664057 -0.890231981719728 -0.27857545276925255
1668960 -0.8925385855421922 -0.278794317379161
1673863 -0.8909898678904802 -0.2787742158559301
1678766 -0.890305216587864 -0.27662577099549995
1683669 -0.8928402344713562 -0.2740310077221613
1688572 -0.8928609799331896 -0.276460322393649
1693475 -0.8945824528487852 -0.27481410556232644
1698378 -0.8927320627207744 -0.2716304857979045
1703281 -0.8920472265640411 -0.26859133076190356
1708184 -0.8911021772146416 -0.2715472887535104
1713087 -0.8922621931917799 -0.2690540876673426
1717990 -0.8949883997475765 -0.26766186518735224
1722893 -0.8920991067480567 -0.2652738999626427
1727796 -0.8921783807303972 -0.2642028755480566
1732699 -0.8899537271551964 -0.2620176659795441
1737602 -0.8932749458072327 -0.26252243747342435
1742505 -0.8934957460339525 -0.2629751279586834
1747408 -0.8942480245958523 -0.2562305365787454
1752311 -0.8880662830664253 -0.25470013201198005
1757214 -0.8919036138130564 -0.25487115683229283
1762117 -0.8882998006221579 -0.25648557391633536
1767020 -0.8885090358377402 -0.2560294829592403
1771923 -0.8890143475443251 -0.2549115910607634
1776826 -0.8880826297334633 -0.25852088559348907
1781729 -0.8913597312247888 -0.25624702433091917
1786632 -0.8865306683478308 -0.25949379656703736
1791535 -0.8926751220225152 -0.25640045948280643
1796438 -0.8914209245445931 -0.25834112814131166
1801341 -0.8887762692931408 -0.2525213751492485
1806244 -0.8928274355139855 -0.2540699576273945
1811147 -0.8931476617649832 -0.2547249499858765
1816050 -0.8946252932159688 -0.2513205202309444
1820953 -0.896153542420457 -0.2586233619612788
1825856 -0.897560927555611 -0.2515712135954151
1830759 -0.8939571758843226 -0.25397344108216646
1835662 -0.89292659876652 -0.2525040183051055
1840565 -0.8990625088183716 -0.2521149455795373
1845468 -0.8989223508941071 -0.24797242470953462
1850371 -0.8984296842203009 -0.24571729192716515
1855274 -0.8988663475977279 -0.24809553495971604
1860177 -0.8946550752578399 -0.24514227138884975
1865080 -0.8953160240608559 -0.2457067417698416
1869983 -0.8941212358810108 -0.24503333783194853
1874886 -0.8940480129869107 -0.24280370428960932
1879789 -0.8965373310195359 -0.24299643585948577
1884692 -0.8943472158797585 -0.2396159177282681
1889595 -0.8994257776749832 -0.23797845315538982
1894498 -0.891500666963038 -0.23761553223058032
1899401 -0.8969817908597815 -0.2383952705056738
1904304 -0.8967000241431486 -0.23857913111119128
1909207 -0.8974054273468584 -0.2364011661655876
1914110 -0.894065784025397 -0.24013421502615062
1919013 -0.8995752337231213 -0.23462292623941694
1923916 -0.8930576819504111 -0.2400817998606084
1928819 -0.8940965395605007 -0.2392884027462398
1933722 -0.8922569144501391 -0.23447550811858647
1938625 -0.9026129451883752 -0.23652442300345988
1943528 -0.8972281384302504 -0.238597580251789
1948431 -0.8976969588534413 -0.23800231583145473
1953334 -0.9020293088704776 -0.2365364243674806
1958237 -0.900637747608391 -0.23794819471862835
1963140 -0.90170589024161 -0.2371801982757946
1968043 -0.9038151152014958 -0.24004932166942164
1972946 -0.9009131879733582 -0.23357913323228424
1977849 -0.9066424954146695 -0.24045030272535398
1982752 -0.9012421300625657 -0.23415004317718088
1987655 -0.9053238936805481 -0.23115729451411066
1992558 -0.9035906305552195 -0.22734842912071415
1997461 -0.9056719983153192 -0.23165575413108977
2002364 -0.9041621018303748 -0.2328483907711908
2007267 -0.9044484014177737 -0.2216033494371124
2012170 -0.9039803192531858 -0.22936093125216347
2017073 -0.9050042633267468 -0.22619714764823878
2021976 -0.9064813673813741 -0.22656696814186641
2026879 -0.909130222225414 -0.2236829003378491
2031782 -0.910064861902746 -0.22036763748732122
2036685 -0.9064845140412157 -0.22070227590075456
2041588 -0.9078085544910762 -0.21886638379184645
2046491 -0.9105776208541958 -0.22053629162781493
2051394 -0.9073984683828935 -0.21986953055573724
2056297 -0.9093498389901845 -0.21809288582850408
2061200 -0.9072005776593254 -0.21684105035433768
2066103 -0.9112255814494195 -0.2141411465006978
2071006 -0.9055395577253781 -0.2160455948911026
2075909 -0.9104597737692403 -0.2128590831678208
2080812 -0.9045582039388216 -0.21463939322996992
2085715 -0.9091615829704672 -0.214000888688521
2090618 -0.9106066398409149 -0.2141057684200794
2095521 -0.9085445688157308 -0.21109860759746263
2100424 -0.9077649688822076 -0.21168691793155245
