# HZ S RI R 50
100000 0.5342254619301502 -0.7207692142520811
104903 0.5071429484884152 -0.7372835197361876
109806 0.4795704464821816 -0.7524657150417805
114709 0.447830050213891 -0.7670633531458559
119612 0.41884663859587 -0.7792017582532749
124515 0.39586156002122186 -0.7902378604832088
129418 0.3668909908603243 -0.8026847595019052
134321 0.34050393397053996 -0.8090346803422817
139224 0.3144461683708669 -0.8206068909670919
144127 0.28808747422028286 -0.8275586723478275
149030 0.2605531032174024 -0.8334300330601643
153933 0.23364683410563655 -0.8381639620762988
158836 0.2105534752975473 -0.8439590590479461
163739 0.18393100992305886 -0.8471844628732625
168642 0.1607516870594154 -0.8483726967576222
173545 0.1359043045341535 -0.8498026847215824
178448 0.11488534287502816 -0.8487515031714434
183351 0.0890943096298323 -0.8466235673269966
188254 0.06524388553929554 -0.8443750058417264
193157 0.04091968108259417 -0.8392789122296818
198060 0.021915878196630295 -0.8303400077469069
202963 8.336680508248686e-05 -0.8211813564976252
207866 -0.01008263385485227 -0.8065798377830273
212769 -0.012912070729171006 -0.7870311442665938
217672 0.0017730073070231903 -0.7824466223914647
222575 0.012773575290312375 -0.8036100334010495
227478 -0.000595800998673713 -0.8294926391324607
232381 -0.02509906960582546 -0.8436572622462799
237284 -0.04744878110880279 -0.8484092046380953
242187 -0.07034454220072298 -0.8517852796623856
247090 -0.08805504426069855 -0.8509518079012329
251993 -0.10315883768602951 -0.8563557757416806
256896 -0.12300910506312228 -0.8517190118989243
261799 -0.1431714943580032 -0.8522214940683874
266702 -0.16099393898212877 -0.849728598796015
271605 -0.17676853920636423 -0.8473313355082475
276508 -0.19143360316922162 -0.842984527859456
281411 -0.20855261626957824 -0.8406229480140552
286314 -0.22192279514302984 -0.8394224339561405
291217 -0.23124910559979822 -0.8328503815289887
296120 -0.24608422206808506 -0.8301931636116052
301023 -0.25707388002179987 -0.8247630336283415
305926 -0.27160257170706054 -0.8224881933162104
310829 -0.28172788657835135 -0.820859273630879
315732 -0.2907893818720735 -0.816612248962182
320635 -0.3066951213133267 -0.8142746483752894
325538 -0.31472574393595176 -0.8080753664804586
330441 -0.32692032991674896 -0.8070720858820759
335344 -0.3384144570435141 -0.8039467878093641
340247 -0.34949494853387575 -0.8001975753000218
345150 -0.35575612513389887 -0.7956002207152634
350053 -0.3707285518922911 -0.7916995721151956
354956 -0.37617545624664034 -0.7872662128880147
359859 -0.3854661104582814 -0.779416202274533
364762 -0.3967088270195672 -0.7817232525506407
369665 -0.403145446110198 -0.7730837964037549
374568 -0.41085987801875556 -0.7717355792673731
379471 -0.4236490263007599 -0.7661949811911161
384374 -0.4335714193924954 -0.7645542399381995
389277 -0.4369837493411092 -0.7606407948300513
394180 -0.44853808955855345 -0.7541999320318371
399083 -0.4561127635893583 -0.7521231591842822
403986 -0.4635964154544109 -0.7458768727827789
408889 -0.46948994434088526 -0.7450198589198544
413792 -0.4793660387663809 -0.7373131165885919
418695 -0.4854771676523453 -0.7338555199080582
423598 -0.4915482304264773 -0.7302344136075148
428501 -0.5021897118519997 -0.7248834419713824
433404 -0.5071814407827109 -0.7205669499087519
438307 -0.5160387880990495 -0.7139550158559254
443210 -0.5167597555680823 -0.7161234759425006
448113 -0.5251338103527501 -0.7105838900756579
453016 -0.5301124098695068 -0.7072218398591854
457919 -0.5346339190711495 -0.7012312447924127
462822 -0.5438004965238175 -0.6985809171316542
467725 -0.5482784736879296 -0.6924485514840222
472628 -0.5525906298461207 -0.6914699285162216
477531 -0.5615712396726654 -0.6856288772616697
482434 -0.5651222777027671 -0.6808155182274853
487337 -0.5688715955968197 -0.6787105730757135
492240 -0.5748126683765687 -0.6737499625835024
497143 -0.5794128229834706 -0.6689828079627491
502046 -0.5827264598920809 -0.6662039737695499
506949 -0.5865286028075222 -0.661197333114179
511852 -0.5905604971430107 -0.6610597966077052
516755 -0.5969437719602061 -0.6564596733097965
521658 -0.6040707644433425 -0.6537547077428117
526561 -0.6053960793129469 -0.6460851851748133
531464 -0.6111940881484276 -0.644771028865934
536367 -0.6167452922233113 -0.6425761557339265
541270 -0.6195560801299433 -0.6367039747915754
546173 -0.625236470661056 -0.6363852528631626
551076 -0.6285811601257758 -0.630879879246909
555979 -0.6345831699194157 -0.6246225928463137
560882 -0.6353259863597496 -0.6220374220546973
565785 -0.639868931181587 -0.6156643807858384
570688 -0.644448538483763 -0.6100047254689585
575591 -0.6452834355673106 -0.6065846998243982
580494 -0.6411831575327925 -0.5987404460554067
585397 -0.6405591525612551 -0.5972958069806218
590300 -0.6415597165594731 -0.5983868395816941
595203 -0.6463576645839423 -0.6008932254378807
600106 -0.6505431485015813 -0.600566381370205
605009 -0.6556512677414007 -0.6013603689002023
609912 -0.6571277504945156 -0.5986656184454293
614815 -0.6627987028619605 -0.5975623752658816
619718 -0.6699751849757817 -0.5941818493795843
624621 -0.6719601457861825 -0.5936404683122661
629524 -0.6770013171044647 -0.58897798536341
634427 -0.6820666617924843 -0.589077945102019
639330 -0.6840464965075664 -0.5858872771258953
644233 -0.6901440097190829 -0.5801148559086705
649136 -0.6913616365428402 -0.5778837731635296
654039 -0.6942848565375758 -0.5739282285446746
658942 -0.7015797250846444 -0.5713135943780278
663845 -0.7037014463812291 -0.5671879455654316
668748 -0.704728432427312 -0.5649876573850033
673651 -0.7071730206654154 -0.5608952465805134
678554 -0.7099293280159924 -0.5595332078198779
683457 -0.7124979446338853 -0.5589093153334587
688360 -0.7124924037501567 -0.5523981372407245
693263 -0.7198157688517942 -0.5492950648543212
698166 -0.723545222710121 -0.5491841029100449
703069 -0.7215953770842936 -0.5456323466647192
707972 -0.7275620004092141 -0.5447946101031496
712875 -0.7288989244844406 -0.5397156597406251
717778 -0.7325016461634453 -0.5406261210390239
722681 -0.7339601325436812 -0.5339742591603666
727584 -0.7344002012307292 -0.5336375682245645
732487 -0.738148195148052 -0.5297983044934671
737390 -0.7406456054428796 -0.5249059187159533
742293 -0.7422669742825077 -0.5262102114604676
747196 -0.7463913662972911 -0.5196822242996308
752099 -0.7461768730874685 -0.5172934751545276
757002 -0.7491205723718005 -0.5171681904289218
761905 -0.7518485593467346 -0.5136868898500719
766808 -0.7504559574112921 -0.514773600303237
771711 -0.7566325267309234 -0.5106324116918519
776614 -0.7559117164355913 -0.5094281994538072
781517 -0.7593169849517248 -0.50592890421026
786420 -0.7624897190024464 -0.5038329562957393
791323 -0.7633821938663936 -0.5007233467704186
796226 -0.7651714862750674 -0.4988431821908173
801129 -0.766206094891047 -0.49560307384168034
806032 -0.7677257052001012 -0.49153911175279685
810935 -0.7722657110777154 -0.48968054845354037
815838 -0.7699028450201759 -0.49418836763489576
820741 -0.7688995947687155 -0.48593822658600894
825644 -0.7729828031378775 -0.48560980669598164
830547 -0.7742740367614672 -0.4817323250928349
835450 -0.7808763471495981 -0.480048864355795
840353 -0.7743684012436112 -0.4808292780061458
845256 -0.7832542465767004 -0.4758005670995189
850159 -0.7824985229286533 -0.47650231289165956
855062 -0.7831143075869306 -0.4722552384946676
859965 -0.7849202663462368 -0.4702841298248826
864868 -0.785770428441234 -0.46716901602592054
869771 -0.7876478009808825 -0.4688828005239221
874674 -0.790473521216086 -0.4639082807200752
879577 -0.7916595842818019 -0.4623300898769245
884480 -0.7912411852663194 -0.46164255360863227
889383 -0.7942971993425242 -0.4552333655793519
894286 -0.7972612384036795 -0.4562919645860293
899189 -0.7984342405273186 -0.45109805363332867
904092 -0.7979359484036106 -0.45203099475141983
908995 -0.7987222618700173 -0.4471358721080356
913898 -0.8012424776408507 -0.44970591547976946
918801 -0.8033072541025755 -0.44519976228152064
923704 -0.8002127811599259 -0.4429836972483601
928607 -0.8043751815136064 -0.4408699301924381
933510 -0.8062530647761024 -0.44231244759352883
938413 -0.8069997385568277 -0.4346326738325991
943316 -0.8060099052748189 -0.43206443177044496
948219 -0.8079260347464229 -0.4330245569822815
953122 -0.8096355886326683 -0.43261833075345185
958025 -0.8054419143990459 -0.4307052177290163
962928 -0.808832984070498 -0.43001703924314394
967831 -0.8113276547839604 -0.4297593565551366
972734 -0.8088865573336468 -0.4279529569289016
977637 -0.8105657826056898 -0.42757999465117547
982540 -0.8132458220632733 -0.4232875819011775
987443 -0.8131213383450722 -0.42715081771549496
992346 -0.8143653755392434 -0.42277208810198585
997249 -0.8156453103886112 -0.4244783024143441
1002152 -0.8149278849134993 -0.4186158262410796
1007055 -0.8193246653346447 -0.4177995152213589
1011958 -0.8241848771262184 -0.4179664309757713
1016861 -0.8232963282288754 -0.4165544443258757
1021764 -0.825296471895848 -0.414787719454752
1026667 -0.823812061274813 -0.4115136030929258
1031570 -0.828346379942823 -0.4152774874694921
1036473 -0.8261131037952388 -0.4097306921754571
1041376 -0.8274799920422877 -0.4089101842591097
1046279 -0.8300763527811469 -0.4047659298140779
1051182 -0.8316435391660576 -0.40931943616717203
1056085 -0.834308307805652 -0.40380519219815547
1060988 -0.8331282755990516 -0.4040334153474128
1065891 -0.8351111766364143 -0.39981500733296493
1070794 -0.8350754558590571 -0.40089471105399793
1075697 -0.8355243350933678 -0.3977773381338051
1080600 -0.8389241325759552 -0.3938105984022039
1085503 -0.835582881933465 -0.3936799298749508
1090406 -0.8392662937919563 -0.3950677732948002
1095309 -0.8411523139649953 -0.3895016613695112
1100212 -0.8404680672815904 -0.3915869727584089
1105115 -0.8397675743048323 -0.3867262116614286
1110018 -0.8417732697776223 -0.38532869452702484
1114921 -0.8432816464421068 -0.38479680772020736
1119824 -0.8458901918826061 -0.38731186098013815
1124727 -0.8427015907553544 -0.38406525835006383
1129630 -0.8453644651799049 -0.37685392004308904
1134533 -0.8467660353722462 -0.3802438735788463
1139436 -0.8468398889046681 -0.38180336260435327
1144339 -0.8461716480188771 -0.37467234142232914
1149242 -0.847690919030275 -0.3750832500706975
1154145 -0.8512377788263401 -0.37618260900649647
1159048 -0.8504743429681182 -0.3766342447866016
1163951 -0.8506205799213205 -0.3698759661350752
1168854 -0.8483396008991301 -0.372059579184955
1173757 -0.8543218243850872 -0.36921162141097597
1178660 -0.8518295777881306 -0.36751641634669663
1183563 -0.8527658739320154 -0.3634560445555538
1188466 -0.8509719648758282 -0.36670417852588116
1193369 -0.8560710923545449 -0.36626269867827893
1198272 -0.8569128050642851 -0.36163201677811624
1203175 -0.8547186048883919 -0.3624160261570259
1208078 -0.8544058104403626 -0.36034334386800526
1212981 -0.8568489858917041 -0.3572968222380238
1217884 -0.8563817436416475 -0.36033446539094127
1222787 -0.8583357539465508 -0.35348803949585195
1227690 -0.8594867695522058 -0.35560975514312143
1232593 -0.8631304935132312 -0.3549937460284893
1237496 -0.8614020036507887 -0.3531070535089878
1242399 -0.8614712517387032 -0.35322162322529976
1247302 -0.8643311411956806 -0.35125993695005475
1252205 -0.8614407594121241 -0.3489433298794918
1257108 -0.8648633854041465 -0.34762582922785873
1262011 -0.8667706492066745 -0.34886431745929086
1266914 -0.866079068142761 -0.34781288210110817
1271817 -0.8659084006240593 -0.34809287906184255
1276720 -0.866464181204632 -0.3404395669708893
1281623 -0.8629216499635918 -0.3393362081866671
1286526 -0.8597544632403988 -0.34487517989190725
1291429 -0.8672378968094916 -0.3392129044125817
1296332 -0.8686368391977182 -0.3376049934790197
1301235 -0.8681765480160696 -0.33580758192880156
1306138 -0.8679833833017816 -0.3398578239987417
1311041 -0.8673170160074481 -0.33380696897470774
1315944 -0.8622132191889126 -0.3333849608234351
1320847 -0.8667138419343953 -0.33232990749624486
1325750 -0.8631092362638708 -0.33481743302030076
1330653 -0.8678454814205532 -0.3330158058132113
1335556 -0.8689129537534069 -0.3315552352965209
1340459 -0.8701243177245942 -0.3322421414691207
1345362 -0.8696882620657317 -0.3284311772598144
1350265 -0.8682624104096343 -0.3302279369747425
1355168 -0.8739270387850407 -0.32851671993870296
1360071 -0.8766997681391624 -0.32706868616819745
1364974 -0.8737265256956831 -0.3249129764296618
1369877 -0.8739835997100796 -0.32820668870247066
1374780 -0.8752014781003042 -0.3237612925924871
1379683 -0.8795043355220534 -0.3249798033303515
1384586 -0.8763879833830838 -0.32085282948870497
1389489 -0.8753439689373003 -0.32070410226686785
1394392 -0.8773008493431333 -0.3203700730555411
1399295 -0.8759303115880431 -0.322449701931818
1404198 -0.8778514669916081 -0.3199030731128519
1409101 -0.8768072815116928 -0.3166690913242208
1414004 -0.8796507392063707 -0.318648659127143
1418907 -0.8755983368987095 -0.31564772039088224
1423810 -0.8798360136751069 -0.31481677301797273
1428713 -0.879896401195126 -0.31819037393295707
1433616 -0.878539313350712 -0.3163041810852855
1438519 -0.8776494812713699 -0.31274517940673535
1443422 -0.882331003858822 -0.3100064154096495
1448325 -0.8816057218307037 -0.3120131185322047
1453228 -0.8793057662722746 -0.31094643740018396
1458131 -0.8819222162190158 -0.3096699956345012
1463034 -0.8829430600199757 -0.309627776482984
1467937 -0.8815060111531178 -0.30695383554143735
1472840 -0.885329549524406 -0.3064825791483011
1477743 -0.8823702913316591 -0.3062489012051926
1482646 -0.8850753575321335 -0.3054837082922945
1487549 -0.8844101899690441 -0.3029069202438282
1492452 -0.8884016850248897 -0.3024915328046402
1497355 -0.8860606223945029 -0.30231038130320725
1502258 -0.8881358641735448 -0.3002904770546899
1507161 -0.8872015232926529 -0.29981033783406996
1512064 -0.8875068171574664 -0.3010502559052102
1516967 -0.8866727078191579 -0.2977435592100958
1521870 -0.886508861664016 -0.2980099118197139
1526773 -0.8873447306784618 -0.2969394994832626
1531676 -0.8855733926015374 -0.29592656544506857
1536579 -0.8883299125726167 -0.2948064998554645
1541482 -0.8879758543755246 -0.29816006183024013
1546385 -0.887865161685586 -0.2925997247638394
1551288 -0.8915747851966055 -0.29046429044572847
1556191 -0.8881103409562071 -0.29066396233188785
1561094 -0.8927253204047266 -0.2921894329291496
1565997 -0.8906516979656903 -0.2901979843861185
1570900 -0.8915951611131058 -0.29102338455237087
1575803 -0.8893500459217392 -0.2912100814978526
1580706 -0.8892108806624784 -0.28758963636291435
1585609 -0.8932601799695308 -0.28651676277823324
1590512 -0.8890483534135035 -0.2856332461601579
1595415 -0.8935006218132515 -0.28653185637720785
1600318 -0.891086180543922 -0.28518419867689165
1605221 -0.8912640444071349 -0.2831156576814478
1610124 -0.8917234059745713 -0.2815546780259104
1615027 -0.8909432954030976 -0.28191710172016327
1619930 -0.8911491887678017 -0.2803616136539304
1624833 -0.890459664108926 -0.2839672515243513
1629736 -0.8941517535830068 -0.2820868206369735
1634639 -0.8934013616335644 -0.27829722997832523
1639542 -0.8957883277686896 -0.2796933798667367
1644445 -0.891736939226574 -0.28115106101443693
1649348 -0.8953443883067386 -0.2791201434347036
1654251 -0.8955903306276864 -0.27766124490586364
1659154 -0.8932583842503719 -0.2747518417568908
1664057 -0.895485131389436 -0.27660619009350546
1668960 -0.8989923049504527 -0.2740771111551273
1673863 -0.8959731258482588 -0.2793023612833781
1678766 -0.8969936148369622 -0.2752162162047674
1683669 -0.9020377666314777 -0.2738595562882544
1688572 -0.8938974482743423 -0.27597314284202723
1693475 -0.898133122964945 -0.2713162644197574
1698378 -0.8959858034747088 -0.2724960117466417
1703281 -0.8963591301669365 -0.2693749547630736
1708184 -0.8973261114539743 -0.27318068092278963
1713087 -0.900074485380726 -0.26569737633325496
1717990 -0.9001122838346516 -0.26901910267543255
1722893 -0.8990569973056255 -0.26718588292095496
1727796 -0.8998931660128257 -0.26698674988450977
1732699 -0.898988017133287 -0.26437810767251346
1737602 -0.8988792930862349 -0.2695681120514388
1742505 -0.9008001008254974 -0.2659020364598278
1747408 -0.9012960016684732 -0.26156918599986234
1752311 -0.9002689296199815 -0.2649733220178161
1757214 -0.9008273412174922 -0.2642883316182449
1762117 -0.9005914755939922 -0.2669314455604297
1767020 -0.9012611558836581 -0.2633503959681411
1771923 -0.8978233526686696 -0.2603582880398467
1776826 -0.9001487542990839 -0.26346723157630286
1781729 -0.9060922934693411 -0.25993288980551954
1786632 -0.9000949583890487 -0.25745604960138246
1791535 -0.9041218842057208 -0.25980972915184924
1796438 -0.9009476895859557 -0.26354583857481073
1801341 -0.9037004600867317 -0.26001655232017007
1806244 -0.9006526021228052 -0.25567218878368314
1811147 -0.9043912406499386 -0.2517491584680496
1816050 -0.9034090489692926 -0.252292280068709
1820953 -0.9063385430450436 -0.25341343141948247
1825856 -0.9033210370128808 -0.2523833348256067
1830759 -0.9004032986087613 -0.25635448475819816
1835662 -0.900616063553735 -0.250604592217297
1840565 -0.9089336566662984 -0.25186252315145546
1845468 -0.9068146557131918 -0.2531126651207943
1850371 -0.9061427194405205 -0.2522952091164535
1855274 -0.9060632629040377 -0.2515458383633162
1860177 -0.9028949221677893 -0.24963585575776714
1865080 -0.9045389191523528 -0.24843492893821725
1869983 -0.9022932638560838 -0.2540955504481779
1874886 -0.9027223864977 -0.25236331761560143
1879789 -0.9084253390366429 -0.25073935370877315
1884692 -0.903769853082665 -0.2506300924585363
1889595 -0.9080452445806387 -0.24549960660331804
1894498 -0.9039852247785433 -0.24811866808602065
1899401 -0.9079784938580369 -0.24778227796325544
1904304 -0.9053417647227825 -0.24530756561831568
1909207 -0.9137358658130288 -0.2479355821322654
1914110 -0.9065749087185728 -0.24363812119088646
1919013 -0.9083456158897216 -0.2447858238089851
1923916 -0.9025766870144115 -0.24698342837142487
1928819 -0.9062907401149427 -0.24528847704205062
1933722 -0.9075019392827097 -0.24298494422283792
1938625 -0.9123347004881298 -0.23760599517803258
1943528 -0.9079270359571144 -0.2440000920591141
1948431 -0.9135883626347656 -0.242741729809805
1953334 -0.9082522354252711 -0.23948173909422246
1958237 -0.905264248854328 -0.24016022109859744
1963140 -0.9080335534879063 -0.2406373068098765
1968043 -0.9089950994470972 -0.24435883604766936
1972946 -0.9076804909860988 -0.24139123365835746
1977849 -0.907139145219617 -0.2377380677233002
1982752 -0.9087414982485961 -0.23751355301584365
1987655 -0.9085206346866792 -0.23827416461526352
1992558 -0.9113313977987268 -0.23907932831151407
1997461 -0.9106081172369205 -0.23566979245429673
2002364 -0.9060627297911195 -0.24192699601706627
2007267 -0.9047423524909505 -0.23385355896605284
2012170 -0.9115195434008698 -0.23395807585980377
2017073 -0.9086737586582573 -0.23805524043821877
2021976 -0.9097635535636774 -0.23504851461941337
2026879 -0.9090050195801614 -0.232845592365673
2031782 -0.9121464795944405 -0.2333310070800164
2036685 -0.9070537549062919 -0.23147418031849393
2041588 -0.9132705929638685 -0.23181304967761038
2046491 -0.9131931311072676 -0.23065748498182315
2051394 -0.9097150663258267 -0.2300946743301178
2056297 -0.9103264419383112 -0.2320155624417629
2061200 -0.9111680739200937 -0.23410721695829975
2066103 -0.9130697736086036 -0.2275873906505354
2071006 -0.9122891074233953 -0.2296781135224372
2075909 -0.9134084685644981 -0.2255710234697303
2080812 -0.907235920309193 -0.2285531568377755
2085715 -0.9130840683356467 -0.22957566258277184
2090618 -0.9171448473263886 -0.22646534536178622
2095521 -0.9136288294129435 -0.22714633756120525
2100424 -0.91131842354833 -0.22511915652377312
