# HZ S RI R 50
100000 0.5343674722563864 -0.7204962296861636
104903 0.5068003084870615 -0.7380494380691536
109806 0.4790281170102734 -0.7522852960389875
114709 0.4476504333849375 -0.767160887317454
119612 0.42466707889451827 -0.7804830055937486
124515 0.39772547921634 -0.7902892406162835
129418 0.3683185316677811 -0.8038193629661976
134321 0.3427655989255143 -0.8093582634937015
139224 0.3166273944374773 -0.8209616795093383
144127 0.2913023879000087 -0.8284318112627976
149030 0.2620597625372303 -0.8343920784702256
153933 0.23699749110820836 -0.8391284435898605
158836 0.2128626359091851 -0.8443623865586777
163739 0.18758414657306574 -0.847352741969568
168642 0.16492968745943182 -0.8502406481734094
173545 0.14051644099724261 -0.8522317851959628
178448 0.11832862474599311 -0.8513493954537945
183351 0.09353900507618926 -0.8507024118093978
188254 0.06976373553167299 -0.8480613218171702
193157 0.04668358880856467 -0.8448838860864716
198060 0.027698469899096773 -0.8390387425118234
202963 0.007357302780370212 -0.8316159899563192
207866 -0.004699239486806211 -0.8198899736187809
212769 -0.011802451350349602 -0.8047784564871434
217672 -0.005185259258642208 -0.8011830012276777
222575 0.0005274946986862396 -0.8182810741022395
227478 -0.014661294395226197 -0.837488917704589
232381 -0.03768864859238393 -0.8485439146033844
237284 -0.05685560061337067 -0.8523876286807907
242187 -0.07911584762898889 -0.8544605169535688
247090 -0.09718071424496487 -0.8525779830380839
251993 -0.11298461516392604 -0.8546574437859029
256896 -0.13066203867568882 -0.8509839237416453
261799 -0.14912816057888886 -0.8520298952439695
266702 -0.16546468440611872 -0.8521841501309135
271605 -0.18334249494179358 -0.8447096822676171
276508 -0.19513107603278199 -0.840652820530838
281411 -0.21128865334632455 -0.8407333281770696
286314 -0.22618357075853132 -0.8394728072142547
291217 -0.2362177643739594 -0.8312678782009673
296120 -0.25124021941802016 -0.8308514681661642
301023 -0.2601880296819503 -0.8254415386679529
305926 -0.27658280353567605 -0.8218901480027803
310829 -0.28169698074909794 -0.8176066642173319
315732 -0.2965090634801768 -0.8173080872432715
320635 -0.30787884935459553 -0.8116913533472302
325538 -0.3193601773173923 -0.8080831463358018
330441 -0.32928258742919964 -0.8071207248455238
335344 -0.3412904887107648 -0.8025769800082101
340247 -0.35159089945657673 -0.8000744841180333
345150 -0.3609437698348574 -0.7945158505178258
350053 -0.37417479025999206 -0.7928634643320058
354956 -0.3818867135484659 -0.7851014755208674
359859 -0.3924554188584767 -0.7813846353149502
364762 -0.39855567487434773 -0.779903685400201
369665 -0.40742251745702995 -0.7730037834410817
374568 -0.415149038259672 -0.7707070410260967
379471 -0.42753219447413787 -0.7662142052159288
384374 -0.4349505333343436 -0.765906094599559
389277 -0.4419496445006186 -0.7575835450727951
394180 -0.45210943190454267 -0.754908630267544
399083 -0.45820279446497797 -0.7498811118940973
403986 -0.46418567113805226 -0.7442674950857449
408889 -0.4720975121022111 -0.7442532490271021
413792 -0.48071164984139664 -0.7377044466586024
418695 -0.4878183848959058 -0.7319386358061903
423598 -0.49524934206754245 -0.7293206935672804
428501 -0.5023272001943211 -0.7244448921701029
433404 -0.5071158436291671 -0.7237040498375242
438307 -0.5162791050329651 -0.7132765016453972
443210 -0.5201754393315132 -0.717283718551824
448113 -0.524255767917652 -0.7096476801474619
453016 -0.5344116366934111 -0.704645699169543
457919 -0.5367147313809741 -0.7005569640688649
462822 -0.5432235848152309 -0.695327311928552
467725 -0.5485970284598475 -0.6916292193005972
472628 -0.5556412824887231 -0.6901010226702365
477531 -0.5606818366684533 -0.6864211974935287
482434 -0.5643600416505489 -0.6796663737066893
487337 -0.5716577440617696 -0.6788096605381576
492240 -0.5764324152393561 -0.6732221383270469
497143 -0.5810857850858027 -0.6709007402418673
502046 -0.5847469991071059 -0.6646694257914957
506949 -0.5889630354432253 -0.6637201762415312
511852 -0.5890594244847273 -0.6622737582716564
516755 -0.6000845476423923 -0.6558249278098692
521658 -0.6059213852926523 -0.6563798712575106
526561 -0.6089084330530963 -0.649219751008539
531464 -0.6116087121154665 -0.6442081412822432
536367 -0.6209402959010974 -0.6429806632525579
541270 -0.6189044353690178 -0.6373665472538443
546173 -0.6243499185215883 -0.6359779237023282
551076 -0.6319042690895493 -0.6323931963559103
555979 -0.6361208057410542 -0.6255621128864596
560882 -0.6342562750504221 -0.6214207330208168
565785 -0.6400821128276188 -0.616697182670449
570688 -0.6476078135576749 -0.6109776390718559
575591 -0.6476640901667454 -0.6091481771330914
580494 -0.6470882501182857 -0.6016098918263928
585397 -0.6449507587829822 -0.6009579954322257
590300 -0.6479046965691594 -0.5970423963288156
595203 -0.6529818547849171 -0.6017843423421351
600106 -0.6548118331443447 -0.6011669806617131
605009 -0.6595837012627259 -0.600106945733104
609912 -0.6647927758263166 -0.596032856043713
614815 -0.6679565677312748 -0.5960325206860103
619718 -0.670902373628274 -0.591714348197203
624621 -0.6756273209924314 -0.5922631582843555
629524 -0.6804327270592292 -0.5876298656616226
634427 -0.6849101061834371 -0.5863810532690402
639330 -0.6884722015349449 -0.5819891256062464
644233 -0.691399408381151 -0.5784008846001317
649136 -0.6914049186686428 -0.5791824930648258
654039 -0.6957901106093953 -0.5722290433303038
658942 -0.704824514136124 -0.5689069816279949
663845 -0.7050983988303217 -0.568024170557309
668748 -0.704926815208956 -0.563424554914534
673651 -0.7096120949957124 -0.561200814594214
678554 -0.7106599255354689 -0.5575659591032034
683457 -0.71292689875258 -0.5589675292900171
688360 -0.7129454468556251 -0.5512496355410053
693263 -0.7225529310418883 -0.5483059490090416
698166 -0.724050034200503 -0.5499611753303923
703069 -0.7250396076980541 -0.5464298848069996
707972 -0.730175706407047 -0.543132411337454
712875 -0.7278665976013339 -0.5380669167796425
717778 -0.7340482736314207 -0.5384027842082607
722681 -0.7328337892830248 -0.53424984696911
727584 -0.7387932630668992 -0.5313566575852737
732487 -0.7398362853788687 -0.5298934276324857
737390 -0.7420311356857242 -0.5224788925577308
742293 -0.7471489897468186 -0.5254071392953157
747196 -0.7476748617988347 -0.5191485375958534
752099 -0.7496547043171926 -0.5195725228801776
757002 -0.7521588690367494 -0.5152960529446038
761905 -0.7519281285442319 -0.5143554226745062
766808 -0.751932968663405 -0.5116579694543691
771711 -0.7572633052118475 -0.5099913546344125
776614 -0.7575633224614575 -0.5074220074962179
781517 -0.7593358107297078 -0.5074104592825122
786420 -0.7637342531975797 -0.5004118874948562
791323 -0.7676345151770172 -0.5022751672160063
796226 -0.7662256309929821 -0.4974777647853387
801129 -0.7670325028759207 -0.496031392378062
806032 -0.7688824856115232 -0.4916922205045492
810935 -0.7753842815807228 -0.4925944123810578
815838 -0.7702841229361581 -0.49224594931255666
820741 -0.7741286403901425 -0.4853575805537953
825644 -0.7764179130497012 -0.48632666769714394
830547 -0.7769721237239874 -0.4835872033177275
835450 -0.7804455011490187 -0.477168786160257
840353 -0.7767785457980965 -0.4797390984929734
845256 -0.7813690470474183 -0.4755714582746457
850159 -0.78299716027577 -0.4737171075836051
855062 -0.7846724241238302 -0.4739709610728406
859965 -0.7883389490131821 -0.47061423232810556
864868 -0.7892868991885885 -0.4659491866324535
869771 -0.7900156512100895 -0.468082315119074
874674 -0.7919363453918601 -0.46320556706794264
879577 -0.7901374150303231 -0.46126033742322764
884480 -0.7910906452071466 -0.46059302983099654
889383 -0.7961777638002172 -0.45760984918280867
894286 -0.7949929893124482 -0.4550004130876191
899189 -0.799322193546572 -0.4552001400523842
904092 -0.8016185245327275 -0.45230831399472393
908995 -0.799254023767893 -0.44855584256699976
913898 -0.8022210786932208 -0.447986547131573
918801 -0.8023777775509412 -0.44390210450297485
923704 -0.8007786144124263 -0.4432827025150244
928607 -0.8062612419914319 -0.4424642559048368
933510 -0.8048987889891893 -0.44080575804399147
938413 -0.8074226305922019 -0.43704428818018876
943316 -0.8064974076193787 -0.43369578943324216
948219 -0.8108424576689394 -0.4346216356706129
953122 -0.8120560976745098 -0.43292621103118945
958025 -0.8079193720109342 -0.42895991022288327
962928 -0.8139956959060519 -0.4285795196619568
967831 -0.8118317736852307 -0.4289237252209712
972734 -0.81281240717791 -0.42681981888528275
977637 -0.8080453035372137 -0.42594976788464195
982540 -0.8129381929543327 -0.4251513417831851
987443 -0.8173662044986085 -0.4263726871823376
992346 -0.8187956023482759 -0.42036751986489473
997249 -0.8190771805378395 -0.42170213817625735
1002152 -0.8175005797499436 -0.4175575972346093
1007055 -0.8209014981404273 -0.4181994272898168
1011958 -0.8227584553509371 -0.41675743373591634
1016861 -0.8255097604243996 -0.41662308189195085
1021764 -0.826104500734338 -0.41546787664808504
1026667 -0.8236073793879459 -0.4108534196028965
1031570 -0.8290423448898496 -0.4108165091828315
1036473 -0.8272691200865683 -0.40831076565426594
1041376 -0.8317334230372043 -0.4081424190946977
1046279 -0.8278588761776781 -0.40545962943671204
1051182 -0.8312217904997437 -0.40472702295796925
1056085 -0.8375281423041964 -0.404351784299296
1060988 -0.8332239845994189 -0.4037014521178308
1065891 -0.8371361554400363 -0.4006232691825829
1070794 -0.8356521107262396 -0.4001657705423341
1075697 -0.8335963918950364 -0.39673232228509525
1080600 -0.8393179656241718 -0.3962100377067819
1085503 -0.836628595787119 -0.39355323998787284
1090406 -0.8394259982692993 -0.39179780271852627
1095309 -0.8402440992267163 -0.39228066926846356
1100212 -0.8420465430005456 -0.39219106720810015
1105115 -0.8428381141715352 -0.38549490950634807
1110018 -0.8396872663958115 -0.38694000265495665
1114921 -0.8445067857724863 -0.3833990844169218
1119824 -0.8443105915033182 -0.3874105147796602
1124727 -0.8457333606775469 -0.382932259087464
1129630 -0.8442057863072665 -0.3784742733319251
1134533 -0.8491268411612071 -0.3786759346382083
1139436 -0.8464350583563952 -0.3819615678141074
1144339 -0.846829182421986 -0.376719305078214
1149242 -0.8463220913139193 -0.3762548813950249
1154145 -0.8521773175397154 -0.37260420585718146
1159048 -0.8504531275566843 -0.37582908109456203
1163951 -0.8516543979118116 -0.3717503727251903
1168854 -0.8474083406359053 -0.3719563237284465
1173757 -0.8532867316218002 -0.3675874750471317
1178660 -0.8525068553208087 -0.36670875868144
1183563 -0.8530163877755579 -0.36655164549867847
1188466 -0.8505831079324782 -0.36633310114983514
1193369 -0.8588547391560847 -0.3681290814262328
1198272 -0.8566839801332272 -0.3638046042524865
1203175 -0.8576764692474864 -0.3602129980341791
1208078 -0.8580144125417366 -0.3577811039604144
1212981 -0.8570918291608208 -0.35941442197012585
1217884 -0.855230543443852 -0.3584674784650747
1222787 -0.86107104329041 -0.35405302663346283
1227690 -0.8587877190024552 -0.35564218614802573
1232593 -0.8599764474514465 -0.3541286312855068
1237496 -0.8599479505630135 -0.35354174788009074
1242399 -0.8597234155679103 -0.3524892052786032
1247302 -0.8635792637739272 -0.3539514473761215
1252205 -0.8616450081328624 -0.3482505910588472
1257108 -0.8661748251452953 -0.3480308494879203
1262011 -0.865240703276885 -0.3483522652179562
1266914 -0.8677680109059048 -0.3447331765664188
1271817 -0.8657978289295586 -0.3497341638014252
1276720 -0.8666728566813905 -0.3422715136207351
1281623 -0.86216256646086 -0.34094292161097756
1286526 -0.8655561736878454 -0.34102492976776067
1291429 -0.8677491774070065 -0.34222815158483816
1296332 -0.8668530739490189 -0.33547623428029477
1301235 -0.8671103462563605 -0.34159482234096916
1306138 -0.8706045318985768 -0.3386285187575563
1311041 -0.8641935207462677 -0.33357229975649866
1315944 -0.867364937989993 -0.33331027312791295
1320847 -0.865843749620166 -0.3346436514596667
1325750 -0.8673695121309515 -0.330808169524698
1330653 -0.8690188734317346 -0.332298230206721
1335556 -0.8697886155925583 -0.33186763257878754
1340459 -0.873415975837225 -0.33446423956487065
1345362 -0.8681969397877836 -0.3268081585186095
1350265 -0.8708054006805434 -0.33333454688226866
1355168 -0.8706238831439524 -0.3268022287944234
1360071 -0.8765801344090329 -0.3260131610402608
1364974 -0.8714783192893168 -0.32929438000484246
1369877 -0.8771490269760673 -0.32699705949998004
1374780 -0.8744391431648152 -0.32683526598064544
1379683 -0.8806083518470293 -0.32435961350694675
1384586 -0.8768322153527889 -0.32400436037965835
1389489 -0.87720133040438 -0.31896663902856887
1394392 -0.8774022307102242 -0.32031229574562947
1399295 -0.8774085746925528 -0.32222502389432134
1404198 -0.8794704079830431 -0.31991051699889117
1409101 -0.8794516511854428 -0.3165495301947912
1414004 -0.8833294285453608 -0.3188521558416555
1418907 -0.8768308427921265 -0.3180537749539792
1423810 -0.8838161359890692 -0.31605231124370403
1428713 -0.8806994706170095 -0.31660662545467994
1433616 -0.8806087061821468 -0.31739070274290293
1438519 -0.8796588520731768 -0.31119912509910214
1443422 -0.8839620518062196 -0.3136751062488215
1448325 -0.8813108546315739 -0.3120555972879308
1453228 -0.8814983890520625 -0.30838920774089473
1458131 -0.8804066344875486 -0.3099069176530791
1463034 -0.8851448711939565 -0.3082928312139349
1467937 -0.8823788979200792 -0.3057841197188366
1472840 -0.8857243843159585 -0.3054711104492068
1477743 -0.8830210497247344 -0.3076783434359391
1482646 -0.8850624087487834 -0.30112575810405706
1487549 -0.8882099319919134 -0.3051749689728638
1492452 -0.8856282993776449 -0.30035223451098303
1497355 -0.8853080368841321 -0.3014029369143275
1502258 -0.8872002537660231 -0.30024228769328404
1507161 -0.8852226389121225 -0.30166925412407847
1512064 -0.8847654026952275 -0.2994500205771785
1516967 -0.8853462078982087 -0.29641152712869745
1521870 -0.8878093780587625 -0.30089047323221624
1526773 -0.8860037542530488 -0.29527727708554413
1531676 -0.8882921740370108 -0.2959287046084434
1536579 -0.8920033075036762 -0.29688881285505
1541482 -0.8893886636872816 -0.2965499907845029
1546385 -0.8905201566570817 -0.2935106903054778
1551288 -0.8888804846142628 -0.2930429710206536
1556191 -0.8909321948405808 -0.2920994638057473
1561094 -0.8913799196481824 -0.2916440878102676
1565997 -0.8904409835533516 -0.2920620185734369
1570900 -0.8933791999089322 -0.28880507899936964
1575803 -0.8931339670427825 -0.29449636705762844
1580706 -0.8887662020621667 -0.28870031785851324
1585609 -0.8918662834307651 -0.2872078142709708
1590512 -0.8880504907328193 -0.2875471466061366
1595415 -0.8950117436196969 -0.2883036743624132
1600318 -0.8900867726116802 -0.2856451348870113
1605221 -0.8952997827430866 -0.2838450542442591
1610124 -0.8938262926123194 -0.2811151775521502
1615027 -0.8936974950797529 -0.2784172187428063
1619930 -0.8902506609341554 -0.28280714326744455
1624833 -0.8922517248072264 -0.2839957057848555
1629736 -0.8938494875814802 -0.2823872524794972
1634639 -0.894533642289392 -0.2758916460814789
1639542 -0.897431961608016 -0.28028474099456613
1644445 -0.8952396914457826 -0.2806296125444673
1649348 -0.8951137794374552 -0.2796421518473501
1654251 -0.8950860026658444 -0.27595505194881165
1659154 -0.8979854084298311 -0.27473443799419234
1664057 -0.8944500557263232 -0.2769031147032481
1668960 -0.8989958854286421 -0.27725701119831475
1673863 -0.8960450119018382 -0.27560118655231847
1678766 -0.897285042543222 -0.2768390357335574
1683669 -0.8997255870289121 -0.2732343403782485
1688572 -0.8975185795754017 -0.2769799557104875
1693475 -0.9004454042800908 -0.2710891012027432
1698378 -0.8981380750528289 -0.2708477055662063
1703281 -0.8955730308132367 -0.2690268024799247
1708184 -0.8986387176830306 -0.27475410829873215
1713087 -0.8983544797110974 -0.27042914453811223
1717990 -0.899069649560048 -0.2688365269160224
1722893 -0.8966019978916859 -0.2680064150425186
1727796 -0.9024547594332267 -0.2694210370306468
1732699 -0.8959223246678581 -0.2680824374842439
1737602 -0.9034313603755169 -0.2650955378661071
1742505 -0.8986552154020833 -0.268320554833883
1747408 -0.9017768272784261 -0.26304793046021624
1752311 -0.899106327369772 -0.2644057845206815
1757214 -0.9017791166517488 -0.2610710294585675
1762117 -0.8991477474247301 -0.2626176020855445
1767020 -0.9003443694436281 -0.2649798967607174
1771923 -0.9018131593197194 -0.2626464678760885
1776826 -0.9020868977390533 -0.26576703829761994
1781729 -0.9077260606475233 -0.2592106476576378
1786632 -0.9009582187933691 -0.2601834531741361
1791535 -0.9066088512006276 -0.25848022257095327
1796438 -0.9037874428134322 -0.2618805380045054
1801341 -0.9018149333092345 -0.2575496013794092
1806244 -0.8992337330879134 -0.2562167473963724
1811147 -0.9045258677358327 -0.2526986554164291
1816050 -0.9044250283789644 -0.25483502021579596
1820953 -0.9061751358043445 -0.25713373214885155
1825856 -0.9051048530268975 -0.25486473364573864
1830759 -0.9057618900846118 -0.2558800437188985
1835662 -0.8997863354098992 -0.2533936851661152
1840565 -0.9038661693227235 -0.2522604774330645
1845468 -0.9095343296572878 -0.25297188832998413
1850371 -0.9027006621105222 -0.25277719837096
1855274 -0.9063182374862655 -0.25429270445514535
1860177 -0.9038918642980195 -0.25028093144420255
1865080 -0.9043257614664705 -0.2513326724591101
1869983 -0.905520736616727 -0.2547150100948977
1874886 -0.9065710093984776 -0.2558904346255668
1879789 -0.9066815537005175 -0.25134878327043875
1884692 -0.9063659840148106 -0.2510727915403811
1889595 -0.9060042158398272 -0.24995681984175933
1894498 -0.9083205127903595 -0.24654816233011917
1899401 -0.911767723271734 -0.24648846157613238
1904304 -0.9094248627132935 -0.24712948072211566
1909207 -0.9110017848500183 -0.24941080162578838
1914110 -0.904186877225683 -0.2461241693993467
1919013 -0.9092565503987465 -0.24462051889573655
1923916 -0.9077274554887231 -0.2438457218937317
1928819 -0.9084604160512215 -0.24705840899438772
1933722 -0.9072903761898665 -0.24341330942030548
1938625 -0.9113093533729499 -0.24433394049496585
1943528 -0.9112937277382276 -0.24343968241612712
1948431 -0.9076200739032602 -0.243505432430634
1953334 -0.9132449365376769 -0.2404422908786862
1958237 -0.9042495647020529 -0.23821999224448936
1963140 -0.907688538646605 -0.24260876458408784
1968043 -0.9073419864524116 -0.2394930601724665
1972946 -0.9073840691491216 -0.24089316630111818
1977849 -0.9115585641834553 -0.24213970455997808
1982752 -0.9090397362610924 -0.23836147313361314
1987655 -0.9087848479059417 -0.23618906279174848
1992558 -0.9123879447135738 -0.23814624644134916
1997461 -0.9108416232765445 -0.23803231042128542
2002364 -0.9092755843784688 -0.23526371660006776
2007267 -0.9059758987875989 -0.23674051734969664
2012170 -0.911310745384456 -0.23743112586039333
2017073 -0.9091655123027843 -0.23434884983216295
2021976 -0.9139070027032966 -0.23791061988080117
2026879 -0.9108997091148163 -0.23563530665839838
2031782 -0.9092919826501572 -0.2320731484748289
2036685 -0.9117723210607366 -0.23373699052057445
2041588 -0.911856614901818 -0.23028119192065918
2046491 -0.9101216510833793 -0.23393639448863834
2051394 -0.9111083955151322 -0.23231123235463547
2056297 -0.9163548455651888 -0.23393711903374398
2061200 -0.9131576203810193 -0.23104957273015048
2066103 -0.9169384160677175 -0.22829026132048097
2071006 -0.9129384643046065 -0.23236688716457257
2075909 -0.9141504042422897 -0.2304316482216555
2080812 -0.9125041602162252 -0.23134520784239312
2085715 -0.9160056668117862 -0.2254226464223914
2090618 -0.9161315474462924 -0.23102014232252446
2095521 -0.914254407253082 -0.22906993147987417
2100424 -0.9145348701723361 -0.23190077045632498
2105327 -0.9131314029478467 -0.22517219526611715
