# HZ S RI R 50
100000 0.5373453835822134 -0.7187206952615165
104903 0.5133290208017827 -0.7318668509678226
109806 0.4872441152144916 -0.7518756282868508
114709 0.45256506341261626 -0.7699998448644918
119612 0.4236400795593874 -0.7775473218604044
124515 0.40107069765118564 -0.7909881357378886
129418 0.3722286084067792 -0.8053118376661307
134321 0.3450649913760848 -0.809973807090617
139224 0.3208780219630652 -0.8214119407863453
144127 0.2936623260574408 -0.8307822997591782
149030 0.26576400640585984 -0.8349649729456557
153933 0.24060925488744048 -0.8401017692030109
158836 0.21768653353767364 -0.8465070518845739
163739 0.19320370317938607 -0.8510566097275072
168642 0.16771215821072152 -0.8493999577251631
173545 0.14598313142647787 -0.8557864451656167
178448 0.12365594136912215 -0.8549985880256289
183351 0.09935268937472508 -0.8553488438207028
188254 0.07764909926936028 -0.8525093135052768
193157 0.05207807576266753 -0.8509293936156843
198060 0.03625570801555072 -0.8489146155049078
202963 0.013216593643013953 -0.8434317911117639
207866 0.0006596431090109513 -0.8349714291850752
212769 -0.011139811074298402 -0.8201258116662259
217672 -0.01046412548928008 -0.8171331675230696
222575 -0.009007452671115765 -0.8324072059963853
227478 -0.02491568294592333 -0.846540049973109
232381 -0.04662938378899239 -0.8543802424402298
237284 -0.06650796339806571 -0.8565494077482507
242187 -0.08616338542054215 -0.8584844733860723
247090 -0.10359105149593383 -0.8557451667311997
251993 -0.11951683710064326 -0.8589727053332104
256896 -0.1356291510877364 -0.8532357158306002
261799 -0.15417545839326438 -0.8530337498142689
266702 -0.17089732554696427 -0.8507832845802581
271605 -0.186091264512298 -0.8478244906326465
276508 -0.20032961670858182 -0.8467300385980816
281411 -0.21732021607687627 -0.8431743178236414
286314 -0.22882902638849215 -0.8380920281566179
291217 -0.239024874560698 -0.835210293306127
296120 -0.25410381320123526 -0.832607129577583
301023 -0.26463169608073656 -0.8256605272170824
305926 -0.2785390354071627 -0.8240674979100393
310829 -0.28812746365047526 -0.8198475166269521
315732 -0.29820002918960015 -0.8180662530363854
320635 -0.31166815322322894 -0.8140232366142915
325538 -0.3220120066129482 -0.808852132970389
330441 -0.33253298133356085 -0.8077323685731641
335344 -0.34499657171825027 -0.8030915731475567
340247 -0.3550353792840675 -0.8006979515948446
345150 -0.36327593236455386 -0.7966977781696348
350053 -0.3757924670450897 -0.7903898210399034
354956 -0.3826478349266105 -0.7855433928168566
359859 -0.3921866533636666 -0.7831290154980791
364762 -0.40167004195712475 -0.7793926751176002
369665 -0.40845576361623254 -0.7730178732672505
374568 -0.41696235176896984 -0.7703115268167736
379471 -0.42928286891207457 -0.7676189017767594
384374 -0.43565588373318964 -0.7660675868017479
389277 -0.4417423209121227 -0.7603579045890975
394180 -0.4512521893408758 -0.7527870708227148
399083 -0.4591792321073804 -0.75096536187235
403986 -0.46602961461163955 -0.7472945512976957
408889 -0.4731848067014562 -0.7439524604444496
413792 -0.47941508537720046 -0.7373995534558574
418695 -0.4893195719838059 -0.7345471370257051
423598 -0.4950053944014526 -0.7290603684228397
428501 -0.5037747186499433 -0.7239025225181894
433404 -0.5090533114191084 -0.723106194959319
438307 -0.517652246261957 -0.7160251673483137
443210 -0.5212239686022261 -0.7148249828435861
448113 -0.5260035077804305 -0.7088375152895698
453016 -0.533562530306316 -0.7086313535615641
457919 -0.5375098066403285 -0.7006292378641845
462822 -0.5449471880541203 -0.6972694014696776
467725 -0.5499202693374733 -0.694316772079941
472628 -0.5579879045988766 -0.6916209068132664
477531 -0.5625375937416579 -0.6856244494693482
482434 -0.5645594158707603 -0.6794633685039967
487337 -0.573231553731859 -0.682104266489261
492240 -0.575230480862997 -0.6740424782825533
497143 -0.5825896257012306 -0.671324028181225
502046 -0.5876735825022954 -0.6683428342765292
506949 -0.5911771944128665 -0.6650335344597998
511852 -0.5907512382832181 -0.6620190555996059
516755 -0.6010350396882853 -0.6572515605640079
521658 -0.6063709238839795 -0.658555363032643
526561 -0.6079602163380041 -0.6495932995257798
531464 -0.6114383366274003 -0.6461627388847389
536367 -0.6184334725563323 -0.6446889477734634
541270 -0.6202655564991943 -0.638866250986583
546173 -0.6254699419813914 -0.6365357034236414
551076 -0.6308881550376115 -0.6338810971071963
555979 -0.6346116094193796 -0.6283006322540754
560882 -0.6348970530449939 -0.6262414874061097
565785 -0.6427096234617209 -0.6173322082532937
570688 -0.6471016349743173 -0.6124910302042554
575591 -0.6487310779103392 -0.613152884203288
580494 -0.6483834047752108 -0.6054839049898034
585397 -0.6481890678086275 -0.6034992862772015
590300 -0.6498483225026428 -0.5997479383004045
595203 -0.6547926420274041 -0.6008488538955138
600106 -0.6583716224513401 -0.6013948297048293
605009 -0.6629473151650651 -0.6035545681938188
609912 -0.667629596571387 -0.5984178267891324
614815 -0.6691227215966323 -0.5973431098957972
619718 -0.6745681489120213 -0.5917462767358932
624621 -0.6772790229938512 -0.5904983280538029
629524 -0.6819711640231292 -0.5894038160168052
634427 -0.6848478829144611 -0.5851729377012111
639330 -0.6914927250095236 -0.5809924072362527
644233 -0.6941754320676676 -0.5779651673830145
649136 -0.6922057918477782 -0.5770090139630172
654039 -0.6966590954902384 -0.5722065832525113
658942 -0.7063578354521244 -0.5711846806645928
663845 -0.7028994413621829 -0.5685663795414555
668748 -0.7063640097344669 -0.5636510475899289
673651 -0.7105906443788594 -0.5624566340424868
678554 -0.7141320280172495 -0.5607313002650018
683457 -0.7137032220023619 -0.5575689997588554
688360 -0.717027654217481 -0.5522263864456138
693263 -0.7240588460207884 -0.5511276511751972
698166 -0.7255882517973874 -0.5487090625153476
703069 -0.7258206415416284 -0.5457241654209619
707972 -0.7323373201192988 -0.5426188479309169
712875 -0.7302765440280173 -0.53963415069818
717778 -0.7346056264309784 -0.5356757394296414
722681 -0.734148635914957 -0.5347687363303999
727584 -0.7379289186058716 -0.5321485616396717
732487 -0.7388025689289264 -0.5310927142091261
737390 -0.7448780864801251 -0.5249362881155849
742293 -0.7449522779038792 -0.5233449628292484
747196 -0.7467480184698693 -0.5204288894547425
752099 -0.7508044811165384 -0.5183043804541255
757002 -0.7505902289819487 -0.5155135192264443
761905 -0.7538226542946538 -0.5151529599509477
766808 -0.7512928031608155 -0.513338421543193
771711 -0.7574458335041014 -0.5080358483444829
776614 -0.7586695031223734 -0.5089646953289213
781517 -0.7626127596268358 -0.504892385284308
786420 -0.7662566907690563 -0.5011808102012417
791323 -0.7649613423222161 -0.5005337011745101
796226 -0.7686562710920647 -0.4994792474702133
801129 -0.7674159068633127 -0.49515576174750187
806032 -0.7688111884522347 -0.4944193747470864
810935 -0.7725043808804596 -0.49211505913153053
815838 -0.7707365210067919 -0.4918948711257679
820741 -0.7750125996313082 -0.4879210077059424
825644 -0.7744164500599838 -0.488567853879754
830547 -0.7771139001495075 -0.4835979790174704
835450 -0.7840549697299832 -0.4813160162389962
840353 -0.7778641880411131 -0.48154510649253424
845256 -0.780478506784483 -0.47664818361296063
850159 -0.7849750576922275 -0.47522007208028916
855062 -0.7862895452075418 -0.47310296003895125
859965 -0.7879439581168727 -0.4720355397920876
864868 -0.7895567595116192 -0.4675127688296144
869771 -0.7917569629178359 -0.4696879154882064
874674 -0.7916606859990042 -0.4665678191565741
879577 -0.7909888498778397 -0.4641220801027128
884480 -0.7910258895563753 -0.4588958750924702
889383 -0.7974080102838504 -0.45780335619263235
894286 -0.7962412383079307 -0.45629706347065774
899189 -0.7995451705988144 -0.4549499702795106
904092 -0.79945767886714 -0.45365024136974114
908995 -0.8005615338312725 -0.44899342737296466
913898 -0.8031287140645452 -0.4490094782549552
918801 -0.8053263216313995 -0.44689575188060027
923704 -0.801469164265798 -0.44375993024246907
928607 -0.8060588562956551 -0.44240630520527696
933510 -0.8060044071635091 -0.4442394321707951
938413 -0.8084962260916928 -0.43558411254432516
943316 -0.8068100664002709 -0.4362012856170806
948219 -0.8120711931208701 -0.437122880975113
953122 -0.8119059702252656 -0.43495203636694774
958025 -0.8084364383635979 -0.4301505246963787
962928 -0.8126697890278624 -0.43319013866718076
967831 -0.8149975342378876 -0.43234412145887696
972734 -0.8146260297320133 -0.4285661476241716
977637 -0.813060311137958 -0.4281909583336146
982540 -0.8144528722277199 -0.4254567967262276
987443 -0.818054133532228 -0.42639394077848086
992346 -0.8188972194605175 -0.42126880652913434
997249 -0.8187076106737204 -0.4242752858927951
1002152 -0.8184277971720193 -0.4196063068891531
1007055 -0.8226286200630966 -0.4194369868304809
1011958 -0.8242220905710311 -0.4171574757400703
1016861 -0.8248486704859687 -0.42075084918406325
1021764 -0.8282831391274929 -0.41290009449518433
1026667 -0.8249157708552874 -0.4122299333306828
1031570 -0.8294086421172476 -0.4145609924932176
1036473 -0.8266092355913768 -0.4087028370322313
1041376 -0.8304510508175633 -0.4078662314881409
1046279 -0.830686243665058 -0.40815112916519225
1051182 -0.8318693503149049 -0.4061545796631678
1056085 -0.8375174978413679 -0.4036688377324329
1060988 -0.8348528001232999 -0.4044609482188866
1065891 -0.8382771893331763 -0.40060534141267085
1070794 -0.8329256528122247 -0.39779332515853005
1075697 -0.8360881200511817 -0.39872938974595173
1080600 -0.838530987555052 -0.40026291226072325
1085503 -0.8387151443441557 -0.39121275582744536
1090406 -0.8385602487857016 -0.3945375521633861
1095309 -0.8439269462895188 -0.39061997454457725
1100212 -0.8409316774688995 -0.39388969677128316
1105115 -0.8418112785884252 -0.3874192283412571
1110018 -0.8444383391406898 -0.3894365154832994
1114921 -0.8425450355358507 -0.3838078458001835
1119824 -0.8438848611939271 -0.3863775883451625
1124727 -0.8436861240887812 -0.3830834098225227
1129630 -0.8479946712777297 -0.3807867796015846
1134533 -0.8500338717657903 -0.37779860444185864
1139436 -0.8485839747347526 -0.3828865147956788
1144339 -0.8476029914437571 -0.37752656933637035
1149242 -0.8500576111755134 -0.3785350753944809
1154145 -0.8535076357399672 -0.375676242058405
1159048 -0.8524358138926413 -0.3788770292880086
1163951 -0.852991803613807 -0.3733142717476159
1168854 -0.852008873258625 -0.3724168835338449
1173757 -0.8529003050060059 -0.3719849871637489
1178660 -0.8535277135712065 -0.3703564586076962
1183563 -0.8517176704509304 -0.36660057922717154
1188466 -0.8533926675647198 -0.3663169984660573
1193369 -0.8559210325637241 -0.3674638372893295
1198272 -0.8583491755130119 -0.36348321174070947
1203175 -0.8578477976118961 -0.36230152379301533
1208078 -0.8587707940638617 -0.35873002977805807
1212981 -0.8578031036837428 -0.36203443186315126
1217884 -0.8559403961628436 -0.357291164823164
1222787 -0.8607787668335425 -0.35627119212312885
1227690 -0.8588198403013364 -0.3538000933902505
1232593 -0.8591669698060571 -0.3571637049656371
1237496 -0.8604591070602147 -0.35384827276365577
1242399 -0.8632714437148308 -0.35371562481760066
1247302 -0.8635944996283497 -0.3552654928527548
1252205 -0.8631920007349825 -0.3520702030368881
1257108 -0.867580168177442 -0.34858909593107634
1262011 -0.8650128555138201 -0.35107090640499733
1266914 -0.8660854180570163 -0.34976740901528813
1271817 -0.8656229018932867 -0.35040411279326017
1276720 -0.8637377022770438 -0.3488975066872758
1281623 -0.8676402221395696 -0.3430150933799584
1286526 -0.8651791540918459 -0.34443437281733585
1291429 -0.8659941925030676 -0.33931075527480076
1296332 -0.8702307644207417 -0.3396237460169844
1301235 -0.8683918459219019 -0.33945640461171894
1306138 -0.8706377753793177 -0.3424187464040027
1311041 -0.8692051544970502 -0.33626205476767723
1315944 -0.8679971192459178 -0.3361881360959343
1320847 -0.8677236034194504 -0.33669843201925576
1325750 -0.8683705274475855 -0.3352694203623272
1330653 -0.8710660228639547 -0.33181653967655006
1335556 -0.8730659115001508 -0.33177577960870996
1340459 -0.867587912466785 -0.33721741583972215
1345362 -0.8727327388035817 -0.33065929621469986
1350265 -0.8700827180887156 -0.3310814369953537
1355168 -0.8718360198469948 -0.3291859615602047
1360071 -0.8725559197943887 -0.3293071081756431
1364974 -0.8769339474764499 -0.32921330773610047
1369877 -0.8750787058985103 -0.327092676190873
1374780 -0.876049921267059 -0.32542778709950015
1379683 -0.8781057926697492 -0.3264304157417935
1384586 -0.8755305846747716 -0.3236250891868613
1389489 -0.8760523824214282 -0.32440046352400354
1394392 -0.87799310000936 -0.3221363014670295
1399295 -0.8761558333707579 -0.32529385845487546
1404198 -0.8784543428044406 -0.3218211078303076
1409101 -0.8802968151349578 -0.3198188396069977
1414004 -0.879399124766434 -0.32046359060077195
1418907 -0.8755766743032648 -0.3195852468693618
1423810 -0.8812203240541606 -0.3160582561369316
1428713 -0.8838935439892661 -0.3172342870037951
1433616 -0.8804341867760133 -0.31919251196709114
1438519 -0.8797883416299955 -0.3169454402299531
1443422 -0.8806515087767689 -0.3121656952124385
1448325 -0.8854220335321613 -0.30908037045467146
1453228 -0.8799554216458789 -0.31119295810915815
1458131 -0.8844025617289033 -0.3098781637863204
1463034 -0.8848638609327707 -0.3107098150109557
1467937 -0.8852573283364058 -0.30764697573274286
1472840 -0.8859145313084679 -0.3076902294321193
1477743 -0.883151569770562 -0.3053334872561399
1482646 -0.8859701474610716 -0.3058340280461974
1487549 -0.8865140184246223 -0.30772166871030526
1492452 -0.8850767521096776 -0.3002695684460736
1497355 -0.8865930681938253 -0.30436800140318526
1502258 -0.8870208183222534 -0.3019908224480833
1507161 -0.8871534344319953 -0.30318848001377474
1512064 -0.8891883258664975 -0.3048007559795417
1516967 -0.8921901917370274 -0.29924015029078643
1521870 -0.8888121268761001 -0.3015977009575684
1526773 -0.8881802652225063 -0.29756160978500745
1531676 -0.8882328952764119 -0.2977798617169411
1536579 -0.8892473379774442 -0.29689121982248906
1541482 -0.8899818380053989 -0.30076135237411517
1546385 -0.8907196140170022 -0.2956257657501392
1551288 -0.8922045214860247 -0.29360977784660813
1556191 -0.8893006310791405 -0.2939935029815621
1561094 -0.8905748332784489 -0.2949154293800038
1565997 -0.8910103440681727 -0.29444633052445646
1570900 -0.8934530315802236 -0.29256083074023975
1575803 -0.8921249743859034 -0.29457367562877235
1580706 -0.8909662769864453 -0.29240612259975896
1585609 -0.8918687760870411 -0.294447279457918
1590512 -0.8891108384146125 -0.28773989595897803
1595415 -0.8950463621051546 -0.28990398577675786
1600318 -0.8907786086393156 -0.28854327881987835
1605221 -0.8943628206056344 -0.28488036325082294
1610124 -0.8946604929831905 -0.2845224905587685
1615027 -0.8942023184030901 -0.2841151570503993
1619930 -0.8911925615310424 -0.28466317844498773
1624833 -0.8943888440324187 -0.28382984805646766
1629736 -0.8966927433490492 -0.2829919851109028
1634639 -0.8939129150020002 -0.28187931921987636
1639542 -0.894838553181177 -0.2824869339899984
1644445 -0.8975956366204771 -0.2820020307348854
1649348 -0.896397827671709 -0.2782372848403812
1654251 -0.8957262273932904 -0.2797944246877448
1659154 -0.8992716018309186 -0.2778845911593329
1664057 -0.8991829079033813 -0.2769770328061554
1668960 -0.8957887238050802 -0.27744487457342193
1673863 -0.898709543488971 -0.2797052583252442
1678766 -0.9009627164701379 -0.2781705586627263
1683669 -0.900399235258729 -0.27600464758491616
1688572 -0.8993421200658346 -0.27721468431839
1693475 -0.9008237331651832 -0.2748418914443099
1698378 -0.8982903658194499 -0.2774656083394958
1703281 -0.8959266115945469 -0.2725337230999794
1708184 -0.8982310909310678 -0.273772965052407
1713087 -0.9014003917634249 -0.27321666179100007
1717990 -0.8973074536174526 -0.27146940507882145
1722893 -0.8986041152792451 -0.2670362115092016
1727796 -0.903427936717 -0.2686544006006842
1732699 -0.9011839074296661 -0.2668819943294476
1737602 -0.9038875608812542 -0.26784288426953884
1742505 -0.9028493224934365 -0.27065905383563427
1747408 -0.9045762638822495 -0.2649115451271319
1752311 -0.8978792044820804 -0.2659789688322513
1757214 -0.9044081423892489 -0.2657541149515213
1762117 -0.9008398234418966 -0.2670422647703808
1767020 -0.901080690819732 -0.26378171781964765
1771923 -0.9054912610278137 -0.2616294776707311
1776826 -0.9055717659532192 -0.26749285030222897
1781729 -0.9077281630758383 -0.2624017108549207
1786632 -0.9024672942053978 -0.26161371894065233
1791535 -0.9063457652319784 -0.2636844174838271
1796438 -0.9035801674907495 -0.26440915264746134
1801341 -0.9031686551595393 -0.26134454858782313
1806244 -0.9038914647243895 -0.25528454298278414
1811147 -0.9086737231162277 -0.2559626800192071
1816050 -0.9026391574325252 -0.26029753611788414
1820953 -0.9074826139150052 -0.26013753003032325
1825856 -0.9013718525302389 -0.2527210716088114
1830759 -0.9056697579192168 -0.25926806655052237
1835662 -0.9021554859051715 -0.25590331987779624
1840565 -0.9060575982625726 -0.25500579488065145
1845468 -0.9090407149969753 -0.2552376833232657
1850371 -0.904871475127897 -0.2525138429659843
1855274 -0.90451904963276 -0.2556737245339159
1860177 -0.9038973249816282 -0.2506318085582872
1865080 -0.9092474948537429 -0.25400821992556744
1869983 -0.9034928520312706 -0.25732215474939335
1874886 -0.9055667650797685 -0.254168666585198
1879789 -0.9044860245361303 -0.25438173366302286
1884692 -0.9071903927062636 -0.2525035523937129
1889595 -0.9074597744139604 -0.24636728327761268
1894498 -0.908376520786243 -0.24819362307362103
1899401 -0.9099798154372448 -0.24903796958456334
1904304 -0.9094486624075738 -0.24970315935345577
1909207 -0.9111873654928496 -0.24910076195206396
1914110 -0.9087459897248505 -0.2500674760837864
1919013 -0.9108103522505328 -0.24604398692873752
1923916 -0.9029416728507199 -0.24791110739865516
1928819 -0.9126130590482459 -0.24727143643683405
1933722 -0.9095082796522036 -0.24371941787116075
1938625 -0.9101492064548788 -0.2482455873923706
1943528 -0.9120135037180156 -0.24688417281274097
1948431 -0.909405296100104 -0.24556850571712466
1953334 -0.9093456768906228 -0.24154630911792735
1958237 -0.9095216254393809 -0.24356612268089908
1963140 -0.91180504946316 -0.24389708662738496
1968043 -0.9092972222770105 -0.24528600412469675
1972946 -0.9090929802090705 -0.23967937722573357
1977849 -0.9147884867410065 -0.24384022527879987
1982752 -0.9065177273232365 -0.24109843873486528
1987655 -0.9108030085232515 -0.23917611921093054
1992558 -0.9130755069027074 -0.24279601869505826
1997461 -0.9156460290688063 -0.24074526437934576
2002364 -0.9096645982532753 -0.23921894612239822
2007267 -0.9088355968491125 -0.23754518145672507
2012170 -0.9136148146266111 -0.23532677711192715
2017073 -0.9090985570031411 -0.24027312359015193
2021976 -0.9110253553056616 -0.23897456021124103
2026879 -0.9123871679926596 -0.23866559607467241
2031782 -0.9123343650683399 -0.23821174449783455
2036685 -0.9167423052391315 -0.23774818148913934
2041588 -0.9101458199862259 -0.23396255613682782
2046491 -0.9163927754978147 -0.23660539217103702
2051394 -0.9139214898290556 -0.23271554824191013
2056297 -0.9141133783769735 -0.23981087188886213
2061200 -0.914322161130987 -0.2341096824800592
2066103 -0.916314608598225 -0.2268318183213747
2071006 -0.9177803565437579 -0.23585395612482676
2075909 -0.9156216143260792 -0.23194048240938034
2080812 -0.9119055065072138 -0.23358469758826256
2085715 -0.9170424388829249 -0.23194797656132296
2090618 -0.91419069709452 -0.2329081511457076
2095521 -0.9168671413959455 -0.22880821183428354
2100424 -0.9110709931650682 -0.23059665144368474
