# HZ S RI R 50
100000 0.5238488731235053 -0.7209172560981854
104903 0.49522073204539807 -0.7351356711844138
109806 0.4652158656084973 -0.7498721430180472
114709 0.4313770738130112 -0.7662065463226694
119612 0.3998428128769467 -0.7783562427685119
124515 0.3734203752559761 -0.7883906243230092
129418 0.34414570318111026 -0.8002644716649137
134321 0.3137183551978649 -0.8074295283033763
139224 0.283545529955103 -0.816383139530125
144127 0.2493999748688902 -0.8250001012383921
149030 0.2201499915407251 -0.8254142129409817
153933 0.188239698151324 -0.8260898165959062
158836 0.1582749281306805 -0.8286902081693548
163739 0.1236506113897579 -0.82470843081673
168642 0.0918327974573466 -0.8131856860712878
173545 0.06308706717027092 -0.8071424313709904
178448 0.03596420511129278 -0.794411448750121
183351 0.005381115998936052 -0.7765457762340455
188254 -0.022168355783217995 -0.7539914200623061
193157 -0.05022312703480382 -0.7252037350596355
198060 -0.06945239827646624 -0.687203533727259
202963 -0.07333172984172853 -0.6284199691754138
207866 -0.04353371759493413 -0.5756772107917282
212769 0.016326858298316836 -0.5312446793353486
217672 0.10733561212911302 -0.5289797568148502
222575 0.1893621651190882 -0.6080081213813345
227478 0.18631094411748375 -0.7035032497791119
232381 0.1509922718819193 -0.7593907678779351
237284 0.11372189772641408 -0.7920397514688234
242187 0.07805149900649185 -0.8132535023319438
247090 0.048378305260326104 -0.8225807624921658
251993 0.023023678003695897 -0.8397047822802649
256896 -0.003465914088520622 -0.8422109751189061
261799 -0.03042959588409318 -0.8504609121314146
266702 -0.05454912413136715 -0.8534021395095787
271605 -0.08027542840251002 -0.8535514430247545
276508 -0.10271149580067147 -0.8543161998101704
281411 -0.12389707727051996 -0.8540143772389857
286314 -0.14216334208090223 -0.8477133782311278
291217 -0.157193010240239 -0.8418324199917698
296120 -0.17487857186022004 -0.8401954674317064
301023 -0.18909380464678902 -0.8337551693131519
305926 -0.20390707465302957 -0.8283365255020898
310829 -0.21034285114608314 -0.8244804151871341
315732 -0.22061124767280446 -0.8251673708485749
320635 -0.23450136140892955 -0.824477035864774
325538 -0.24605210830899765 -0.8244595772192719
330441 -0.2600345116597117 -0.8245226635511225
335344 -0.27401091230527513 -0.8209140858964883
340247 -0.2873327055762004 -0.8204345241528199
345150 -0.30028660613622526 -0.8179862779972958
350053 -0.31634180596822403 -0.8119309144396822
354956 -0.32561163688093236 -0.8070565733910963
359859 -0.33857119457082335 -0.8040359196193643
364762 -0.3467595206302373 -0.7986877762545093
369665 -0.3562014157674583 -0.7942825640691908
374568 -0.36775358947792336 -0.7921758758187812
379471 -0.37842334515319304 -0.7876509195043319
384374 -0.38938153890596916 -0.7871563954496398
389277 -0.39644972955677577 -0.7802332542631635
394180 -0.40588173846643205 -0.7756220343964427
399083 -0.4161115304561396 -0.7716890432829923
403986 -0.4251220834514733 -0.7647901315364571
408889 -0.43142880287126695 -0.7641086089473659
413792 -0.44091713032282975 -0.7572906007453779
418695 -0.4500167113259557 -0.7523494783773347
423598 -0.457346581752813 -0.747660697446564
428501 -0.4679596581602809 -0.7419625865328549
433404 -0.47230312292926147 -0.7395006067034515
438307 -0.48407593563886675 -0.7331538687325787
443210 -0.4861600460100063 -0.734259876262204
448113 -0.4940325114450886 -0.726607549344359
453016 -0.5013701191355516 -0.7241658979984988
457919 -0.5061018646544949 -0.7170516596963568
462822 -0.5157579486923175 -0.7153096427321749
467725 -0.5211595919906671 -0.7070648026448192
472628 -0.530054800842686 -0.7060897855219975
477531 -0.5351859268074938 -0.6996397136666253
482434 -0.5420972680224602 -0.6936321940427845
487337 -0.5458095475571288 -0.6913679369241194
492240 -0.5534249868488965 -0.6863750944589018
497143 -0.5577789865084728 -0.681389731540325
502046 -0.5649781075254433 -0.6765311883587326
506949 -0.567624801365163 -0.672889138976243
511852 -0.5726162367847357 -0.6670287175905283
516755 -0.5800641660904847 -0.6625796158541267
521658 -0.5871125623101838 -0.6586567877381179
526561 -0.5880623827806483 -0.648636408188426
531464 -0.5950161439366534 -0.645085984159399
536367 -0.6014919615021402 -0.6399642332465663
541270 -0.6024924619735188 -0.6302964865653075
546173 -0.6097723789142117 -0.6276390456780094
551076 -0.6102284848823964 -0.6142774973968989
555979 -0.6141181287401082 -0.6067007710429707
560882 -0.6117740285429888 -0.5939916075577089
565785 -0.6105132198033172 -0.5806747454577045
570688 -0.6013349007116418 -0.5695752555509918
575591 -0.5886170856978499 -0.5638895845953
580494 -0.5646339038550723 -0.5688072914880086
585397 -0.5559011063778573 -0.5838467630717191
590300 -0.5579171177276152 -0.6016753888450921
595203 -0.565308564681204 -0.6156601048180701
600106 -0.5770637988730579 -0.624937292318038
605009 -0.589623736755404 -0.6292698851299636
609912 -0.5981717897796776 -0.6323873723465595
614815 -0.607413846443257 -0.6314986745775468
619718 -0.6174114775390128 -0.6287087047850671
624621 -0.6268275514889442 -0.6270306269365514
629524 -0.6338191967737645 -0.6243633319991777
634427 -0.6407185309496619 -0.6203932917509444
639330 -0.6491800308274618 -0.6186867791812825
644233 -0.654319184010015 -0.6126024981072401
649136 -0.657198850339298 -0.6084836575890287
654039 -0.6604728472191936 -0.6053639196749006
658942 -0.671841271901246 -0.6009478672640264
663845 -0.6706604121195396 -0.5970695385087845
668748 -0.6764528923108685 -0.5937329871764315
673651 -0.6762435990759106 -0.5893720200116151
678554 -0.682360603482459 -0.586041628178393
683457 -0.6837635735552801 -0.5853810292597345
688360 -0.6845916008369665 -0.5791345219998983
693263 -0.6957870338261634 -0.578841017632836
698166 -0.6954148410554719 -0.5743435590480908
703069 -0.6985508134575502 -0.5728039677299918
707972 -0.7001680256247526 -0.5741387878850043
712875 -0.7050720428585651 -0.5665593464669552
717778 -0.7119406947066244 -0.5669862274092313
722681 -0.7140003590313715 -0.5601958282877664
727584 -0.7110216060602869 -0.5554822040857492
732487 -0.7141687834082509 -0.5533220395986554
737390 -0.7209801898261378 -0.5507023422927411
742293 -0.7231618116561194 -0.5496623239767222
747196 -0.7283507171986071 -0.5446369587243773
752099 -0.729017470094741 -0.5380766211584603
757002 -0.733487322679119 -0.5398370971604823
761905 -0.7344121094580298 -0.5354025576280068
766808 -0.734286262911542 -0.5356080907683209
771711 -0.7377996875364551 -0.5328940305985379
776614 -0.739985162683167 -0.5284512942498543
781517 -0.742596120036478 -0.5263629559185019
786420 -0.7487166167822683 -0.5227413421655027
791323 -0.7489185003483743 -0.5225409018114372
796226 -0.7512650044338622 -0.5151704166274487
801129 -0.7511336872616332 -0.5151741246675227
806032 -0.7525410056549516 -0.5118970735909115
810935 -0.7567275180621307 -0.5106149002367475
815838 -0.7543661975592282 -0.5112376993569778
820741 -0.7577401321224513 -0.506013654370434
825644 -0.7583025253786714 -0.5029238044727359
830547 -0.7625763560992169 -0.49930393551012053
835450 -0.7672482824539626 -0.49872702860191154
840353 -0.7633546006716796 -0.49661304113080723
845256 -0.767626317431745 -0.49130338785418776
850159 -0.773469827647511 -0.4871682492476036
855062 -0.7692191656955064 -0.48880785656857084
859965 -0.7729807998512489 -0.4852247499260711
864868 -0.7766857416846065 -0.4827297442850535
869771 -0.7775869951884699 -0.4804950234762423
874674 -0.780873080032665 -0.4785260861047271
879577 -0.7776053882312611 -0.47236941897762813
884480 -0.7794666334163541 -0.4716004564169704
889383 -0.784784723572634 -0.4667562727207257
894286 -0.7856209911061809 -0.466023383466115
899189 -0.7846100506908288 -0.46200893489520795
904092 -0.7881556144395503 -0.4596334545915636
908995 -0.7867846958762723 -0.45302287627371823
913898 -0.7900260914321665 -0.4516754722314085
918801 -0.7887943054353109 -0.4465101987091661
923704 -0.7832029466214396 -0.44403913545191315
928607 -0.7864706837079017 -0.4408861047908405
933510 -0.782620267600566 -0.4375455546267369
938413 -0.780002367812968 -0.4328464068648868
943316 -0.7730389502602949 -0.43395037418290344
948219 -0.774601901353232 -0.43705721085579685
953122 -0.7725904317267068 -0.44206434381501514
958025 -0.7717256887122277 -0.44442611683519345
962928 -0.7775508371259933 -0.447071972264389
967831 -0.7803335292255509 -0.4485255921686626
972734 -0.7842845732108359 -0.4502545077035153
977637 -0.7841146761463655 -0.44849204031066475
982540 -0.7881467980645278 -0.44645301711760604
987443 -0.7935061147597109 -0.4473560988016627
992346 -0.7952366553307473 -0.44621526444994614
997249 -0.7991022583860213 -0.44527823380717624
1002152 -0.7991074903859732 -0.4419728605480821
1007055 -0.8017506569281827 -0.44229383167412356
1011958 -0.8064633154046654 -0.43900930511284336
1016861 -0.8096453318823426 -0.4376486509078992
1021764 -0.8122198663728207 -0.43547647391066907
1026667 -0.8093423218284616 -0.43158247260497057
1031570 -0.8159720689752379 -0.4309717324491491
1036473 -0.8121261360952383 -0.427205041022924
1041376 -0.8160944347412065 -0.4281392175189693
1046279 -0.8180862192952951 -0.4254986283209302
1051182 -0.8199786933915788 -0.4226716267927551
1056085 -0.8221899896891929 -0.42476021276111203
1060988 -0.8211472660918424 -0.4226718036460955
1065891 -0.8250307569907886 -0.4176691091137608
1070794 -0.8225614018321297 -0.4191971524502076
1075697 -0.825062494241363 -0.414089969135624
1080600 -0.8253006764476333 -0.4119962897713456
1085503 -0.8287370015905905 -0.40749213666138084
1090406 -0.8295628598126564 -0.40615595476064614
1095309 -0.8292244998532821 -0.40838605594491667
1100212 -0.8303891709725788 -0.40906790097382506
1105115 -0.8326771658978311 -0.40111961755853487
1110018 -0.8340853008576967 -0.4040446316346006
1114921 -0.8333389082673848 -0.3983309156866354
1119824 -0.8326174360152008 -0.40189387664679105
1124727 -0.8382405005881703 -0.3946723033113817
1129630 -0.8377910107068658 -0.3915718151851494
1134533 -0.8405381969105972 -0.3912892054280494
1139436 -0.8404362573639916 -0.3957729618085444
1144339 -0.8395687186809576 -0.3909482585525097
1149242 -0.8426107286911808 -0.38635741848165983
1154145 -0.8456319762664225 -0.3849990529843074
1159048 -0.8445661090216684 -0.3890710017260637
1163951 -0.8433009153041048 -0.3839781569461125
1168854 -0.8411519493222823 -0.3810225088225917
1173757 -0.8453966134696529 -0.38108946420587636
1178660 -0.8473427069857434 -0.3771435353599267
1183563 -0.8428566755452362 -0.3776829164823351
1188466 -0.8470622932349946 -0.3762451961209089
1193369 -0.8498005118463972 -0.378843455669508
1198272 -0.8482248393021561 -0.3713946168503572
1203175 -0.85298949788105 -0.36990991477274626
1208078 -0.848468396374389 -0.36730262830283056
1212981 -0.8502595897932892 -0.36676058247922144
1217884 -0.8492552379788568 -0.36577575077610275
1222787 -0.8556790333986932 -0.3643806551684606
1227690 -0.8501180613142397 -0.36210197941231853
1232593 -0.8532263094182073 -0.3606695602120067
1237496 -0.8549188403159836 -0.3615225524553794
1242399 -0.8551912909811246 -0.35613457322865927
1247302 -0.8550076762942125 -0.35745115939376254
1252205 -0.8539234861666479 -0.3543260420250145
1257108 -0.8581141328407155 -0.35272802418220167
1262011 -0.8544270821501003 -0.35088984953890806
1266914 -0.8548587795831707 -0.3476727622144035
1271817 -0.8534546429429701 -0.34927389531065883
1276720 -0.8561882328082628 -0.3417692850730044
1281623 -0.8523757836625616 -0.3443927904314422
1286526 -0.8463214332601265 -0.3420522005283988
1291429 -0.8496900959463801 -0.34567691113701937
1296332 -0.8489046212037711 -0.3420995143295816
1301235 -0.8478407366628786 -0.34464893487954057
1306138 -0.8511937580010733 -0.34865901006256883
1311041 -0.8517450745435641 -0.3451215527525657
1315944 -0.8487965212518538 -0.34645240889353884
1320847 -0.852175054598132 -0.344346151336318
1325750 -0.8553298320426295 -0.3472182831984451
1330653 -0.8546730235726622 -0.34595341759080206
1335556 -0.8597457474244411 -0.3466354783408986
1340459 -0.8616182366923016 -0.34289222494829125
1345362 -0.8600616879122752 -0.3434882154620742
1350265 -0.8599901010662476 -0.34070047701082945
1355168 -0.8654230545228982 -0.33777620047910223
1360071 -0.8658994310903944 -0.3357170524302424
1364974 -0.8674594598464892 -0.33714306918721376
1369877 -0.8662876004827257 -0.33702172538475844
1374780 -0.8685829698703262 -0.3381408366431253
1379683 -0.8739507833863557 -0.3333878704825995
1384586 -0.867264996005644 -0.33345043677966074
1389489 -0.8680957636079283 -0.3281825896371457
1394392 -0.8705637588750035 -0.3327503325094215
1399295 -0.8714416385078639 -0.33020734114924694
1404198 -0.8717267415083936 -0.3284043623795321
1409101 -0.8733292547273478 -0.3268243743217142
1414004 -0.8761801313850078 -0.3260163430040404
1418907 -0.875455697821578 -0.3251035402792043
1423810 -0.8739335930607797 -0.3224875612410926
1428713 -0.8759317887702557 -0.3233502099581062
1433616 -0.8750956748771386 -0.32197288281944014
1438519 -0.8749619420209189 -0.3217923453707104
1443422 -0.8791105351408164 -0.3153617962267072
1448325 -0.8784381060580784 -0.3178828766926228
1453228 -0.876157107516582 -0.3165840127684081
1458131 -0.8790579519223664 -0.31189338164990377
1463034 -0.8808176449238788 -0.31450612671892053
1467937 -0.8752184589280578 -0.31334856873096656
1472840 -0.87880596290206 -0.30889284940750295
1477743 -0.8785466894088129 -0.307469214617584
1482646 -0.8798021323811199 -0.3077911630931453
1487549 -0.8783952882670507 -0.30716126596834353
1492452 -0.8814393891774316 -0.30463074378293725
1497355 -0.8838348196946895 -0.3067546062166343
1502258 -0.8797525842616496 -0.30006205446943834
1507161 -0.8829130001926301 -0.30458751497464115
1512064 -0.8840900496346354 -0.3040065761654239
1516967 -0.8856722959014904 -0.3005918562665954
1521870 -0.8794069293947523 -0.29939136696209456
1526773 -0.8823483579459133 -0.2976678324138705
1531676 -0.8820612575402629 -0.29634717223835766
1536579 -0.8845091516239131 -0.2947905838714568
1541482 -0.8820308640279038 -0.2952605506032491
1546385 -0.8820809305525946 -0.29628835459222996
1551288 -0.8866663228701401 -0.2910622380060787
1556191 -0.8829210270547758 -0.2892981357878694
1561094 -0.8824608015869382 -0.29057284494940405
1565997 -0.881782882015092 -0.2879512184849153
1570900 -0.8865511170114403 -0.2839656489779944
1575803 -0.881016861565913 -0.2870230210449119
1580706 -0.878492714447441 -0.28760312335879246
1585609 -0.8775415458435691 -0.2870499564975453
1590512 -0.8754587869176101 -0.2867535321026466
1595415 -0.882751561370406 -0.2903694961434856
1600318 -0.8812649596073591 -0.287968569540425
1605221 -0.882194046423532 -0.2866659919991586
1610124 -0.8862341807135383 -0.29029305803616684
1615027 -0.8854757794108472 -0.28689822134423293
1619930 -0.8856420704505817 -0.28635808742629404
1624833 -0.8837735845207383 -0.28838187834950363
1629736 -0.8896484659515606 -0.28420849117206803
1634639 -0.8870491863655999 -0.28144031286675464
1639542 -0.8918351671485761 -0.28338733560829577
1644445 -0.8883200101616618 -0.2845721422387305
1649348 -0.894025787823507 -0.2787631281475221
1654251 -0.8909459255196132 -0.27970948906152104
1659154 -0.8904430257425732 -0.2763136269311317
1664057 -0.8925644247630211 -0.2783167437365511
1668960 -0.8962818198838144 -0.27433333637550855
1673863 -0.8944500490346704 -0.2807586046256047
1678766 -0.8931482307992431 -0.27407437429749004
1683669 -0.895169061658196 -0.2752263928673338
1688572 -0.8929704922129975 -0.27336397847724325
1693475 -0.8980435621939317 -0.27090069061306976
1698378 -0.8952404487542999 -0.2704304378513653
1703281 -0.8931706811173681 -0.26913388010121475
1708184 -0.8940656361225702 -0.2698600922222472
1713087 -0.8980127804301536 -0.26788105467163054
1717990 -0.8966318246802121 -0.26619125254625237
1722893 -0.8961678216821172 -0.2655852829972383
1727796 -0.8974441174376848 -0.2636583350259138
1732699 -0.8955675669967452 -0.2632863430211331
1737602 -0.8970833899116714 -0.26131896111376635
1742505 -0.8969429755654481 -0.2616454132395331
1747408 -0.8937456650916985 -0.2572469744687866
1752311 -0.8939231142108048 -0.26035882425672474
1757214 -0.8984361947475417 -0.26000729526574107
1762117 -0.8955925866222718 -0.25953492745612816
1767020 -0.8922873322973965 -0.25612454035829835
1771923 -0.8962207400883136 -0.25238121908506095
1776826 -0.8967277544943462 -0.25780734003107125
1781729 -0.8976516115261619 -0.25115053779807794
1786632 -0.892278491314099 -0.2539994402565795
1791535 -0.8932053318143247 -0.25353172397286333
1796438 -0.892472568717082 -0.25574889165807707
1801341 -0.8946585641766569 -0.25278221356891084
1806244 -0.8955778742362939 -0.2531872041396788
1811147 -0.8958775875638836 -0.24950600871415993
1816050 -0.9013175042641902 -0.24945514245725392
1820953 -0.8967310965898706 -0.2557293805530227
1825856 -0.9009715345057304 -0.2501230319400044
1830759 -0.8984535874999212 -0.2539745228545941
1835662 -0.8968580076366613 -0.2503039799797496
1840565 -0.8974813101284491 -0.24855446325976283
1845468 -0.8989122163991788 -0.24528650514987557
1850371 -0.9025723298233606 -0.24948924674090145
1855274 -0.8989382094459156 -0.25088164743455627
1860177 -0.8978607371870159 -0.24816033297716728
1865080 -0.9011540497195694 -0.2475917580002327
1869983 -0.8991466944464624 -0.246147126939425
1874886 -0.8980631903343461 -0.24608873028567488
1879789 -0.9035879533595083 -0.2441855924517894
1884692 -0.9004728161544647 -0.24231773820471456
1889595 -0.9001725824252058 -0.2400373560491053
1894498 -0.8995401890758813 -0.23618182098007665
1899401 -0.903852584177387 -0.24035289552473443
1904304 -0.9043335299043853 -0.23927940504115097
1909207 -0.9022962144067939 -0.23633466098338188
1914110 -0.902027753940585 -0.23580433055071756
1919013 -0.8994840463912929 -0.23807091425121807
1923916 -0.9003093559047596 -0.2349268455551136
1928819 -0.8975372276009903 -0.2364647759133132
1933722 -0.9023828014423743 -0.23546564359364258
1938625 -0.898363847724876 -0.2333251790418946
1943528 -0.899664483894522 -0.23483539950691495
1948431 -0.8974429019075286 -0.23787149267197946
1953334 -0.9040455084439637 -0.23496018863747606
1958237 -0.8993227359111514 -0.23703790604739322
1963140 -0.9006102924070506 -0.2354025828039203
1968043 -0.8991030587340458 -0.24019234362383676
1972946 -0.9023293236069827 -0.23191073209664173
1977849 -0.9084038528194258 -0.23287951621357456
1982752 -0.9018624464407153 -0.23378920514237414
1987655 -0.9032958972722872 -0.23147536869366475
1992558 -0.9062379888273809 -0.23034860312904515
1997461 -0.9080699550778478 -0.23151871192909992
2002364 -0.908303725046594 -0.23145179227924811
2007267 -0.9030967134886169 -0.22776154740875262
2012170 -0.9111874501048115 -0.23217001887316444
2017073 -0.9058062700655453 -0.23064197986208856
2021976 -0.9077348516258013 -0.22747727728649247
2026879 -0.9121814134765167 -0.22970122477671495
2031782 -0.9083221113547169 -0.22110091913227797
2036685 -0.913966337965405 -0.22481094659354717
2041588 -0.908615479322769 -0.22252999102367813
2046491 -0.9113234761721315 -0.22312186274197449
2051394 -0.9083187902831423 -0.21961375889616067
2056297 -0.9122656080969008 -0.2216599329672373
2061200 -0.9071326335456215 -0.22043693514122006
2066103 -0.9095114735647347 -0.21470952205938124
2071006 -0.9105988111676446 -0.2179399879829464
2075909 -0.9143536652517016 -0.21525006256171705
2080812 -0.9071817161683859 -0.21868899662347108
2085715 -0.9187354065473311 -0.21857923175021637
2090618 -0.9156366694270384 -0.21824630587887797
2095521 -0.9094840689747753 -0.21558345760211414
2100424 -0.9086292123056626 -0.21390234559653865
