# HZ S RI R 50
100000 0.5381452378704983 -0.7199918029045191
104903 0.5112826056661246 -0.7360806167467103
109806 0.4839373546154029 -0.7514733116820735
114709 0.45439276107533166 -0.7665328752080006
119612 0.42391054763261315 -0.7794675504080699
124515 0.4014098454970785 -0.7893967952817711
129418 0.374694898553283 -0.8024943738960214
134321 0.34885792946091926 -0.8106824263706967
139224 0.32359461885549706 -0.8206203720311557
144127 0.29678441225396673 -0.8279742596772108
149030 0.2714130451613234 -0.836174281572034
153933 0.2473308909232715 -0.8405132323702943
158836 0.22632632404306435 -0.8466388638552627
163739 0.20224098731503518 -0.8526192681095915
168642 0.18059072271045187 -0.8529555253138873
173545 0.15571223500592024 -0.8599254168179983
178448 0.13465028615121993 -0.861117237886176
183351 0.1137513647041597 -0.8616734950789429
188254 0.09083054542495438 -0.8639656274748021
193157 0.06681767640921227 -0.8645638194423011
198060 0.051229740841637415 -0.8649568412635614
202963 0.02856192633094733 -0.8661278905828368
207866 0.011333624177544663 -0.8654474385086072
212769 -0.006866529784540029 -0.8607849622836725
217672 -0.021105785857463453 -0.8590068628476698
222575 -0.03741078134511516 -0.8633269509067648
227478 -0.0537548100075413 -0.8644074999513336
232381 -0.07164682208913081 -0.8635773394754341
237284 -0.08972677307113584 -0.8601014654433972
242187 -0.10727688023662282 -0.8619930575147091
247090 -0.1222826030040136 -0.8559587800654642
251993 -0.13720583905430392 -0.8584574306538161
256896 -0.1521273724948075 -0.8538067900407698
261799 -0.16857117334673447 -0.8519809569634709
266702 -0.18358782998022358 -0.8503196724997324
271605 -0.19844758060043677 -0.8433349984642613
276508 -0.21112391082334817 -0.8421207317559508
281411 -0.22531504383689568 -0.8397780139119191
286314 -0.23856480449215267 -0.8355612225442421
291217 -0.24893521892514336 -0.8332624348352126
296120 -0.2611956223724351 -0.829589084012191
301023 -0.2729606318718927 -0.8250307829902293
305926 -0.2872673949601194 -0.820583975798173
310829 -0.29595013233157536 -0.8201868935497556
315732 -0.30891375077030525 -0.8163482785381159
320635 -0.31890260053701575 -0.8131909385369952
325538 -0.3285850759949066 -0.8034969432258656
330441 -0.34070783887932937 -0.8034687467708641
335344 -0.35281575380632946 -0.7988566420781459
340247 -0.36193575129670896 -0.7960168104573774
345150 -0.36953708536940183 -0.7915991010941051
350053 -0.3828783486551104 -0.7875988512236299
354956 -0.3874626728370575 -0.7837596535004798
359859 -0.4000429078606938 -0.7809700906694492
364762 -0.40574606580981043 -0.7737442257581572
369665 -0.4150021276383783 -0.7700640751880109
374568 -0.4223910950940541 -0.7675915344369294
379471 -0.4359207817756585 -0.7622493015764169
384374 -0.4402616504540549 -0.7631811993438923
389277 -0.44866675957789065 -0.7561732283099504
394180 -0.4567710078471231 -0.7512987367634436
399083 -0.46382915831609123 -0.7463419827984674
403986 -0.4715621815311526 -0.7429180531789925
408889 -0.4782208026122535 -0.7424225185071982
413792 -0.48604152951174856 -0.7332552923776217
418695 -0.49207710912463726 -0.729044060711354
423598 -0.500031091388327 -0.7261325491759874
428501 -0.5067004900438424 -0.7215180354500266
433404 -0.5121849283744572 -0.7200486213349775
438307 -0.5193671643425352 -0.712624533350076
443210 -0.5254781985396667 -0.7125069230933194
448113 -0.5292692548471264 -0.7067982645382668
453016 -0.5357268763692478 -0.704318682575241
457919 -0.5413607546873489 -0.6968657697246725
462822 -0.5490259028784674 -0.69339583094629
467725 -0.5522243677647284 -0.6908078425298257
472628 -0.561671412407343 -0.6872452474825956
477531 -0.564781384882305 -0.6830086982096014
482434 -0.5689672462069892 -0.6779697768413702
487337 -0.5735845853109289 -0.679509068696487
492240 -0.578866604000067 -0.6723697506798901
497143 -0.5852074822009268 -0.6707787137000392
502046 -0.5878003583335697 -0.6653767309692878
506949 -0.5923871805318228 -0.6631800187655652
511852 -0.5955036910310909 -0.6603666522206179
516755 -0.6032520436881577 -0.6555919889029543
521658 -0.6081456930411134 -0.6540788141379933
526561 -0.6110763858229107 -0.6489398788258574
531464 -0.6147885407706164 -0.644310638707216
536367 -0.6216961991730191 -0.6419466213282057
541270 -0.6232201508089927 -0.6375052232688438
546173 -0.6282807025106867 -0.6373558207900943
551076 -0.6317325206959635 -0.6334354751821846
555979 -0.6367547012812345 -0.6282501606195074
560882 -0.6357340315766886 -0.6266484174216296
565785 -0.6425094646593248 -0.6193372440412878
570688 -0.6498923212562782 -0.6162486078966692
575591 -0.652930859370301 -0.6150452101611067
580494 -0.6522531575595619 -0.6091639993167796
585397 -0.6555568707906712 -0.6063648681159214
590300 -0.6608325831471141 -0.6064316688769119
595203 -0.6652871171012976 -0.6048628439675217
600106 -0.6670106705250527 -0.5977408889707466
605009 -0.6734977895701258 -0.5979126421800666
609912 -0.6754814980692292 -0.5956076343696964
614815 -0.6776714596404345 -0.5912231945520949
619718 -0.6816133293213393 -0.5884571066072433
624621 -0.6847943421581307 -0.5868090229427227
629524 -0.6877823242044904 -0.5830188063764153
634427 -0.691469239436073 -0.5812628488449874
639330 -0.6938675952642454 -0.5775759978800328
644233 -0.697488352074689 -0.5710836155686793
649136 -0.6981449106240257 -0.5728343377376683
654039 -0.7017509493256897 -0.5678907646563053
658942 -0.7093358576651406 -0.565154705975194
663845 -0.7085194804427529 -0.5640122341005882
668748 -0.7121070928483347 -0.5590299237727979
673651 -0.7100182148188862 -0.5561922725665515
678554 -0.7140300059805682 -0.5538112262730744
683457 -0.7168031677909629 -0.5546468001044116
688360 -0.7186462221877118 -0.5475075015397566
693263 -0.725683088687843 -0.5455592470392583
698166 -0.7285551542492121 -0.543405374721946
703069 -0.7280622012774953 -0.5411692460838498
707972 -0.7311811307011867 -0.5419841929624787
712875 -0.733145531401994 -0.5365537796476119
717778 -0.7352845706883118 -0.5323470808421527
722681 -0.7364569559779439 -0.5293457531655483
727584 -0.7375532034942996 -0.5256698202465014
732487 -0.7416297571412618 -0.5262611880337678
737390 -0.744335267211685 -0.5237268368025901
742293 -0.745807745647034 -0.51944399853898
747196 -0.7505039739271814 -0.5183025592898364
752099 -0.7511838818809867 -0.5162986505327142
757002 -0.7530940878415138 -0.5123318232086155
761905 -0.755056085007526 -0.5110871262166028
766808 -0.7536804040491184 -0.5104540559926969
771711 -0.7565892647411631 -0.5064236933537457
776614 -0.7613816937747553 -0.5046252441031286
781517 -0.7617386286543482 -0.5044045719788088
786420 -0.764139989518957 -0.5006522146457243
791323 -0.7666407850903827 -0.4980810604817846
796226 -0.7681057643344859 -0.49753035912894455
801129 -0.7703086526729399 -0.49085534573074835
806032 -0.7682760539935929 -0.49033285746322697
810935 -0.774163233311478 -0.49057604147485173
815838 -0.7756055453415984 -0.48945873061303025
820741 -0.7731141773612642 -0.4858090010396276
825644 -0.7764456553761782 -0.4814313740925655
830547 -0.7812878590101193 -0.4827741743367962
835450 -0.7843778365711696 -0.476407139622703
840353 -0.7788127584483917 -0.4779634247799854
845256 -0.7814763423439176 -0.47178848306214044
850159 -0.7878355904566441 -0.4733567983458587
855062 -0.7855590571733674 -0.4696089595505813
859965 -0.7864613896732879 -0.4701028261438803
864868 -0.7885585292577393 -0.4668514923079408
869771 -0.7920188253935513 -0.4682510613384542
874674 -0.7890431930023569 -0.46463548965047824
879577 -0.7915395382148934 -0.4609227903885826
884480 -0.7934385856542858 -0.459068017278139
889383 -0.7952457975170723 -0.45526392413539074
894286 -0.79777853885609 -0.45626020650837396
899189 -0.8000334974185386 -0.4514734932831614
904092 -0.8018071796229869 -0.4525951608061677
908995 -0.8025827248372291 -0.4472531668697536
913898 -0.804282677232987 -0.4493997544962459
918801 -0.8030662291668035 -0.4459819748581001
923704 -0.8035642277709709 -0.44288948278283335
928607 -0.807749825304857 -0.44302028515933023
933510 -0.8063500175869867 -0.4435803929652924
938413 -0.8082004301592906 -0.4382670581623605
943316 -0.8087812000905954 -0.4348819910014129
948219 -0.8127745331288412 -0.438182356971162
953122 -0.813341968385798 -0.43287162606224516
958025 -0.8099796211504273 -0.4308363334816021
962928 -0.8157617808799401 -0.4284295078448573
967831 -0.8166625092342237 -0.4306551666970807
972734 -0.8157723688236835 -0.4262890044436657
977637 -0.8184579305417308 -0.42491580191424816
982540 -0.8178962406060527 -0.4241548418323516
987443 -0.8237145939683478 -0.4208984777935136
992346 -0.8224750305067524 -0.4196271307722592
997249 -0.821652563339214 -0.4191009108997773
1002152 -0.8229795558616694 -0.41601653303540664
1007055 -0.8213302942300008 -0.415999445819736
1011958 -0.8269336949947776 -0.41436963476616834
1016861 -0.8274103814966636 -0.4118670809916037
1021764 -0.8270956432139619 -0.4111754118148201
1026667 -0.827554988480683 -0.4089407987075021
1031570 -0.8314223817008581 -0.40685439516106997
1036473 -0.828984430339105 -0.4094164076755649
1041376 -0.8328879997231692 -0.4067006421756914
1046279 -0.8313428864791458 -0.40238924698855316
1051182 -0.8327300712207601 -0.4010005399634451
1056085 -0.8349074659803531 -0.40028415392860905
1060988 -0.83262869897944 -0.40192963589518793
1065891 -0.8386820576726196 -0.39607310120475464
1070794 -0.836049047802426 -0.3970152973770559
1075697 -0.8381124562025805 -0.3965945411413814
1080600 -0.8402016604686658 -0.39348586575809547
1085503 -0.8359375094934747 -0.3925982378897987
1090406 -0.8410952333506951 -0.3880331203821567
1095309 -0.8421848710004874 -0.38980883948962947
1100212 -0.842268753727624 -0.3914236572030673
1105115 -0.8433124902860036 -0.38701424198958695
1110018 -0.8445150736343591 -0.3882017747927555
1114921 -0.843987268052385 -0.38293504849159365
1119824 -0.8442069960357202 -0.3864643767947649
1124727 -0.8462371071132836 -0.3816511254847304
1129630 -0.8462128786758925 -0.37661777091251925
1134533 -0.8503038764112935 -0.3786702232770196
1139436 -0.8481997443335098 -0.3789272166249999
1144339 -0.8466659590700812 -0.3766308964521436
1149242 -0.8508086984936095 -0.3742048240259347
1154145 -0.8538273233764994 -0.3734409290110361
1159048 -0.8503273272838925 -0.3757931095789549
1163951 -0.8513745874657699 -0.3726806749497513
1168854 -0.8513121779968017 -0.37204600357490186
1173757 -0.8530806117916014 -0.3671074115954341
1178660 -0.8554399964755746 -0.36766118328895525
1183563 -0.8537303879035449 -0.36633765790524275
1188466 -0.8536045182084699 -0.36587388025572826
1193369 -0.8574667239896587 -0.36693796571749454
1198272 -0.8579596863262331 -0.36289999047745425
1203175 -0.8573688557997154 -0.36261319737204506
1208078 -0.8574518373284159 -0.35862384841800654
1212981 -0.8592071601955636 -0.35931847497315716
1217884 -0.856096321861794 -0.3608154597688594
1222787 -0.8616564385076902 -0.356185134121371
1227690 -0.8608726793881497 -0.3560562306093711
1232593 -0.8593987245652134 -0.35616685604558973
1237496 -0.8607061080744108 -0.356805608521432
1242399 -0.8627132272236933 -0.35339271946474904
1247302 -0.8621007548637171 -0.3542543936340367
1252205 -0.8643009142530166 -0.34972185572887804
1257108 -0.8669005744852585 -0.34792951373872194
1262011 -0.8643355383136867 -0.3509734683531893
1266914 -0.8639165687900348 -0.3461360105648364
1271817 -0.8664320891911517 -0.3483367258502427
1276720 -0.8660164952702102 -0.3464140914120412
1281623 -0.8675555063768161 -0.34504974986910986
1286526 -0.8662597311071843 -0.3418423455067505
1291429 -0.8710026725641027 -0.3409717559955559
1296332 -0.8689779779163537 -0.3381951937367537
1301235 -0.8694926948752383 -0.3361509032779955
1306138 -0.871020406002112 -0.342735440511802
1311041 -0.8706494385470127 -0.33634209846726476
1315944 -0.8673050101399201 -0.3359835890163392
1320847 -0.8704945846249802 -0.3359975486599231
1325750 -0.8715292413655203 -0.3363858801651617
1330653 -0.8690616598270567 -0.3341315790951285
1335556 -0.875263725782501 -0.33245371384825384
1340459 -0.8743975618660256 -0.33305107183244437
1345362 -0.8737284866770109 -0.32909187669940404
1350265 -0.8734876993469605 -0.32944237990162284
1355168 -0.8755209569686129 -0.3262720819957235
1360071 -0.8802424081453598 -0.3278908542056284
1364974 -0.8768780862781931 -0.32483624151276186
1369877 -0.8750415948409521 -0.3282950681062376
1374780 -0.8789695150512103 -0.32752969184692426
1379683 -0.8786395635457447 -0.3262195358154923
1384586 -0.8783094542644565 -0.3227674233830032
1389489 -0.8789675901190445 -0.3207932440880769
1394392 -0.8783030166281458 -0.3206840700994385
1399295 -0.8780630146783395 -0.32340466289843955
1404198 -0.88040654017079 -0.3195440274073281
1409101 -0.882289204628135 -0.31730606053100435
1414004 -0.8816946116040032 -0.3177302438447698
1418907 -0.8800450318887315 -0.3184800850444507
1423810 -0.8803044348041488 -0.31737338022066064
1428713 -0.8843930988040187 -0.31493380924628356
1433616 -0.8828165350029714 -0.31622348254702976
1438519 -0.8801198039880196 -0.31528564587788055
1443422 -0.8856651291659805 -0.31384760867560435
1448325 -0.883419014353137 -0.3099126554427
1453228 -0.8817939745775066 -0.31225590456472974
1458131 -0.8832465806805153 -0.3087012808743008
1463034 -0.8844507461991851 -0.3099060698034016
1467937 -0.8851906286561183 -0.3093928584974795
1472840 -0.8839145735090406 -0.3091809140904904
1477743 -0.8843436899508117 -0.30580013642457343
1482646 -0.884952162812058 -0.3055784859430625
1487549 -0.8873994511627062 -0.30675488161542164
1492452 -0.8839812742570756 -0.3007953870380928
1497355 -0.8891585838418883 -0.301721234940636
1502258 -0.8879222289605115 -0.3027216132192329
1507161 -0.8890981951035433 -0.3003306491378365
1512064 -0.8894448042827027 -0.30217858189710106
1516967 -0.8880601965351548 -0.2990452021447325
1521870 -0.8849456927884463 -0.30171963069767327
1526773 -0.8895280876608255 -0.2968220700230342
1531676 -0.8859471688776435 -0.29718026009556203
1536579 -0.8892052710899446 -0.2982791188061793
1541482 -0.8929703484734599 -0.298446057470655
1546385 -0.8901812325421798 -0.2964054540487153
1551288 -0.8935345088800105 -0.29414063248510297
1556191 -0.8921133083414786 -0.29330798164470007
1561094 -0.8943397431024466 -0.29464031468383567
1565997 -0.8895407581443944 -0.289255718773583
1570900 -0.8957861888319246 -0.2902864856790213
1575803 -0.8907085887145058 -0.2951392584006772
1580706 -0.8902202233182496 -0.29409790989614054
1585609 -0.8959986175174423 -0.2892797452854896
1590512 -0.8899316376233039 -0.28837455765608255
1595415 -0.8986430976275144 -0.29506220601869115
1600318 -0.8915941275970145 -0.28819065907175123
1605221 -0.8957817737832464 -0.286351612842846
1610124 -0.8943253074925683 -0.28646730223230815
1615027 -0.8961999534677567 -0.28497709004186694
1619930 -0.8925462503194659 -0.2851453624317948
1624833 -0.8972674018337575 -0.2845730729933464
1629736 -0.8972265531800311 -0.28414433885353774
1634639 -0.8953680898963898 -0.27872072261363745
1639542 -0.898057794555445 -0.2817014255599097
1644445 -0.8967216413608071 -0.28381652893805065
1649348 -0.8980675637756057 -0.2798083756381883
1654251 -0.8995352182841325 -0.2813397041802941
1659154 -0.8972223191303644 -0.2783991314950912
1664057 -0.8988270618312119 -0.2775268123221428
1668960 -0.9019165944973517 -0.27870066329992266
1673863 -0.9018073717565888 -0.28000601987107543
1678766 -0.8964521330839448 -0.27668640734697825
1683669 -0.9021406608782033 -0.2758689585957652
1688572 -0.9000695596821345 -0.27586713575686456
1693475 -0.9024331217413759 -0.27351380508094625
1698378 -0.9016877787253579 -0.27255026591038833
1703281 -0.9002051130742865 -0.27104078023854694
1708184 -0.8958927787967097 -0.27308848002938607
1713087 -0.901368900320697 -0.2723365482854175
1717990 -0.9039335315199534 -0.27182286863118804
1722893 -0.9022718076290943 -0.26956697557370507
1727796 -0.9004991165509822 -0.2693058743857584
1732699 -0.9014147271213738 -0.27040396928683197
1737602 -0.9027052726667225 -0.27024248421725805
1742505 -0.9011055088481074 -0.2706052331069598
1747408 -0.9020476677114713 -0.265746503850709
1752311 -0.9008861570321399 -0.26736916886525386
1757214 -0.907440666638971 -0.267449807035374
1762117 -0.9007877811728557 -0.26562470733548965
1767020 -0.9040601524659864 -0.26562286730497287
1771923 -0.902760529632584 -0.26333466971904573
1776826 -0.9029903340421671 -0.2675927976272082
1781729 -0.9085301709838425 -0.2618333013894268
1786632 -0.9044093484173261 -0.26151877155832814
1791535 -0.905880996565828 -0.2648151915262419
1796438 -0.9048466262034879 -0.2653205850925222
1801341 -0.9063242220202591 -0.2646590289921494
1806244 -0.9048799504344255 -0.261059547349651
1811147 -0.9070910135473897 -0.25666038987139245
1816050 -0.9101012504229159 -0.2583202751842263
1820953 -0.9096809269037883 -0.2610723573769055
1825856 -0.9078569127947784 -0.25617146397207524
1830759 -0.9123100557475782 -0.2618921949822201
1835662 -0.903773789678132 -0.2528894990961872
1840565 -0.9077124927540807 -0.2567706416675757
1845468 -0.9100543315062342 -0.25548370185827296
1850371 -0.9115258330455466 -0.2555510435898648
1855274 -0.9073726137003596 -0.25786584862889267
1860177 -0.9072458058800342 -0.25370613226395844
1865080 -0.905985655783651 -0.2525218152866265
1869983 -0.9075222605235945 -0.25760291123388
1874886 -0.9082933775293419 -0.25342022387110097
1879789 -0.9124381559555357 -0.25280446784734417
1884692 -0.9070810315752914 -0.2548608521637589
1889595 -0.9118065781116841 -0.25046191621382724
1894498 -0.9088106910126811 -0.2482131942430182
1899401 -0.9119698884638588 -0.2536408619507539
1904304 -0.909976692404076 -0.24868605770661653
1909207 -0.9121961882589308 -0.24974411811327116
1914110 -0.9089843870579617 -0.2518488395710646
1919013 -0.9171684669383865 -0.24733627993277701
1923916 -0.9088089066822758 -0.24671408120462068
1928819 -0.9122643227375659 -0.24814871449353346
1933722 -0.910258351866765 -0.2449569718121951
1938625 -0.9105442985477251 -0.2507685043607074
1943528 -0.912440962070814 -0.24548948585869507
1948431 -0.9091526993267205 -0.24817470187741497
1953334 -0.9124114734970461 -0.24393668204801255
1958237 -0.9117820009503667 -0.24609559620367116
1963140 -0.9134861233894789 -0.24982321349631043
1968043 -0.9123676551455367 -0.24688485545356872
1972946 -0.9116095983530427 -0.2449607696412315
1977849 -0.9129459509201137 -0.24398724622174492
1982752 -0.9097264510971007 -0.24260868199091062
1987655 -0.9153969124392898 -0.2377406829126855
1992558 -0.913989285038753 -0.24255198707171283
1997461 -0.915399734964076 -0.24092816310327325
2002364 -0.9135248274148122 -0.24222800278171536
2007267 -0.9110481208659507 -0.24075292185539224
2012170 -0.9157291779775717 -0.23749416541787938
2017073 -0.9115454930215533 -0.23976554797261
2021976 -0.9137181477297204 -0.24089748049426285
2026879 -0.9131428357871724 -0.24021667288844173
2031782 -0.9177651841472524 -0.23656173916483483
2036685 -0.9171857610254491 -0.2362014062030878
2041588 -0.9134364084194854 -0.2348633985615296
2046491 -0.9173583722218813 -0.23644907918490263
2051394 -0.9144325104967631 -0.2359019933711926
2056297 -0.9161825822075395 -0.23670935723774078
2061200 -0.9121852550961684 -0.23457182100188187
2066103 -0.9210216014397352 -0.23120183174717446
2071006 -0.9147653196133847 -0.23436632094537174
2075909 -0.917746018232413 -0.2347513627934561
2080812 -0.9113536217362624 -0.23258248678185267
2085715 -0.9197327027874159 -0.23674890335716686
2090618 -0.9187454559096356 -0.2386554811014268
2095521 -0.9126350567104969 -0.23334888146048802
2100424 -0.9202850744459672 -0.2310334786783479
2105327 -0.9139963136427093 -0.23238410936614437
