# HZ S RI R 50
100000 0.5356593346098947 -0.7208103975794939
104903 0.508991820605887 -0.7367680404494115
109806 0.4812918437814518 -0.7518671655611258
114709 0.45008793965531935 -0.7676922984969697
119612 0.4219977228511085 -0.7793349062004103
124515 0.39809765777935696 -0.7912408621431949
129418 0.3712296711051822 -0.8031926601330407
134321 0.3452531644903188 -0.8105824096746113
139224 0.3197228882512997 -0.8212254776261098
144127 0.2950951045169275 -0.8297953619140594
149030 0.266323759356941 -0.8342829468560115
153933 0.24075380611414637 -0.8396826857102154
158836 0.21998842262628618 -0.8460042605838912
163739 0.19396335439664508 -0.8505575158754832
168642 0.1702361244640861 -0.8506121512651208
173545 0.14836760569878643 -0.8554136997684086
178448 0.12654910081146245 -0.856746930513842
183351 0.10223485289678962 -0.8565043189062327
188254 0.08068240618641336 -0.8554917688617787
193157 0.058701482539157454 -0.8567565678619663
198060 0.0385659557842619 -0.854067534609047
202963 0.018767505356309295 -0.8501729398731401
207866 0.0024375135907319366 -0.8427279465494517
212769 -0.010019017649702122 -0.8336000745541011
217672 -0.015549600167306013 -0.8306778268714191
222575 -0.020098105239414167 -0.8412011598101511
227478 -0.03502543787187804 -0.8505775113139566
232381 -0.055949959360630665 -0.8565278174121053
237284 -0.07575143730721998 -0.8583472191242629
242187 -0.09394842925441137 -0.8576576130540173
247090 -0.11151695251863364 -0.8540322716736987
251993 -0.12529545364495068 -0.8557217490408565
256896 -0.14306736926956792 -0.8529952914671226
261799 -0.16045779633658194 -0.8514445756376575
266702 -0.1761565187510011 -0.849279729699595
271605 -0.19283651809321853 -0.8450618301880803
276508 -0.20514861334964446 -0.8421606915941996
281411 -0.2201176750013326 -0.8402411725456914
286314 -0.23259852279641668 -0.8371365826585901
291217 -0.24298015944840848 -0.8335799207924376
296120 -0.2588005785806386 -0.830982080555203
301023 -0.26993262966650794 -0.8254686069385689
305926 -0.28448215601017274 -0.8213775708660156
310829 -0.2898094708909763 -0.8187593977510044
315732 -0.3044081253194009 -0.8154711371357153
320635 -0.3151384545011791 -0.8127167497648947
325538 -0.32431886539466415 -0.8045586948741306
330441 -0.33545337174481377 -0.8049199216531117
335344 -0.3467029723254402 -0.7981462926487283
340247 -0.35863774367601503 -0.7981694856417035
345150 -0.36583997106286975 -0.7933228883795284
350053 -0.3786212850417163 -0.790111430514332
354956 -0.38707684905199036 -0.783980817827494
359859 -0.3958752360809419 -0.778519426429711
364762 -0.4032026857876795 -0.7780484642606013
369665 -0.41303998660156355 -0.7705809767455716
374568 -0.42067755430509235 -0.7692368339058042
379471 -0.4317542841521057 -0.7625041212152973
384374 -0.4395919363108448 -0.7644647149385055
389277 -0.4443441327404291 -0.7547284090691246
394180 -0.4556216966930514 -0.7520459920900746
399083 -0.4620437339341893 -0.7486398449632247
403986 -0.4696765062259029 -0.7421894017003778
408889 -0.47413913446914396 -0.7421780846624397
413792 -0.4826570229269708 -0.73279832302551
418695 -0.4903423698131736 -0.7313578358984008
423598 -0.49932588164010006 -0.7266423255007913
428501 -0.506688199868333 -0.7223177150083041
433404 -0.5101590349562314 -0.7187977487863505
438307 -0.5214878482460847 -0.7128590999963172
443210 -0.5210485114683506 -0.7141768902922817
448113 -0.5280455623088707 -0.7081167208919552
453016 -0.5358096106618233 -0.7048196176356917
457919 -0.5418154685259892 -0.7002146817930748
462822 -0.5466745295982752 -0.6954967719846107
467725 -0.5515836880404247 -0.6896453858060687
472628 -0.5587944105911645 -0.689760138630341
477531 -0.563547966469625 -0.6829698005259782
482434 -0.5669280151958183 -0.6779495610375034
487337 -0.5711282177192805 -0.676165484259593
492240 -0.5795256088620874 -0.6724115723529206
497143 -0.5834222772683348 -0.6702780402478807
502046 -0.5867797960247954 -0.6636515995942623
506949 -0.590507409173698 -0.6630351459029894
511852 -0.5927477336704488 -0.6606920702935949
516755 -0.6017539459101059 -0.6555056034442808
521658 -0.6078307849919187 -0.6546874392532848
526561 -0.6098220185678743 -0.6484913790265442
531464 -0.6146500589434686 -0.6452522813705163
536367 -0.6207650176966503 -0.6408419720418748
541270 -0.6235151030754166 -0.6356508742034656
546173 -0.6272038699584819 -0.636416755370813
551076 -0.6318584094983952 -0.6296350883460393
555979 -0.6364351581088972 -0.6267232553566372
560882 -0.6375991882488603 -0.6238488630112237
565785 -0.6443344928851693 -0.6185537216843299
570688 -0.6482590992792344 -0.6134401972463746
575591 -0.6516006944605364 -0.611749605533209
580494 -0.6486909485444037 -0.6068730763285255
585397 -0.6494992309136266 -0.6023811332449656
590300 -0.653235927057022 -0.6033116796162682
595203 -0.6590983662436787 -0.6001342350586183
600106 -0.660147401270719 -0.6031868278278149
605009 -0.6661394854288879 -0.5984785446664507
609912 -0.6677487625456573 -0.5947277482804202
614815 -0.6749298669578246 -0.5941798998222599
619718 -0.6764429217440966 -0.5905906929679727
624621 -0.6791496766385416 -0.5870403460272415
629524 -0.6851356279616464 -0.5846447804410362
634427 -0.6871567733783884 -0.5841119735484798
639330 -0.6909072252653697 -0.5794468616285429
644233 -0.6969852818251061 -0.5760088070513342
649136 -0.6973236258235184 -0.5737691304612137
654039 -0.6990295069638416 -0.5688879849167036
658942 -0.7063004356122208 -0.5670848240298875
663845 -0.7062063679481 -0.5649253264567116
668748 -0.7116549627266843 -0.5620346607741757
673651 -0.7090696170609071 -0.5588693007657766
678554 -0.7124012401640191 -0.5538257856802342
683457 -0.716414976635936 -0.5559349536465642
688360 -0.7182832603852013 -0.5491515643488124
693263 -0.7256315445233279 -0.5471123123747481
698166 -0.7247449733808359 -0.5449020680141914
703069 -0.7260813584301742 -0.5411832634969586
707972 -0.7311018174860395 -0.5395325946541119
712875 -0.7311663391821128 -0.5353047714264222
717778 -0.7377835618487945 -0.5329042639367473
722681 -0.735282130126911 -0.5310226570175053
727584 -0.7389819424980428 -0.5285186963763499
732487 -0.7404082611186851 -0.5266394556812568
737390 -0.7419719445303834 -0.5226201650303995
742293 -0.7486833099397892 -0.5234195690158715
747196 -0.7496661891246584 -0.5171050797531119
752099 -0.7509902081574577 -0.5172467279925343
757002 -0.7502763193203877 -0.5121587498407825
761905 -0.7554845330412744 -0.511179507190346
766808 -0.7550187749163293 -0.5126298328858092
771711 -0.7565285676837318 -0.5070235309625006
776614 -0.7607346394671791 -0.5051732873702617
781517 -0.7607432127540745 -0.501826889312836
786420 -0.765423650810742 -0.4975061033855789
791323 -0.7701529543590189 -0.4995229596542612
796226 -0.7676780771268795 -0.4947963589867114
801129 -0.7700370756093078 -0.49672279688640814
806032 -0.7708831827990724 -0.4911376362498775
810935 -0.7750379690550702 -0.48596126447125165
815838 -0.772106429584558 -0.4905883879589218
820741 -0.7738756553464458 -0.4871310964065929
825644 -0.7783494729948343 -0.48315029560091943
830547 -0.7772350056253708 -0.4816880236617915
835450 -0.7828067605221103 -0.47673927976719604
840353 -0.7774334389048372 -0.4767613532146481
845256 -0.7829588168930816 -0.4733724152915412
850159 -0.7843896740870767 -0.4735808637821803
855062 -0.7864229611898074 -0.46837510401168914
859965 -0.7890730029528967 -0.4682741465455534
864868 -0.7886689403679317 -0.46633359384615863
869771 -0.7894682292682224 -0.4679136586528408
874674 -0.7929009879946689 -0.46346449108385845
879577 -0.7917297666990629 -0.463046646732241
884480 -0.7925758176991465 -0.4581965998899209
889383 -0.7964150330328236 -0.4554152134054894
894286 -0.7979552252521048 -0.45481864234923347
899189 -0.7992391359823394 -0.4520324977101361
904092 -0.800515283632545 -0.44927909721109055
908995 -0.7998137651290043 -0.4484269980052921
913898 -0.8054756834101197 -0.45007678686189756
918801 -0.8043332350115173 -0.4446897893835784
923704 -0.8020816198823657 -0.4420275049908201
928607 -0.807960161662687 -0.44249224409839716
933510 -0.8056898655969995 -0.4438250707270655
938413 -0.8093167968119379 -0.4335571102387719
943316 -0.8107137770420509 -0.43474279443067143
948219 -0.8116938968146284 -0.43673183611190314
953122 -0.8127383262009046 -0.4338187308178504
958025 -0.8085967528344248 -0.4320443620511103
962928 -0.813917931915269 -0.4273529270807904
967831 -0.8137132484168083 -0.43052730628852776
972734 -0.8156167222650388 -0.4244648885414075
977637 -0.8142913466700454 -0.4272714177597636
982540 -0.8162704127134748 -0.42138955326319943
987443 -0.8194652212168329 -0.4243059536970348
992346 -0.8207326693250445 -0.4174057124325474
997249 -0.8213685189196575 -0.42168870028487093
1002152 -0.8198780668078842 -0.4181588216353502
1007055 -0.8227068919577674 -0.41784268444827705
1011958 -0.8253474437696714 -0.4137243066908318
1016861 -0.828065414299317 -0.41305108477480473
1021764 -0.8292774189999629 -0.41197462628454024
1026667 -0.8254335733798335 -0.41012497659602454
1031570 -0.8307031842967815 -0.40958664779898335
1036473 -0.8281764434342236 -0.4089826941942528
1041376 -0.8357219321592891 -0.406092746782627
1046279 -0.8302724347146578 -0.40386900303094553
1051182 -0.8324167661899247 -0.4005127530855689
1056085 -0.8372009952124072 -0.4035171769829805
1060988 -0.833083525862201 -0.40428653898332
1065891 -0.8399424966502719 -0.39834257357656105
1070794 -0.8368917672453482 -0.396831270144422
1075697 -0.8376048787160688 -0.3960158961440267
1080600 -0.8376843756828584 -0.3919698329097701
1085503 -0.8392190935000067 -0.3905178923356156
1090406 -0.8429785066521095 -0.38781237507105365
1095309 -0.8412505197872935 -0.3892491249999088
1100212 -0.843764096189277 -0.391725337755298
1105115 -0.84423260471748 -0.38612372755644586
1110018 -0.8438517707630142 -0.3869751624587454
1114921 -0.8431003192929359 -0.38231139442065076
1119824 -0.8450547337904161 -0.3867068749917442
1124727 -0.8491600832836209 -0.3823778240662776
1129630 -0.8474695593808338 -0.3764667148342292
1134533 -0.849959424296815 -0.37845725203613995
1139436 -0.8497655112197313 -0.3799809037566546
1144339 -0.8474415603663984 -0.3768570596930325
1149242 -0.8481565180192329 -0.3745643377998441
1154145 -0.8526416617560729 -0.37372013279109756
1159048 -0.8526299188170973 -0.3765759744818261
1163951 -0.853958356658294 -0.368878223589427
1168854 -0.8489657922291284 -0.37406582312898323
1173757 -0.8552214429449781 -0.36850346301417125
1178660 -0.8572802672363998 -0.3692035748443258
1183563 -0.8520997790140598 -0.3639616414071227
1188466 -0.8518673204473193 -0.36358559136887075
1193369 -0.8567682160953035 -0.3658507710316058
1198272 -0.856906725332468 -0.3624578029660802
1203175 -0.8595976135562784 -0.35952381134670236
1208078 -0.8563722360944875 -0.358532819810069
1212981 -0.857731555855183 -0.358611776766597
1217884 -0.8587358802400601 -0.357861824068449
1222787 -0.8617115572886525 -0.3533796974596934
1227690 -0.8624223346419894 -0.35590945558685644
1232593 -0.8589009512363326 -0.35452785888741223
1237496 -0.8620407838858489 -0.3551224446186366
1242399 -0.8630406087354964 -0.34978918048896024
1247302 -0.8649120069718681 -0.35194292729101506
1252205 -0.8637471733176586 -0.3481452261685849
1257108 -0.8682859012728548 -0.3489736615716979
1262011 -0.8660470249393748 -0.3471291830348898
1266914 -0.8673647534355627 -0.34459891766601924
1271817 -0.8637804618392511 -0.3498564572638144
1276720 -0.868176420913923 -0.34134697443398015
1281623 -0.8649776633502465 -0.3409103765825979
1286526 -0.866044739353349 -0.3397132337856525
1291429 -0.8687247484961274 -0.34174752364407973
1296332 -0.8733487874849755 -0.33613508022889976
1301235 -0.8694211799800197 -0.3369758718508269
1306138 -0.868946067450564 -0.3389329033165231
1311041 -0.8706763773166583 -0.33535932039981503
1315944 -0.8697211962205297 -0.3337893972760558
1320847 -0.8714174353636585 -0.33556273642716167
1325750 -0.8678897786467384 -0.33499832299236615
1330653 -0.8703759363474419 -0.3303568138997778
1335556 -0.8725012960906011 -0.3293035145007108
1340459 -0.8690370896854414 -0.3319037365829256
1345362 -0.8697893301612191 -0.32705997328944125
1350265 -0.87206998213862 -0.33079350296373905
1355168 -0.8713738991931947 -0.3287523350349903
1360071 -0.8763621529736848 -0.3285104186955492
1364974 -0.8764204780884389 -0.3267781957297427
1369877 -0.8754819011490574 -0.32798417952751224
1374780 -0.8771553896055616 -0.3249280318305418
1379683 -0.8797823824373826 -0.3238537166057914
1384586 -0.8739467281195459 -0.3245749036531667
1389489 -0.8771597019818955 -0.32050898810793926
1394392 -0.878903637347007 -0.3215089926434705
1399295 -0.8780334969707209 -0.3224594058277043
1404198 -0.8791879115133863 -0.3192570965877906
1409101 -0.8816762655129883 -0.3184966719157626
1414004 -0.881958395094189 -0.31925775735338674
1418907 -0.8775421325085507 -0.3175361025331934
1423810 -0.8822498305889277 -0.31656748809517055
1428713 -0.8848057390914514 -0.315346174996281
1433616 -0.8832305525978381 -0.3159534000124555
1438519 -0.8815597035869941 -0.315139762776906
1443422 -0.8845332255527284 -0.31124533148786626
1448325 -0.8841469886774898 -0.30972332799227587
1453228 -0.8818942151722402 -0.30761327357537743
1458131 -0.8836689990013487 -0.30983399466562517
1463034 -0.88594882208508 -0.30867684761062403
1467937 -0.8797442278651029 -0.30558110994566984
1472840 -0.8856993234738152 -0.30853636490433484
1477743 -0.8814712895918407 -0.30595276468143195
1482646 -0.8839459580299834 -0.30474836707502
1487549 -0.8875393311393389 -0.30187595998847444
1492452 -0.884609897334038 -0.3013253876337645
1497355 -0.8883996103385812 -0.3021076345971954
1502258 -0.8874789776481776 -0.301053484603674
1507161 -0.8863714913410111 -0.3009825459001578
1512064 -0.8892123006231477 -0.30041517062207346
1516967 -0.8895279217918343 -0.30123602050008574
1521870 -0.8866266003851665 -0.29830868018377754
1526773 -0.8897159387469507 -0.296893047458778
1531676 -0.8884312747609521 -0.29725842205542335
1536579 -0.8895339628180993 -0.29572178378477626
1541482 -0.8906696867296136 -0.2975733070623159
1546385 -0.8904996948143974 -0.29516539510960976
1551288 -0.8935612404747576 -0.29215221040374667
1556191 -0.8884069976360135 -0.2928638378023087
1561094 -0.8923715136956303 -0.2908321430070311
1565997 -0.8927248540869018 -0.2923535766456976
1570900 -0.8980904907750669 -0.29003383965187474
1575803 -0.8912941861409747 -0.29116136358488554
1580706 -0.892441605061736 -0.28908083751910424
1585609 -0.8941071591709197 -0.28631107231400316
1590512 -0.890650094585274 -0.28669076423883666
1595415 -0.8974719359063402 -0.288445886385474
1600318 -0.8927771894866058 -0.28404769973579425
1605221 -0.8948374419458914 -0.2849198764888741
1610124 -0.8950601797371958 -0.2840482020988333
1615027 -0.8961623259799393 -0.2836696016002899
1619930 -0.8941588604337463 -0.2843580699349928
1624833 -0.8934035337643018 -0.2823705542564012
1629736 -0.8939432305509796 -0.28303955218643156
1634639 -0.8974358947294705 -0.2792195561615621
1639542 -0.8957540639416819 -0.28109624446388115
1644445 -0.8977326258817967 -0.28031447079908567
1649348 -0.9036780875476107 -0.2771413685673105
1654251 -0.8979449490265582 -0.2803752652653828
1659154 -0.8940991366019063 -0.27554304170757826
1664057 -0.8980531857018723 -0.27552140541765974
1668960 -0.8994409137122562 -0.27335694659901466
1673863 -0.8950895076412942 -0.2756133981510453
1678766 -0.8990079704025614 -0.2767675030915132
1683669 -0.9019024388467816 -0.2755493183021889
1688572 -0.8970440107302229 -0.27950541248961486
1693475 -0.8990878056439163 -0.27082692128993513
1698378 -0.9032378919091784 -0.27189976312907754
1703281 -0.8960735322930788 -0.2699136802318195
1708184 -0.8956748364967797 -0.2735126423701178
1713087 -0.8989094687409679 -0.27226142403794085
1717990 -0.9017932601293424 -0.2709831960865332
1722893 -0.9004931901010809 -0.2669941838205446
1727796 -0.8996211937977415 -0.26644994442846986
1732699 -0.8972097243697368 -0.2680219374323995
1737602 -0.9039731053803657 -0.2653606399333263
1742505 -0.9048351095264525 -0.2689870909995499
1747408 -0.9051177899736512 -0.2644416049164658
1752311 -0.9014511030403582 -0.2678884244563158
1757214 -0.9071816458587464 -0.2622898974789816
1762117 -0.9020012491422674 -0.2705679314900406
1767020 -0.9001258824425858 -0.263878908873748
1771923 -0.9054349186351832 -0.26120714695602215
1776826 -0.9037594341317527 -0.2656106966388092
1781729 -0.9069371269673145 -0.25845318106777954
1786632 -0.9015588839959924 -0.259870594467143
1791535 -0.9025104443518104 -0.25985590988481977
1796438 -0.9021701392084399 -0.2643626850967883
1801341 -0.9031819460084193 -0.25844085446691273
1806244 -0.9058079321478093 -0.2573997424423026
1811147 -0.9075058219047422 -0.2534191605605803
1816050 -0.9122999407399969 -0.25566267800645365
1820953 -0.9100439721889406 -0.2592214334824476
1825856 -0.9105634186417647 -0.2595359253886509
1830759 -0.9064710143030436 -0.2587536231773248
1835662 -0.9034417721618475 -0.2552582978888221
1840565 -0.907536291876052 -0.2514182660495548
1845468 -0.9054962492355445 -0.25571565890544684
1850371 -0.9049243981765807 -0.254345847869721
1855274 -0.9098300949875066 -0.2549662892311281
1860177 -0.9075838601896187 -0.25153896726187935
1865080 -0.9082549907836229 -0.2525169912545363
1869983 -0.9053459237556658 -0.2542654842347948
1874886 -0.9077596071525798 -0.25202752565825937
1879789 -0.9087298374616317 -0.2523171677514502
1884692 -0.9089318334993269 -0.25281922940416424
1889595 -0.9083862044584732 -0.2510091367407888
1894498 -0.9047656954679589 -0.2439914571104559
1899401 -0.9088200828081162 -0.25191864973479094
1904304 -0.9055949746518233 -0.24823498394544072
1909207 -0.9123147939964312 -0.248582868452851
1914110 -0.907957608535759 -0.2452236036721648
1919013 -0.9135643840518625 -0.2428019897530293
1923916 -0.907464800458171 -0.24620520383433175
1928819 -0.9098626994884096 -0.24763090461538462
1933722 -0.9109290561152316 -0.24543138913880477
1938625 -0.9101401150538913 -0.2447508254768927
1943528 -0.9114266542330749 -0.24242723878238007
1948431 -0.9082777692368549 -0.24425073269379866
1953334 -0.9135014897218886 -0.24169261781687623
1958237 -0.9100587115479889 -0.24255957373503267
1963140 -0.9086237719295613 -0.24501671535663172
1968043 -0.9097666443845033 -0.24299655993676986
1972946 -0.9100652307664047 -0.2388084451812142
1977849 -0.9116887141810652 -0.24013291473886114
1982752 -0.9069535766340742 -0.24369914736077528
1987655 -0.9123034719052227 -0.23838287545947784
1992558 -0.9158301825961007 -0.23536476760986333
1997461 -0.9153916045712304 -0.2418649674709203
2002364 -0.9127935127566965 -0.24093812839486095
2007267 -0.909412494866802 -0.2391735813191721
2012170 -0.9136179546516437 -0.23843434627994242
2017073 -0.9094616499574395 -0.23635587721756102
2021976 -0.9132719780809163 -0.23821056374902852
2026879 -0.9125252470262748 -0.23609149010652866
2031782 -0.9150258158315507 -0.23660122188590924
2036685 -0.9129877425416302 -0.23632017484690737
2041588 -0.9107009224450503 -0.23572383769839106
2046491 -0.9164944845845308 -0.23765068448936758
2051394 -0.914786855612623 -0.2330048423872009
2056297 -0.9110774550940713 -0.2357607964609962
2061200 -0.9116153166742006 -0.2295895971481342
2066103 -0.9159914446346151 -0.23063717608878123
2071006 -0.9134836067496971 -0.22694993496124105
2075909 -0.9159845192635518 -0.23469113044147916
2080812 -0.9109026196634399 -0.23111580385791367
2085715 -0.9166448006579637 -0.23122141404674834
2090618 -0.9153467703810132 -0.23324186001878475
2095521 -0.9150569254912977 -0.22363389386498478
2100424 -0.9148707141772092 -0.2325351322721931
2105327 -0.9153115115657318 -0.22967401544283397
