# HZ S RI R 50
100000 0.5189601934180398 -0.7151723302158522
104903 0.4903720930882026 -0.7305702309207529
109806 0.46213120862806534 -0.745692530352031
114709 0.4266782376389864 -0.7625425626751643
119612 0.3977906063955409 -0.7758479252377796
124515 0.3678849712711051 -0.7846249347247822
129418 0.3330494257909719 -0.7964535392005587
134321 0.30123782135354826 -0.802340164671407
139224 0.2680156461232423 -0.8108695271768701
144127 0.22901431632264224 -0.8167410699043998
149030 0.1980481723929992 -0.8171522336442582
153933 0.16346828463841961 -0.8156738877788829
158836 0.12781723548421547 -0.8160535838749827
163739 0.08617521810450518 -0.804486010861921
168642 0.05287184595117618 -0.78564356842595
173545 0.019776487191373912 -0.7703285188742027
178448 -0.01054531325176875 -0.7488871094659648
183351 -0.04228399301663467 -0.7201888749986587
188254 -0.07038814464846697 -0.6837833433835054
193157 -0.09173457596898524 -0.6378758313074172
198060 -0.1077416771441867 -0.5796094954536354
202963 -0.09263983050658116 -0.49603774001956263
207866 -0.0315648420993921 -0.43449005315573724
212769 0.059837312187592306 -0.3867199441452264
217672 0.1813734179682197 -0.397187192192198
222575 0.28804634848124755 -0.4982803828699803
227478 0.2971854208046597 -0.6194232841359841
232381 0.25893112508276345 -0.6959735418279817
237284 0.2179910243012477 -0.7450577883481362
242187 0.1779631940618942 -0.7786774042599999
247090 0.14376102553295664 -0.7960012556445527
251993 0.11676014652352373 -0.8194160353102289
256896 0.08513527705253937 -0.8298228144466774
261799 0.05361093515440437 -0.8430835643078958
266702 0.02392945266539788 -0.849013501302685
271605 -0.00453799350318117 -0.8535547984808606
276508 -0.03069796344253944 -0.8531864336642773
281411 -0.056201854776500824 -0.856381027564256
286314 -0.07906605775164097 -0.8518574392857823
291217 -0.0961324761743654 -0.8497066052427301
296120 -0.11667921045428041 -0.8452714975810853
301023 -0.132491064426634 -0.8409535456009996
305926 -0.1471333046754154 -0.8355872950673329
310829 -0.15731869685694258 -0.8320361241056021
315732 -0.16684374067950372 -0.8332446546065687
320635 -0.1811299178514532 -0.8335026071046938
325538 -0.19217034499767907 -0.8329679480943809
330441 -0.20800690361781418 -0.8366766470706437
335344 -0.22647930620434678 -0.8368131407662366
340247 -0.23908492022525107 -0.8335807368065783
345150 -0.25234233249138677 -0.8310647290251617
350053 -0.2724045327183272 -0.8272752530060626
354956 -0.280573134879894 -0.8222712753677079
359859 -0.2961100982196171 -0.8183827853929737
364762 -0.3049665651317272 -0.8165058374510222
369665 -0.31762659191003734 -0.8086072098743291
374568 -0.32727043291635255 -0.8080539101724132
379471 -0.3430303431971935 -0.8031461278418289
384374 -0.35192934011357657 -0.8042755596896464
389277 -0.36031652043558826 -0.79445652873411
394180 -0.3730674967082172 -0.7918339022376017
399083 -0.38106178844597494 -0.7890937862118543
403986 -0.39317547333508807 -0.7824810544508565
408889 -0.3988723402853617 -0.777568198310102
413792 -0.4106173146644625 -0.772789749091492
418695 -0.41713290754083004 -0.7680256817144749
423598 -0.4278244570494408 -0.7640572730024928
428501 -0.4376878082961155 -0.7599276065000141
433404 -0.44455513377602524 -0.756953250252456
438307 -0.454959577368231 -0.7471122378077165
443210 -0.46141471174297816 -0.7494869798435848
448113 -0.46743980003186897 -0.7411914694687908
453016 -0.4758640955354266 -0.7369979235387516
457919 -0.48196940866306515 -0.7320143310378809
462822 -0.49175219364796147 -0.7259344778323278
467725 -0.4962890120211955 -0.722936578744928
472628 -0.5052686369921943 -0.7174366772848122
477531 -0.5121479605610815 -0.7127286450266127
482434 -0.5188788983299264 -0.7038173962618189
487337 -0.5249179717277438 -0.7055359895467567
492240 -0.5324681380025983 -0.6966298652785112
497143 -0.5417692667939562 -0.6930439117239493
502046 -0.5455932286258965 -0.6829382517145125
506949 -0.5480117641477364 -0.6777286150573266
511852 -0.5541928410125556 -0.6749723167484543
516755 -0.5641114827627186 -0.6659493530364831
521658 -0.5710248346854992 -0.6639998805392159
526561 -0.5746230734377581 -0.6515103322712377
531464 -0.5813613230225096 -0.6426767768661786
536367 -0.5880970611810782 -0.633996265378167
541270 -0.5900849794334176 -0.6233298778198851
546173 -0.5936868009478141 -0.6134932986289617
551076 -0.5958167050556078 -0.6001978293915182
555979 -0.592952366593033 -0.5804234137956285
560882 -0.5810682307486602 -0.5639309062182527
565785 -0.5708078087584575 -0.5463051750569902
570688 -0.5470857487321416 -0.5387188992739379
575591 -0.5203509805365376 -0.5438513284787522
580494 -0.4942166713243274 -0.5638284090946123
585397 -0.48510193022966036 -0.5949149914154525
590300 -0.4954944737394227 -0.619080156077616
595203 -0.5118983392460122 -0.6378059814638399
600106 -0.5235944927043181 -0.6486892555707682
605009 -0.5417671609917938 -0.6546906613012438
609912 -0.5528100123730775 -0.6551278757779946
614815 -0.5666898355514878 -0.6564351981312522
619718 -0.5789401457745778 -0.6556908168078383
624621 -0.5898331867440569 -0.6538966962956579
629524 -0.6001121231549904 -0.6500553050804007
634427 -0.6084782042989139 -0.6455391430266898
639330 -0.6157936101554636 -0.6450282312382801
644233 -0.6246835001833886 -0.637379817829197
649136 -0.627821138880364 -0.6349303984144936
654039 -0.6343316954171152 -0.6281106040950126
658942 -0.6443778655222858 -0.6256790270228111
663845 -0.6447969325291076 -0.6224952306065452
668748 -0.6482898380526233 -0.6166627281707509
673651 -0.6526185580412015 -0.6107665563537127
678554 -0.6588016153702246 -0.6081271901701566
683457 -0.6591485533406162 -0.6086523937882528
688360 -0.6625936527722552 -0.5992594315745662
693263 -0.6722563589888301 -0.5975497600872058
698166 -0.672822559135613 -0.5979013663933825
703069 -0.6734428399549984 -0.5935943511547174
707972 -0.6766254179697807 -0.5921016801528834
712875 -0.6822500498344759 -0.590777530432282
717778 -0.6900723468350574 -0.5865981843488388
722681 -0.6914956498698 -0.5794435646851394
727584 -0.6958923983334117 -0.5784972383176723
732487 -0.6973942304380123 -0.5741412527044827
737390 -0.7006378941411245 -0.5681069706263016
742293 -0.7065292199780173 -0.5682025166723277
747196 -0.7067537558908322 -0.56509695782772
752099 -0.711764554348362 -0.5608777615841359
757002 -0.7140124214054393 -0.561266550283622
761905 -0.7193600505897901 -0.55774003215569
766808 -0.7146283821728264 -0.5533967220388868
771711 -0.721468152353451 -0.5516365309511666
776614 -0.7246882211602845 -0.5488474476773313
781517 -0.7260249878599871 -0.5428953415771485
786420 -0.7299515716230163 -0.541026270031683
791323 -0.7339129904847258 -0.5407356955733167
796226 -0.7370930130221953 -0.5363913864427332
801129 -0.735110624928725 -0.5332291402672092
806032 -0.7419938656059305 -0.5266768880912612
810935 -0.7429963112975243 -0.526381728669068
815838 -0.7431178431034924 -0.5248429771724819
820741 -0.7423918666620875 -0.5198659615571388
825644 -0.7460042949584138 -0.5179016705012297
830547 -0.7503782457960464 -0.5173111200581871
835450 -0.7537017978796273 -0.5117351488791256
840353 -0.7499622858285233 -0.5104254850837031
845256 -0.7542430264939903 -0.5041224610541423
850159 -0.7558272183026283 -0.5035482881452834
855062 -0.7591322463809851 -0.5001641754734071
859965 -0.7619911255624747 -0.49900906396863465
864868 -0.764590201392333 -0.4927267762845859
869771 -0.7648764423607161 -0.4936353043223081
874674 -0.768234070020075 -0.48731911100223574
879577 -0.7664040823609342 -0.4852065384468799
884480 -0.7672095281115536 -0.4808553215461818
889383 -0.7718059840818698 -0.47430108175790187
894286 -0.7716463643384733 -0.47202985024480454
899189 -0.7727914430507947 -0.46623680065753786
904092 -0.773119640060134 -0.4625076933009008
908995 -0.7753785469465032 -0.45719654395440856
913898 -0.7700170769431838 -0.4528094494758296
918801 -0.7704956334539119 -0.44558866211776804
923704 -0.763304039039627 -0.441943615696836
928607 -0.7600919424557402 -0.4386893516931268
933510 -0.7511446829393186 -0.44164000604874687
938413 -0.7468268486925072 -0.4411689679643189
943316 -0.7417379398173344 -0.45113276695523363
948219 -0.7424207897595504 -0.4593471084763439
953122 -0.7475650636629221 -0.46437219667143537
958025 -0.745927609317621 -0.469165226455699
962928 -0.7562804614676005 -0.4722727325863561
967831 -0.7614148081514274 -0.4716151218700021
972734 -0.7663567900669498 -0.4723035403168762
977637 -0.7685452077231777 -0.468829756077249
982540 -0.7722479567193015 -0.46536137909377717
987443 -0.7782981818470751 -0.46586838162871
992346 -0.7791720491340193 -0.4656787349742106
997249 -0.786162136451486 -0.4663643170611822
1002152 -0.7854472172466057 -0.45705065139040263
1007055 -0.7906907515312296 -0.46108867687679483
1011958 -0.7920601521459351 -0.4592646860619821
1016861 -0.7970881265694846 -0.4520515264972026
1021764 -0.7988876358467857 -0.45426623521449927
1026667 -0.7958497276199532 -0.45020561314865387
1031570 -0.8035663128623668 -0.4488915343256417
1036473 -0.7994828621349205 -0.44135015618259166
1041376 -0.8063175427304987 -0.4445336467138881
1046279 -0.8023561293760787 -0.4405598861632875
1051182 -0.806352034773452 -0.43862555134065767
1056085 -0.8112868573497548 -0.43829527704505383
1060988 -0.8119654856797843 -0.43864809904934765
1065891 -0.8126607362764556 -0.4367000701383752
1070794 -0.8136878912591956 -0.4315907413512283
1075697 -0.816030924141924 -0.4298046303996308
1080600 -0.8198548280907466 -0.4275738660047511
1085503 -0.8168150491398698 -0.42425547651606704
1090406 -0.8192562287757207 -0.41754630257909603
1095309 -0.8199434796679649 -0.42254827385224747
1100212 -0.8221059064109476 -0.4227207704472678
1105115 -0.8228423809858513 -0.4175139148637451
1110018 -0.8243237469951779 -0.41759891346022365
1114921 -0.8252995428669223 -0.4114892855199489
1119824 -0.8261020823902334 -0.412675038620286
1124727 -0.8278886689241713 -0.40914872744217606
1129630 -0.8295089105623725 -0.4048324257841796
1134533 -0.8322097513656478 -0.40596450680260016
1139436 -0.8317369829926547 -0.4046649998384273
1144339 -0.8304559781222182 -0.40132826245070036
1149242 -0.8324938900849802 -0.4017970658058819
1154145 -0.8376626799366371 -0.39844971340880314
1159048 -0.8345872944585975 -0.39819568561615476
1163951 -0.8367888437596029 -0.3937831325416632
1168854 -0.8354031852645288 -0.39484241856547686
1173757 -0.8374135399516663 -0.39114689538980546
1178660 -0.839395917619395 -0.38806705448526996
1183563 -0.8367342842459301 -0.38796465352394655
1188466 -0.8388990683268631 -0.3861046143331811
1193369 -0.8432103871742517 -0.38654088278516935
1198272 -0.841390994985898 -0.38222408943507924
1203175 -0.8427492744968779 -0.37775801189691266
1208078 -0.8433678450786899 -0.37584658289229955
1212981 -0.8430953038177046 -0.3742431010414148
1217884 -0.8428033259658757 -0.3735198673912316
1222787 -0.8478291812222244 -0.36848721547360935
1227690 -0.8444957082210466 -0.36955205109839045
1232593 -0.8431767353887502 -0.367134658719598
1237496 -0.8430690346822747 -0.36494028970839837
1242399 -0.8445755186953224 -0.3642735713713243
1247302 -0.8454466403523819 -0.36045233418525835
1252205 -0.8449601070577817 -0.3558690297935162
1257108 -0.8479711781122512 -0.3567685905042731
1262011 -0.8416385654529075 -0.35399951610875435
1266914 -0.8404354291304268 -0.3520267847727785
1271817 -0.8358761344410945 -0.35525808001748743
1276720 -0.8352291896668822 -0.3510239367485524
1281623 -0.83346985779527 -0.3520215234349862
1286526 -0.83250497489323 -0.35580425407124977
1291429 -0.833862160373519 -0.3604307701257456
1296332 -0.8362879226895904 -0.3579687807478466
1301235 -0.8378106090532138 -0.3598800240310488
1306138 -0.8391390424398544 -0.36463868180302034
1311041 -0.8428822586068306 -0.35938561353251036
1315944 -0.8449739216381674 -0.358311861745166
1320847 -0.846047418561132 -0.364200597734592
1325750 -0.8462044935631807 -0.3597372390178366
1330653 -0.8508786288953609 -0.3573047880253692
1335556 -0.8522205837471544 -0.35401441556741753
1340459 -0.8534208610248213 -0.3576309027782852
1345362 -0.8560891224322034 -0.35141657307683455
1350265 -0.8547405198100192 -0.3556644585944177
1355168 -0.8568561942079409 -0.34865465317337246
1360071 -0.8607083340606788 -0.3456848630161228
1364974 -0.8597993499716015 -0.34974636383627433
1369877 -0.8621620445351134 -0.34551482475006506
1374780 -0.8597644576806232 -0.3456391722887538
1379683 -0.8638543724314233 -0.34438403540361384
1384586 -0.8626324956123481 -0.34341039883320645
1389489 -0.8658060039771717 -0.34015418928105423
1394392 -0.8645138109050905 -0.3405038312189705
1399295 -0.8644695052809519 -0.3382111117353866
1404198 -0.8656206149463448 -0.3347853499503757
1409101 -0.867111475246047 -0.33606231229475475
1414004 -0.8678772224961508 -0.33584225064592654
1418907 -0.8645935007816513 -0.33175742297126726
1423810 -0.8704230282772556 -0.3310357668073039
1428713 -0.869130613933028 -0.33093621362439035
1433616 -0.8689811532339303 -0.33080481503853604
1438519 -0.8682117093957853 -0.328298949206101
1443422 -0.8735402096722884 -0.32356366903651884
1448325 -0.8734875733463906 -0.3251382817929344
1453228 -0.8701170498355056 -0.3217576308824431
1458131 -0.8728762367844218 -0.3230258223988892
1463034 -0.8748084087284542 -0.3217842068717929
1467937 -0.872115301882627 -0.31813478598232414
1472840 -0.8726830212043092 -0.31945443594922274
1477743 -0.8725637913966489 -0.3142930167033107
1482646 -0.8766204633901099 -0.31414615086444925
1487549 -0.8748325729678311 -0.3143931930411633
1492452 -0.8746986693814078 -0.31087325676099287
1497355 -0.8780617075723018 -0.3067422946875038
1502258 -0.8782075525369568 -0.3080447800008806
1507161 -0.8758872643353385 -0.3077489277907479
1512064 -0.8791049076366406 -0.30564569002929487
1516967 -0.8797937625142397 -0.30432426953552527
1521870 -0.8758852901519522 -0.30328715214981217
1526773 -0.8755192103510736 -0.30105531586344636
1531676 -0.8748394740844426 -0.29732555213510375
1536579 -0.875411837689248 -0.2967515187808572
1541482 -0.8775572768263504 -0.29829147246398363
1546385 -0.8754183402266033 -0.2945462021940281
1551288 -0.8753271783468787 -0.29615771973143795
1556191 -0.8681224529876951 -0.29239695269189925
1561094 -0.871545992674347 -0.2954119010929107
1565997 -0.8652560748130596 -0.2988841123258414
1570900 -0.870618474111662 -0.297363024406426
1575803 -0.8689713587294616 -0.2987715687005605
1580706 -0.8684970027307224 -0.3009367045111075
1585609 -0.87063186494669 -0.2998996769225505
1590512 -0.8705318861333214 -0.2987028430747319
1595415 -0.8757627454399945 -0.2996716565453044
1600318 -0.8767108327724986 -0.29763195257099356
1605221 -0.8793399811094419 -0.29802758025115617
1610124 -0.879479699338441 -0.298281846813586
1615027 -0.8816618624527474 -0.2933274519084575
1619930 -0.8834395476921206 -0.2957641602316343
1624833 -0.8832032081309219 -0.296040308218193
1629736 -0.886894592342295 -0.2897906788739099
1634639 -0.8856732676432411 -0.28647117575651887
1639542 -0.88848160433655 -0.28922901493552255
1644445 -0.889131027735749 -0.2884246613670254
1649348 -0.89036894640954 -0.2841921949092487
1654251 -0.8873210886469844 -0.2859443617395445
1659154 -0.8903235493511386 -0.28040253682741156
1664057 -0.8919063460976658 -0.2805736916410713
1668960 -0.88927990433792 -0.2801388142374392
1673863 -0.8893462861663715 -0.2822121728202676
1678766 -0.8911072083040142 -0.2793169635239427
1683669 -0.8911779825241103 -0.27558662937388384
1688572 -0.8895688135423131 -0.2765700834507355
1693475 -0.8958028038493551 -0.27140921363832005
1698378 -0.8892272605870106 -0.27178924954565564
1703281 -0.8885022643010293 -0.27051500574545306
1708184 -0.8896081077596147 -0.2719350438784952
1713087 -0.8948692062949521 -0.2688634203566441
1717990 -0.8909816558598512 -0.2683457835316765
1722893 -0.8911469843153317 -0.2631819583359131
1727796 -0.8919870879261637 -0.26493059872011926
1732699 -0.8879437475258211 -0.26163584468302414
1737602 -0.8885882284448434 -0.2605194954056574
1742505 -0.8901621728257609 -0.25975715679344696
1747408 -0.889874015772078 -0.25829924718583025
1752311 -0.8863924523504997 -0.258123849532196
1757214 -0.8909242480635015 -0.2561723035096024
1762117 -0.8884512855255269 -0.2598816972206146
1767020 -0.8859343000044061 -0.2571589138050785
1771923 -0.8865105358696669 -0.2572027571907477
1776826 -0.887121712324519 -0.262614550000063
1781729 -0.8889753127450175 -0.2580625021113928
1786632 -0.8864936923485915 -0.25329200177410904
1791535 -0.8894727673168712 -0.2563743438380335
1796438 -0.8877331743441028 -0.2617504034912646
1801341 -0.8886261878408391 -0.2579821679753201
1806244 -0.8905242417179422 -0.2572618811859612
1811147 -0.8903751021299459 -0.25489246470670235
1816050 -0.894844646861267 -0.24992444313071782
1820953 -0.892356524976168 -0.2534304826989401
1825856 -0.8949088008332298 -0.2525468713166765
1830759 -0.8945120106198656 -0.25270582768237015
1835662 -0.8913124843159559 -0.24785639913896723
1840565 -0.8961591968825394 -0.25101730626187346
1845468 -0.8955608894725648 -0.24787595645469118
1850371 -0.8950734263254225 -0.24752919524061112
1855274 -0.8945268045660556 -0.24711277891212027
1860177 -0.8936833246021041 -0.24578170032392097
1865080 -0.8913978938704309 -0.24651286734155853
1869983 -0.8941830732205566 -0.24396485585853284
1874886 -0.8924488927206217 -0.24755566590941525
1879789 -0.894442292738543 -0.24091295097268023
1884692 -0.8953851794357233 -0.2414256433794736
1889595 -0.898877807429513 -0.24037660757602833
1894498 -0.8906706243917887 -0.23806445461399542
1899401 -0.8961873915337152 -0.23767845415499328
1904304 -0.8929625496238106 -0.23846864331794698
1909207 -0.8921539938926135 -0.24195100341115755
1914110 -0.892331283126402 -0.23919361658898697
1919013 -0.8979163090913715 -0.23946430302610253
1923916 -0.8939667410654083 -0.2414863207388188
1928819 -0.8946190322527167 -0.23898485912142187
1933722 -0.897146111727976 -0.23835676186631247
1938625 -0.8981718064493791 -0.23757939193792593
1943528 -0.8961210954056728 -0.24200631979009782
1948431 -0.8981124018938914 -0.23960848710825455
1953334 -0.9013566756910707 -0.23264722729563883
1958237 -0.895242838937279 -0.2374198220890655
1963140 -0.8976483810283304 -0.23664795012718692
1968043 -0.9002388375419834 -0.2405374135564323
1972946 -0.900595214929087 -0.23465614720632114
1977849 -0.9033201412955373 -0.23373611772722103
1982752 -0.9001926279760465 -0.23490559036284023
1987655 -0.9023445329747923 -0.23043101980637282
1992558 -0.9024767628654183 -0.23428962287885527
1997461 -0.9042199462130747 -0.23081417038619556
2002364 -0.90613783922897 -0.23036028056972055
2007267 -0.9028802074073344 -0.22263788222944156
2012170 -0.9069108420747024 -0.22125420081997438
2017073 -0.9050054427196349 -0.22731969434120702
2021976 -0.9062568341115887 -0.2259033026888728
2026879 -0.9071303683542086 -0.22133069070422362
2031782 -0.9079066382775068 -0.22025780667813086
2036685 -0.89962489484035 -0.21920675907706647
2041588 -0.9077154556267226 -0.2174075483824027
2046491 -0.9098824107509612 -0.22040930045354293
2051394 -0.9066323809068008 -0.21673067257711068
2056297 -0.9076022860236291 -0.21831576506615166
2061200 -0.9034790491451514 -0.21316241386234472
2066103 -0.9092833057648867 -0.21389777820370037
2071006 -0.9056719579686169 -0.21289249175557035
2075909 -0.9083496126472843 -0.21271505305917174
2080812 -0.8999688279678703 -0.21450570313079928
2085715 -0.9097143332065971 -0.2110217905580834
2090618 -0.9090629484308493 -0.21429916177862962
2095521 -0.9096730724139327 -0.2090149880223426
2100424 -0.9083433798816587 -0.21182202014683188
2105327 -0.9128721327016468 -0.20724899564919833
