# HZ S RI R 50
100000 0.5418797989089033 -0.7188375469348965
104903 0.5128242223757781 -0.7352701132272819
109806 0.4858469888287369 -0.7514302594179515
114709 0.4558495832153151 -0.7660934037304695
119612 0.43360366213769097 -0.7786764639505602
124515 0.4067648160355854 -0.7903895193658708
129418 0.3786576409379226 -0.8031120741380144
134321 0.3529224571795539 -0.8098527670867829
139224 0.3276619916322961 -0.8216101189545773
144127 0.3044633342660164 -0.8300239353263776
149030 0.2765609085916478 -0.8361105880288345
153933 0.25137199265190513 -0.8402763176166198
158836 0.22895690436203364 -0.8482379196458953
163739 0.20630029214194112 -0.8530574703754852
168642 0.18374609560979818 -0.8559168377664202
173545 0.16201819717475402 -0.8614665779502603
178448 0.13963950815616322 -0.8619599333603226
183351 0.11752737471816717 -0.8632412056005024
188254 0.09590637753390147 -0.8644443092772003
193157 0.07218648010241882 -0.8666717377622285
198060 0.05722998781092567 -0.8670646523006316
202963 0.035268437001335085 -0.8702256695685516
207866 0.015524448699161201 -0.8701687097855944
212769 -0.005000810461195318 -0.8684196598740375
217672 -0.02127443633503002 -0.8673991918557896
222575 -0.04174235924404447 -0.8693749570991136
227478 -0.05484779646797193 -0.8686863224364054
232381 -0.07404987174766653 -0.8666856051007215
237284 -0.08903912197249121 -0.8625711100028439
242187 -0.10761933074515583 -0.8630070629947081
247090 -0.12163823243083456 -0.8579720675340826
251993 -0.13561117186750066 -0.8588625298585779
256896 -0.15236071570709617 -0.8548618923158565
261799 -0.1676895879892783 -0.8530986696821444
266702 -0.1814991735199746 -0.8511053666803472
271605 -0.19746588016626798 -0.845173671423798
276508 -0.2107565048844473 -0.8422574433581022
281411 -0.22533294519745906 -0.8414526916369776
286314 -0.2392285479917019 -0.8384838685278204
291217 -0.246296846776875 -0.833067803478405
296120 -0.2627447879352067 -0.8323439337871448
301023 -0.27249947182709117 -0.8254464538257477
305926 -0.2865656115736682 -0.8227982714204699
310829 -0.29370177396021063 -0.8191852562164769
315732 -0.30662661183902423 -0.8164322190553831
320635 -0.31947804724931994 -0.8130232719992787
325538 -0.32917461315508867 -0.8065180396258845
330441 -0.33850511762804253 -0.8056360993835873
335344 -0.3491546982721756 -0.7985504442681742
340247 -0.36019588269189357 -0.7976465668693798
345150 -0.3673961763510862 -0.7931419503499272
350053 -0.38076324654084026 -0.788613933081546
354956 -0.38774860475659834 -0.7839116345454199
359859 -0.3977321463697348 -0.7788853693021729
364762 -0.4057338002147916 -0.77702556925453
369665 -0.41412488430588174 -0.7699008526517634
374568 -0.4222494532559547 -0.7685083952472774
379471 -0.43322968578568183 -0.7648349937711726
384374 -0.44053759490784 -0.7639699142519838
389277 -0.44663613410531033 -0.7566169718808342
394180 -0.4563629532774105 -0.7536985474969309
399083 -0.4625021677821106 -0.7475829994518373
403986 -0.47089398096251883 -0.7442989003044413
408889 -0.47641740388472803 -0.7428155707638844
413792 -0.4852389253714576 -0.7340312574121365
418695 -0.49130415371391756 -0.7289063725912266
423598 -0.49832611179599307 -0.7264178030690082
428501 -0.5073175542628231 -0.7223566198273853
433404 -0.5122124169317804 -0.7190923725804456
438307 -0.5213354974464539 -0.71358028909679
443210 -0.5229673151914848 -0.7111863800941784
448113 -0.5305281623456686 -0.7088033286393276
453016 -0.5366730152582406 -0.7039126420147304
457919 -0.5404208638282845 -0.6976426942117717
462822 -0.546378122647908 -0.6951018941744133
467725 -0.5520290739270719 -0.6892604824235392
472628 -0.5596742800687718 -0.6898398170614896
477531 -0.5637600113700085 -0.6845800548746702
482434 -0.567083007937598 -0.6793541302668529
487337 -0.5739240542583149 -0.6789042778219527
492240 -0.5788170610209568 -0.6750182528208657
497143 -0.5831418717643955 -0.66902709582152
502046 -0.5891633473228484 -0.6671259501119791
506949 -0.5911931382788252 -0.6621826941878586
511852 -0.5936812533350084 -0.6610102575497134
516755 -0.6022886734827048 -0.6542920215280439
521658 -0.6066153730596244 -0.6553333010171917
526561 -0.6099337979207876 -0.6503080075522035
531464 -0.6146608755183737 -0.6425604352162335
536367 -0.6196082437211714 -0.644417314077263
541270 -0.6236795343357784 -0.6392158255614845
546173 -0.6248155787054357 -0.6379037285514245
551076 -0.6306304672795855 -0.6337192666445235
555979 -0.6347335246022987 -0.629970837792931
560882 -0.6352969740783397 -0.6267228155648608
565785 -0.6414748542484948 -0.6202979886187515
570688 -0.6495053340205883 -0.6193065758760746
575591 -0.6521998971930992 -0.6166017034733077
580494 -0.6528447728650794 -0.6106749263154352
585397 -0.6563421392117172 -0.6074547186238104
590300 -0.6601066827236074 -0.6057049317682254
595203 -0.6673338240594783 -0.6026990340162546
600106 -0.6701272511492635 -0.6031613521563075
605009 -0.6735396028582034 -0.5990046975861676
609912 -0.6731192283440139 -0.5948517593825798
614815 -0.6767939773180992 -0.5921169953386459
619718 -0.6826231239022983 -0.5889583932948276
624621 -0.6834996289293541 -0.5861933772465663
629524 -0.6874106355247271 -0.5825031807140166
634427 -0.6912614937588779 -0.5803051360793214
639330 -0.6934098261827862 -0.5806402300330896
644233 -0.6973099217136098 -0.5734108447906215
649136 -0.6987396362865913 -0.5734238020242051
654039 -0.700459007179588 -0.5693681371278722
658942 -0.7084665430045052 -0.5652261972959003
663845 -0.7061858523041672 -0.5637574496487884
668748 -0.710998204309199 -0.5589048213466875
673651 -0.7121089484773063 -0.557160658663303
678554 -0.7143224947962797 -0.5534603654464084
683457 -0.7167267638132824 -0.5574047119200459
688360 -0.719421740722386 -0.5482058542602032
693263 -0.7249626153489326 -0.5472175451017061
698166 -0.7264671817588464 -0.5436617054812295
703069 -0.728767003642117 -0.5413914643353986
707972 -0.7268312094191148 -0.5396925033234351
712875 -0.7308538805127822 -0.536931844655122
717778 -0.7361498963100487 -0.5344474955361356
722681 -0.737876125679559 -0.5302878271794789
727584 -0.7373658201047295 -0.5277375505783166
732487 -0.7380460778748651 -0.5263534218738868
737390 -0.7435471853764503 -0.5245019098278354
742293 -0.7455978234376595 -0.5184411753299929
747196 -0.7494325010200061 -0.5177966128778709
752099 -0.7496801339028324 -0.5164192803379309
757002 -0.7513556897535403 -0.5145155152802355
761905 -0.7529166033014942 -0.5117605914032065
766808 -0.7528759626872124 -0.511349758592123
771711 -0.7561496156733177 -0.5071670494280975
776614 -0.7590457843742584 -0.5048958625573983
781517 -0.7639658230015718 -0.5039095516098283
786420 -0.7617050362465012 -0.5009060742809709
791323 -0.7668062813111252 -0.49886929556504206
796226 -0.7708964499361889 -0.4958401116421857
801129 -0.7712147010395414 -0.4947120739114539
806032 -0.7709049064191612 -0.4914213864294676
810935 -0.774663037391572 -0.49103142516547615
815838 -0.7710784904417071 -0.4906786047584531
820741 -0.7730255773618286 -0.4863621360726151
825644 -0.7760413095110839 -0.4847605887176052
830547 -0.7784779104565078 -0.48280236179470803
835450 -0.7826775094235332 -0.477824483938328
840353 -0.778359378010038 -0.4768881845551927
845256 -0.7811552380459338 -0.4724451503328257
850159 -0.7879317194043832 -0.47481146290332416
855062 -0.7840927268726378 -0.4726420252206737
859965 -0.7847631874742604 -0.4678558680775963
864868 -0.7896039867051009 -0.4685782954291342
869771 -0.7900935981503638 -0.4682954055370419
874674 -0.791648236320626 -0.46601657355867154
879577 -0.7890842302020099 -0.461900771584845
884480 -0.7923804324004007 -0.45856468934139044
889383 -0.7970946176784538 -0.45607860383358156
894286 -0.7997803017356309 -0.45666289456109743
899189 -0.8002547459066398 -0.4543143577321218
904092 -0.8010651137641207 -0.4529352702304705
908995 -0.8005382428726304 -0.44849523643478534
913898 -0.8031836858030375 -0.4489187103516926
918801 -0.8029105683838959 -0.44602597434618024
923704 -0.8020347555882547 -0.4417952927598882
928607 -0.8081413520977664 -0.4413816191566287
933510 -0.8041236958396843 -0.4438875871216964
938413 -0.8105856032159069 -0.44037759335834176
943316 -0.8061471952340995 -0.4355230931050906
948219 -0.8158061181897868 -0.4356536798464357
953122 -0.8135714354779572 -0.43208641363304223
958025 -0.8118112888041371 -0.43233397694041115
962928 -0.8167293167340569 -0.431833313031431
967831 -0.8178080654742766 -0.42836320213224055
972734 -0.8167799937990288 -0.4273169042513969
977637 -0.8144031740976773 -0.42596868066432897
982540 -0.8174430023388449 -0.4225513919325717
987443 -0.820166169471782 -0.42299574600964757
992346 -0.8228905536565153 -0.41951546043003174
997249 -0.8235008451571326 -0.4212196739504111
1002152 -0.8185993604697962 -0.41734668126515156
1007055 -0.8240077186534532 -0.41563241453800215
1011958 -0.8248476945645055 -0.4150801914567464
1016861 -0.824120434759336 -0.414066028892468
1021764 -0.8277215477318667 -0.41249580684166764
1026667 -0.8247272087307924 -0.41065612415219205
1031570 -0.830570896441796 -0.4098842537398094
1036473 -0.8259801819357777 -0.4071048184578011
1041376 -0.8314547301128353 -0.40811146528934905
1046279 -0.8291671049337173 -0.40402543826697757
1051182 -0.8311623151658996 -0.40400058123013183
1056085 -0.8361546348553398 -0.40395965693662855
1060988 -0.833736069348376 -0.40080120500587396
1065891 -0.8393374751616444 -0.40093182785023873
1070794 -0.8346904929613501 -0.39711305148205844
1075697 -0.8382545499337644 -0.3956417399143863
1080600 -0.8401971738966733 -0.3939395129528884
1085503 -0.8383292393097421 -0.39413188954598133
1090406 -0.8379001395457639 -0.3904308311586692
1095309 -0.8410936345588068 -0.38900383028797736
1100212 -0.8419102953604507 -0.39291086003082576
1105115 -0.8407935977970825 -0.38576248539975466
1110018 -0.8441376699827563 -0.38964084921532444
1114921 -0.8418829288445181 -0.3830091279849478
1119824 -0.8414552576207951 -0.3868268098621257
1124727 -0.8464860300995959 -0.3811774525808102
1129630 -0.8482565604563292 -0.38054699471104625
1134533 -0.8490369786744044 -0.37859147415134237
1139436 -0.8471723196702559 -0.3807793396568365
1144339 -0.8464503001635028 -0.37911262782296123
1149242 -0.8497624996355934 -0.3773841089900123
1154145 -0.8535191357027523 -0.37642022802830216
1159048 -0.8518608134169496 -0.3768259458432342
1163951 -0.8512450658436387 -0.373189563611708
1168854 -0.8507422582812562 -0.3718086720814948
1173757 -0.8527695215860364 -0.37052100284153755
1178660 -0.8535775399774023 -0.368066429938156
1183563 -0.8516749297622257 -0.367627357089762
1188466 -0.8538858421680428 -0.363631301231365
1193369 -0.8561413664910699 -0.36731014609311563
1198272 -0.8581038176096947 -0.3652845789414007
1203175 -0.8561564946596213 -0.3636247926933715
1208078 -0.8576193044135545 -0.3593032879745473
1212981 -0.8565279768948355 -0.3596810552447646
1217884 -0.859140734447573 -0.35749759198213255
1222787 -0.8617912695435597 -0.3550661240021323
1227690 -0.8595435142580751 -0.3559668096647303
1232593 -0.8606361293182888 -0.35834602041421654
1237496 -0.8614635140882456 -0.357268939095987
1242399 -0.8631815705343495 -0.35581605890100676
1247302 -0.8618731540438409 -0.35315131042416603
1252205 -0.8644645580804118 -0.34979813504483015
1257108 -0.866850105600783 -0.3495332414525458
1262011 -0.8661195134582871 -0.3499225637664627
1266914 -0.8656756779137175 -0.34798859337839005
1271817 -0.8676713678785226 -0.34836083656312095
1276720 -0.8667910274210855 -0.3445833883524325
1281623 -0.8671822208378148 -0.34287971839591314
1286526 -0.8660699765155598 -0.345989619235863
1291429 -0.8710029838483312 -0.3423265725063239
1296332 -0.8687303795310215 -0.33867099636837233
1301235 -0.8686053145386051 -0.3388855794635685
1306138 -0.8730635964695745 -0.34240682373885667
1311041 -0.8673204827405016 -0.33614716852736204
1315944 -0.8686923548622415 -0.33516711018709006
1320847 -0.8697339054928588 -0.33631591395269467
1325750 -0.869262205791629 -0.33892340132722387
1330653 -0.8689133486868045 -0.333277014350485
1335556 -0.8749009333813849 -0.3319527803202237
1340459 -0.8728854060588445 -0.33434948302634604
1345362 -0.8691969577846089 -0.3316404608534735
1350265 -0.8705273793689224 -0.330847202890214
1355168 -0.8760134723709716 -0.32777587020140103
1360071 -0.8760418105437374 -0.329616535875464
1364974 -0.8763078545475577 -0.3254626930386144
1369877 -0.8747970239953604 -0.33052198227777385
1374780 -0.8739710517475829 -0.3261776315495447
1379683 -0.8801656672223891 -0.32474800121927994
1384586 -0.8772578528439491 -0.3244053594356715
1389489 -0.8785500015472445 -0.32109705943680206
1394392 -0.8776288787998482 -0.3247575748702136
1399295 -0.8785696366300998 -0.3238441146795029
1404198 -0.8808668935655745 -0.32388326607436435
1409101 -0.8804456467482061 -0.3187128097839348
1414004 -0.8832121246242004 -0.3178126006526055
1418907 -0.8784139625131708 -0.3200604532638292
1423810 -0.8779390961030067 -0.3160190401535136
1428713 -0.8836801476156739 -0.3175840750065301
1433616 -0.8814554500250905 -0.32068191312620375
1438519 -0.8806289791835178 -0.31821932402076875
1443422 -0.8829900876343696 -0.3114826701821206
1448325 -0.8839465110506995 -0.3101715489299811
1453228 -0.880901435265461 -0.3121510596288639
1458131 -0.8844035968493387 -0.3112480635731256
1463034 -0.8860105043925594 -0.31130730787823946
1467937 -0.8808168694648306 -0.30942010453949
1472840 -0.8850975635479763 -0.30982617580882066
1477743 -0.8830821580696567 -0.30726129420723325
1482646 -0.8843327879818712 -0.3092746731759053
1487549 -0.8869786976772577 -0.30797135043190016
1492452 -0.8871976986528065 -0.3055861791138696
1497355 -0.8873142320094707 -0.30286344912821067
1502258 -0.8873834578600869 -0.3037980168376898
1507161 -0.8888581800160066 -0.30216035517911494
1512064 -0.8869757217199347 -0.3047446904602157
1516967 -0.8870086490654842 -0.3011969686775767
1521870 -0.8883221953853908 -0.2988005015304562
1526773 -0.8875816990211548 -0.30141012904250974
1531676 -0.8855673297494169 -0.2990299672251311
1536579 -0.8901346179684076 -0.29361214241945083
1541482 -0.890400513054296 -0.2990490401827775
1546385 -0.8900735783802805 -0.2967955430166917
1551288 -0.8944212864100912 -0.29569262859738243
1556191 -0.8900863063903182 -0.2948392859696018
1561094 -0.8965579072085023 -0.2939917498198925
1565997 -0.8919565070305 -0.29346980165513603
1570900 -0.8949105148378047 -0.2948137714820315
1575803 -0.894321212035955 -0.296490358375362
1580706 -0.8903535653827478 -0.2928144579672575
1585609 -0.8927601991234896 -0.2875465913286802
1590512 -0.8912565587779282 -0.2896412047477684
1595415 -0.8947089072667903 -0.2919914442270369
1600318 -0.8924146172737782 -0.28703395493540634
1605221 -0.8953223856634757 -0.2855114625948018
1610124 -0.8950653494281001 -0.28572921055474754
1615027 -0.8944697255004356 -0.2877401710573116
1619930 -0.8937357171173754 -0.28399704703402046
1624833 -0.8968802256882199 -0.2854318754550961
1629736 -0.8965359147202587 -0.28326943375515573
1634639 -0.8993944524298693 -0.2832643555482682
1639542 -0.8951754183651423 -0.28502552920768065
1644445 -0.8989896349837371 -0.28404864315180667
1649348 -0.8996885961036153 -0.28069098629172573
1654251 -0.8997066372080245 -0.2849523424893804
1659154 -0.8967646370472954 -0.2786404873077957
1664057 -0.9007171114793658 -0.2757449611939057
1668960 -0.8985588909738552 -0.2792081904638269
1673863 -0.8970713048724239 -0.28025054895695345
1678766 -0.8996012612208799 -0.27887589803529195
1683669 -0.9018105312879148 -0.27820742209014326
1688572 -0.8971301891422987 -0.27784647922139877
1693475 -0.9030475102922225 -0.2742138116310245
1698378 -0.8961600865258608 -0.2783392443545019
1703281 -0.9012975608872489 -0.2766757725403763
1708184 -0.8966622253088762 -0.274535928641689
1713087 -0.9035476516421879 -0.2755009801768877
1717990 -0.9005084099340267 -0.2750414381271483
1722893 -0.9019375427307862 -0.26993933292850014
1727796 -0.9034164719879718 -0.2709292326331578
1732699 -0.8993958604960945 -0.27063934063549666
1737602 -0.8993820165958295 -0.26987604150777567
1742505 -0.9053020693171 -0.2686833609755272
1747408 -0.900860442119519 -0.266518836044774
1752311 -0.9020467744088454 -0.26789185058902093
1757214 -0.9022691588784992 -0.26778788530421144
1762117 -0.9025083672878118 -0.2711421867301214
1767020 -0.9038883458243393 -0.26648959945122375
1771923 -0.9056880145927835 -0.26645307709181715
1776826 -0.9049314736686248 -0.26962619830129037
1781729 -0.9079887113360904 -0.2636854345201101
1786632 -0.9030779608455624 -0.26374213879308167
1791535 -0.9062110490122914 -0.26303305283433015
1796438 -0.903053592912938 -0.26849121368717244
1801341 -0.9054007209561012 -0.2602484918238314
1806244 -0.9050047190290845 -0.26196141964644104
1811147 -0.9082884434016627 -0.2591369792547862
1816050 -0.9130458410906384 -0.258999918507829
1820953 -0.9067044969617223 -0.26407371394471074
1825856 -0.9084382857812221 -0.2615112747247543
1830759 -0.9070170815626548 -0.26222064023584635
1835662 -0.9026143383710421 -0.2617825689275795
1840565 -0.909161595935421 -0.26095903064174647
1845468 -0.9058191968008761 -0.25803964802044965
1850371 -0.9093464277208116 -0.2564964185176718
1855274 -0.907419671139265 -0.25702290737640476
1860177 -0.9070323616593478 -0.2551372278124861
1865080 -0.9103744379767109 -0.2565906902592869
1869983 -0.9070271486073028 -0.2590141412860641
1874886 -0.9073786115449276 -0.2565370485436836
1879789 -0.9109396042555862 -0.25360291081541914
1884692 -0.911609281677682 -0.2527112237823757
1889595 -0.9076750615792026 -0.25351105807887264
1894498 -0.9091511602764402 -0.24926122399510045
1899401 -0.9134122676576902 -0.25215951086737015
1904304 -0.9064928808667766 -0.24964872094172863
1909207 -0.9107454130294754 -0.2514822544610465
1914110 -0.9079440333283444 -0.2515186276708305
1919013 -0.9196087205477597 -0.24881340616906725
1923916 -0.9070069857962226 -0.250880106761078
1928819 -0.9132507245427534 -0.24748890019477035
1933722 -0.9112873664882203 -0.24860014953934367
1938625 -0.9129000984564353 -0.24591471948279728
1943528 -0.9100431851798122 -0.24578680487816643
1948431 -0.9100133650864115 -0.24580898403810322
1953334 -0.9123053749338349 -0.24357054814597962
1958237 -0.9123992861418546 -0.2463982986335802
1963140 -0.9141278439518699 -0.24639152379101756
1968043 -0.9111442371728012 -0.24622669838308286
1972946 -0.9098108920431214 -0.24543145335796052
1977849 -0.9173213233789458 -0.24616216282206546
1982752 -0.9114165891012934 -0.24353893391662385
1987655 -0.9150847196831645 -0.24143419978907846
1992558 -0.9148099379273437 -0.24136104546000506
1997461 -0.9148241028193169 -0.2427456630135901
2002364 -0.9106977688225453 -0.24538362777531028
2007267 -0.9129595941301508 -0.2385877892843471
2012170 -0.9143236105259385 -0.24078497531585666
2017073 -0.9108684008502274 -0.24017834878169877
2021976 -0.914345001456941 -0.23974866059298972
2026879 -0.9168834267246244 -0.2368754934170302
2031782 -0.9155495869529682 -0.234275174451403
2036685 -0.9145900607609445 -0.2427054269389439
2041588 -0.9145463345304302 -0.23881856057421624
2046491 -0.9173835235926243 -0.23803611641476133
2051394 -0.9128091771001958 -0.23584243701782692
2056297 -0.9193573513765747 -0.23716548885973593
2061200 -0.9178554096794078 -0.23661259513658095
2066103 -0.9196360533360772 -0.2353722588663827
2071006 -0.913804900869701 -0.23513124705769542
2075909 -0.9180435915619406 -0.2372103935346173
2080812 -0.909894549342315 -0.23530115854919392
2085715 -0.9183302438044503 -0.23318997429835175
2090618 -0.9178238902578313 -0.2339522220752994
2095521 -0.9147692653556503 -0.2324805269304911
2100424 -0.9149902107924112 -0.23137069501828975
