# HZ S RI R 50
100000 0.5332848846073991 -0.7195250884917089
104903 0.5042854282720903 -0.7359128386339389
109806 0.47647538223975205 -0.7521602369707101
114709 0.44579614159129594 -0.7670813986041076
119612 0.417844639784846 -0.7774282245734953
124515 0.3928997811309435 -0.7898197360560906
129418 0.3662618706352214 -0.8032098705881501
134321 0.3384703841509978 -0.809386298087031
139224 0.3117903509359254 -0.8200775890162437
144127 0.2814500559938101 -0.8265833909198627
149030 0.2572459918038534 -0.8326637824365746
153933 0.2303851214383733 -0.8369942877814054
158836 0.2059119973869127 -0.8441750519967574
163739 0.1803073506710174 -0.8459182372731304
168642 0.15472238685639367 -0.843883179724254
173545 0.13079998050499567 -0.8470578483737333
178448 0.1080551857784656 -0.8464402124146619
183351 0.0836417473832614 -0.8422344618016468
188254 0.05815662676678133 -0.8379568599442859
193157 0.034615155400145696 -0.8341195069553644
198060 0.01447050427215825 -0.8226859679010704
202963 -0.005817716926489986 -0.8072526380029156
207866 -0.013906053693340846 -0.7890846770972382
212769 -0.011438532053732752 -0.7685353580412835
217672 0.008304764688364052 -0.7623618138938855
222575 0.0257106950457945 -0.7907041944588925
227478 0.01089351616063202 -0.8235472022734698
232381 -0.01158085469785417 -0.8371503760532828
237284 -0.03713977097897531 -0.8438832841376944
242187 -0.05955922597521156 -0.8505563521842107
247090 -0.08060181114558478 -0.8493476605042029
251993 -0.09876182308998728 -0.8575806836957671
256896 -0.11659662231746673 -0.850996302113698
261799 -0.13608286766967168 -0.8513566329218145
266702 -0.1525698973247855 -0.8501282698451723
271605 -0.16989565701485326 -0.8461810448442078
276508 -0.18509083476427357 -0.844987771347988
281411 -0.20231120103767886 -0.841502001629954
286314 -0.2164174465042928 -0.8398484902753095
291217 -0.22891739120816973 -0.8347732425711124
296120 -0.24151337944186255 -0.8318870638817563
301023 -0.2552128101838114 -0.8264409930334654
305926 -0.26855544329866465 -0.8224372395625046
310829 -0.27453024097805234 -0.8183739440410155
315732 -0.28689721101784116 -0.8194720493757067
320635 -0.3012201050309379 -0.8145748981621672
325538 -0.30848780133997783 -0.8100659594249008
330441 -0.3226513825374856 -0.8092917041032878
335344 -0.33435852197619487 -0.8064375255236407
340247 -0.3427729746411355 -0.8010277159702149
345150 -0.3530425451702122 -0.7972325846376568
350053 -0.3678238728391513 -0.7941067348445411
354956 -0.37412369351803487 -0.788573148211698
359859 -0.38479961894548537 -0.7827533712721204
364762 -0.39397482819383195 -0.7814616458381503
369665 -0.4005505587679669 -0.7731172399046308
374568 -0.41055066338480134 -0.7733341486553994
379471 -0.4232110391754858 -0.768669287943447
384374 -0.4305350577551197 -0.7685817335498296
389277 -0.43455941705472756 -0.7589525555085681
394180 -0.4451603354115053 -0.7550985385308954
399083 -0.45194833007704555 -0.753854691066093
403986 -0.46067575811003153 -0.7456168165299201
408889 -0.46733892841464214 -0.7468692295539145
413792 -0.4767159179335064 -0.7401207158873
418695 -0.4825969113380602 -0.7344823087094947
423598 -0.4897034553622839 -0.7316286189447223
428501 -0.49927890064390434 -0.7271082903827846
433404 -0.5033611258775901 -0.7244778409859147
438307 -0.5132342367713829 -0.7163098024515674
443210 -0.5168194922478448 -0.7163417439606153
448113 -0.5231118462820917 -0.709679953242218
453016 -0.5281375026271901 -0.7094012648326025
457919 -0.534579005953221 -0.7018393403439886
462822 -0.542860891181748 -0.6971849339489341
467725 -0.5484903500925848 -0.6942948985167783
472628 -0.5522588068098971 -0.6909865516476202
477531 -0.5595697436502501 -0.6852943258833577
482434 -0.5623154205054349 -0.6797181492319356
487337 -0.5674718827718558 -0.6793300887954348
492240 -0.5736176509818262 -0.6735243759000573
497143 -0.5773169544324168 -0.6732369092615196
502046 -0.5831214169987458 -0.6660809227294427
506949 -0.5867986817276124 -0.6639637921919561
511852 -0.5887857472506017 -0.6622111599879623
516755 -0.5955585901799286 -0.6545793663991442
521658 -0.6022648969809665 -0.6558025260217778
526561 -0.605815893119733 -0.6500523734207858
531464 -0.6097149743792809 -0.6459921568236777
536367 -0.6157440454957498 -0.6400768062321376
541270 -0.6197257902642128 -0.6355892505723304
546173 -0.6219513912527131 -0.637290232123387
551076 -0.6293117164114806 -0.6313527961114571
555979 -0.6337061840722592 -0.624933748404143
560882 -0.633026277915145 -0.620410566927165
565785 -0.6389836295178863 -0.6147407845439136
570688 -0.6432831676616505 -0.6068394577240241
575591 -0.6460369964189739 -0.6032977679051125
580494 -0.6376650821906805 -0.5955425497295428
585397 -0.6384148781052171 -0.5953282644679759
590300 -0.6377515008070856 -0.5977041284403208
595203 -0.6421940895407718 -0.6022424899420635
600106 -0.6458476858046893 -0.6023369894227156
605009 -0.6492394845247922 -0.603674269146154
609912 -0.6552443938773247 -0.6009663096525383
614815 -0.660504773457209 -0.5989181599214541
619718 -0.6646521129827645 -0.5981371488398284
624621 -0.6692977587304116 -0.5938402875759774
629524 -0.6749867831955999 -0.590861138812286
634427 -0.68087422983052 -0.5907331980883476
639330 -0.6816593857317281 -0.5880344946407291
644233 -0.688626761074859 -0.5807889047136714
649136 -0.6883578163930861 -0.5810562000237565
654039 -0.691828601473392 -0.5744670671297062
658942 -0.7022874988097273 -0.5732073027760385
663845 -0.6999453627594684 -0.5707512101404264
668748 -0.701282256606386 -0.5675463252909643
673651 -0.7031265033938761 -0.5614551841629594
678554 -0.7110722302476931 -0.5594190777269498
683457 -0.7098763683275358 -0.5617320160261509
688360 -0.7131334476993002 -0.555468576586132
693263 -0.7183665784668787 -0.5536722541696472
698166 -0.7215926623336029 -0.5520275771495478
703069 -0.7243488578646966 -0.5495990599127409
707972 -0.7252046009210704 -0.5469822387615225
712875 -0.7264561022003168 -0.5408625373776943
717778 -0.7297463585639304 -0.5405789826335806
722681 -0.7306227119268658 -0.5353431341751007
727584 -0.733141660793566 -0.5356174078462528
732487 -0.7377989584367872 -0.5300235739063744
737390 -0.7419397213675516 -0.5285291912628515
742293 -0.7428412676797925 -0.5276518038681792
747196 -0.7442825793245098 -0.5214224275527135
752099 -0.7471609250460244 -0.5197792862963537
757002 -0.7501462757374846 -0.5182389750158325
761905 -0.7487716991383581 -0.5163794879753697
766808 -0.7510571718293787 -0.5149779699553426
771711 -0.753274463856769 -0.5134041036428445
776614 -0.755497205508609 -0.5096733773883461
781517 -0.7567400608673285 -0.5090973234110934
786420 -0.7633173405174519 -0.504876833405711
791323 -0.7642774238441048 -0.503842617200276
796226 -0.7664619532364928 -0.502065232032605
801129 -0.7653361068250218 -0.49735093439776323
806032 -0.7670780960231839 -0.4910637192600258
810935 -0.7725489649753317 -0.49445926493955666
815838 -0.7709488132093076 -0.4924566239492266
820741 -0.7709366008564567 -0.48835827803422305
825644 -0.7730541986662317 -0.48772156802330396
830547 -0.7770534646255963 -0.48374162463053455
835450 -0.7801129387360928 -0.4827633984609013
840353 -0.774987426544543 -0.4805544144956667
845256 -0.7771586432265007 -0.4768245799464563
850159 -0.7829620586561803 -0.4751400916047905
855062 -0.7843686095679988 -0.4730108232293748
859965 -0.7849484365384041 -0.47109646492019475
864868 -0.7898186018192508 -0.4687542128353507
869771 -0.789214855849001 -0.4672594123383776
874674 -0.7920685562011984 -0.468035272550753
879577 -0.7871297345875229 -0.46182519140251693
884480 -0.7916999334814506 -0.46089581487084863
889383 -0.7928633296870778 -0.4567229306393565
894286 -0.7960819101937956 -0.45730649085637437
899189 -0.7956903725211872 -0.45502065244770445
904092 -0.7979589323309171 -0.45327272774583255
908995 -0.7992194969367924 -0.4489783021092824
913898 -0.8012385633173317 -0.4479986689502358
918801 -0.8027304907229967 -0.4436516790227097
923704 -0.8000097421900668 -0.4457078817267807
928607 -0.8043149931288378 -0.4415785857726746
933510 -0.8023150569792156 -0.4402031907507859
938413 -0.8069810005407916 -0.4334797357565999
943316 -0.8035425999562147 -0.4333654737406741
948219 -0.8061681523149885 -0.4338902432391847
953122 -0.8076213868240929 -0.43252985842525027
958025 -0.8034047420073553 -0.4288230571150415
962928 -0.8070267711524314 -0.43024327285211256
967831 -0.8088162023716883 -0.43028224364247764
972734 -0.8107615396179536 -0.4294740274613096
977637 -0.8072516786237268 -0.4272291588266966
982540 -0.8114550597771848 -0.42459538561505705
987443 -0.8144741839530688 -0.4258336489425343
992346 -0.8159602120988484 -0.4236448886919623
997249 -0.8175729724645512 -0.42371910475237806
1002152 -0.8161812111699134 -0.4204841910528452
1007055 -0.8188593986589519 -0.4227759338912641
1011958 -0.8202889791429814 -0.4197210340364496
1016861 -0.8220080010586867 -0.416214150002415
1021764 -0.8204706860015019 -0.41563344852309203
1026667 -0.8234034485055515 -0.41251240688035357
1031570 -0.8269216546524605 -0.41274542677532744
1036473 -0.826037757472031 -0.4102495791672424
1041376 -0.8293740197098821 -0.4105593209386998
1046279 -0.8278388019810812 -0.4065452141923211
1051182 -0.8311918061042108 -0.40647666969204255
1056085 -0.8305048199458592 -0.40496693756214946
1060988 -0.8345097696534496 -0.4051670060798277
1065891 -0.8344383902099982 -0.4039559104629846
1070794 -0.8319712429498008 -0.39804049902463207
1075697 -0.8341452527681056 -0.3977811629186319
1080600 -0.8375979195883593 -0.3970467557959961
1085503 -0.8355508580599862 -0.3942620602049887
1090406 -0.8386786610182895 -0.391553337285866
1095309 -0.8412788253969896 -0.39103452972598307
1100212 -0.8407312499337675 -0.39265877824171097
1105115 -0.8409511241951116 -0.38862356072402315
1110018 -0.8419687534419519 -0.3872458519693519
1114921 -0.8423360384612031 -0.38445977885421156
1119824 -0.8405178931663521 -0.38910345927583057
1124727 -0.8448147894628447 -0.3840348766253108
1129630 -0.8447607335133782 -0.3804990509707672
1134533 -0.8470343659580261 -0.3806735282283282
1139436 -0.8446877246034813 -0.3827618238418266
1144339 -0.8490434715679632 -0.3765087140415992
1149242 -0.846734357489321 -0.37591798527317016
1154145 -0.8502742325747367 -0.3736920903035516
1159048 -0.8516792921622641 -0.37853610846418007
1163951 -0.854084342484375 -0.36992659994329463
1168854 -0.8500060810456268 -0.36970765887230395
1173757 -0.8537561647133438 -0.3687945910647722
1178660 -0.8521664539387936 -0.36747281171547813
1183563 -0.8523111650789096 -0.368085021230698
1188466 -0.8532500172708075 -0.3659190344893983
1193369 -0.855717026137497 -0.3645322136084507
1198272 -0.8561078328394274 -0.3639986333166009
1203175 -0.8571876962896092 -0.36221427098265696
1208078 -0.8580899855643254 -0.3594857220757253
1212981 -0.8578607379756463 -0.3570296851416424
1217884 -0.85573927945786 -0.3565498969104098
1222787 -0.8583444696491378 -0.3547537045509609
1227690 -0.8591487736616816 -0.35548721595451765
1232593 -0.8565082329886137 -0.35419320970854146
1237496 -0.8610214749693254 -0.35398494342806464
1242399 -0.8604243831310335 -0.35165572022876157
1247302 -0.864167146746751 -0.35453166823404186
1252205 -0.863225528694893 -0.35034014627011933
1257108 -0.865609048097298 -0.3451613918900336
1262011 -0.8637497945994053 -0.3491497133393181
1266914 -0.8665639332550358 -0.344722919939344
1271817 -0.863340248831585 -0.3472913032167681
1276720 -0.8648500046878776 -0.3435171112596549
1281623 -0.8654992148442244 -0.3426646739264109
1286526 -0.8638009526071995 -0.3403993134208058
1291429 -0.867767649648961 -0.34666640933932397
1296332 -0.8634275838699048 -0.33782512360696454
1301235 -0.8661278151615712 -0.3363979785155634
1306138 -0.8663669491158859 -0.33809120093695544
1311041 -0.865698792259027 -0.330624585440858
1315944 -0.8633158962977524 -0.3313702039982535
1320847 -0.8655337987192159 -0.3367386924781191
1325750 -0.8661890588051279 -0.33553242783295417
1330653 -0.8641916657632498 -0.33475471299133314
1335556 -0.8689254682991098 -0.33594087113824556
1340459 -0.8685879414801982 -0.3322813962728282
1345362 -0.867894724986736 -0.3323295709491029
1350265 -0.8706566512176317 -0.33158892556264263
1355168 -0.8721613989344615 -0.32672160652015786
1360071 -0.874341546571898 -0.32648734692148557
1364974 -0.8753530644819909 -0.327849881824179
1369877 -0.8764684423271453 -0.3259905795038709
1374780 -0.871431707281648 -0.3257313944173562
1379683 -0.8789479314177217 -0.3234873857487289
1384586 -0.8749271763089038 -0.3253603201597563
1389489 -0.8754185363737601 -0.32042305304320584
1394392 -0.8782144750277318 -0.32227098633315965
1399295 -0.8768451751155869 -0.3203779779001678
1404198 -0.8773989145588214 -0.3211510235480796
1409101 -0.8793178483893411 -0.31902780384412066
1414004 -0.8789645229933175 -0.31819861679236094
1418907 -0.8777246557089228 -0.31678377422413284
1423810 -0.8798743051558092 -0.31534952837295793
1428713 -0.8802017397175009 -0.3175428720769163
1433616 -0.8786762273304637 -0.3172808502739588
1438519 -0.8776071754101485 -0.31249656674959064
1443422 -0.8824526568183444 -0.31084055655739357
1448325 -0.8847859542993225 -0.30974439187391567
1453228 -0.8819688361923539 -0.3091041568118559
1458131 -0.880950211453626 -0.3114797573178992
1463034 -0.8840104949838481 -0.30742118680222563
1467937 -0.8821520547817756 -0.30609551252698736
1472840 -0.8840442058986371 -0.3053300501128565
1477743 -0.880277056697973 -0.30755172519721685
1482646 -0.8854402410770816 -0.3038354049190999
1487549 -0.8839725060638819 -0.30557531298152546
1492452 -0.8835080766201037 -0.3012436765043738
1497355 -0.88584109554159 -0.3006736802478055
1502258 -0.884105377100605 -0.30468878231072705
1507161 -0.8853999870113817 -0.29828184733063906
1512064 -0.889781104956502 -0.2987093613758614
1516967 -0.8886815610896743 -0.30114018302807233
1521870 -0.8873025501932952 -0.2974132890582367
1526773 -0.8856868005871483 -0.298519621930691
1531676 -0.8847696151416818 -0.2963212001500227
1536579 -0.8866533176896317 -0.2957207530613682
1541482 -0.8891753546361465 -0.295157670235056
1546385 -0.8892001533780498 -0.29529052514149
1551288 -0.8904696070299158 -0.2923727890511951
1556191 -0.886934579133145 -0.290050132570235
1561094 -0.8918994235643951 -0.29140894507405707
1565997 -0.888292936805839 -0.2957011992815534
1570900 -0.8935348186358836 -0.2870586959642249
1575803 -0.8903355932542386 -0.292234486368411
1580706 -0.8877198065036265 -0.2879861549541971
1585609 -0.8917143220976316 -0.2886045486874366
1590512 -0.8929575147472163 -0.2830557848533095
1595415 -0.8942446804114546 -0.2821286395984386
1600318 -0.8901530813617916 -0.2848000195374497
1605221 -0.8906291068149219 -0.28173506044053326
1610124 -0.8928858382661884 -0.28260472824824995
1615027 -0.8921446027606805 -0.28255031496385896
1619930 -0.8907037901938019 -0.28300288029547715
1624833 -0.8886375185709993 -0.28158860929150353
1629736 -0.8947563207189366 -0.28189230168926327
1634639 -0.8918229605657761 -0.2791750722419781
1639542 -0.8936154202586697 -0.27876263667933027
1644445 -0.8958186200124711 -0.2788426398935574
1649348 -0.8968188284264166 -0.27788935829689787
1654251 -0.8966118804076816 -0.2805371591619818
1659154 -0.8965797228144529 -0.27400978405608273
1664057 -0.8972353701709949 -0.2770422771919935
1668960 -0.8971243742259177 -0.2742312314499433
1673863 -0.8951110888367354 -0.2775425301537302
1678766 -0.8996060599006612 -0.2728380287385803
1683669 -0.900416481664075 -0.27462492930430293
1688572 -0.8946197259495805 -0.2711574104232336
1693475 -0.9008594435770151 -0.26881895226088454
1698378 -0.9032290594504502 -0.26947920069804726
1703281 -0.8947782778487091 -0.2708727330688577
1708184 -0.8941406741682948 -0.271685582359592
1713087 -0.8998960735466898 -0.26925852617867824
1717990 -0.8987286519618832 -0.26617052534784347
1722893 -0.9005416125571719 -0.2624868226374865
1727796 -0.9003369057704899 -0.26816878962349666
1732699 -0.8981497719275123 -0.2659374911703515
1737602 -0.8987886242874142 -0.26648080921771367
1742505 -0.9039229241407037 -0.2637683136415781
1747408 -0.9002506309059122 -0.26017059563895373
1752311 -0.8994665686220784 -0.2628979585103335
1757214 -0.9037827640115844 -0.2621133241614527
1762117 -0.8998930037395066 -0.2618915152056852
1767020 -0.8999760494751833 -0.2618926998781038
1771923 -0.90057854262684 -0.25802478521810346
1776826 -0.9010342944271444 -0.2618853621266872
1781729 -0.904339475377999 -0.2615734483567202
1786632 -0.9008022419975158 -0.25537944161648446
1791535 -0.9029185777925095 -0.25579722109261305
1796438 -0.9012347089741395 -0.259606243083561
1801341 -0.8993264054621277 -0.25814576249317683
1806244 -0.9028358388190058 -0.2540826936718887
1811147 -0.9030179466640909 -0.2508119933509987
1816050 -0.9041929676026798 -0.2555213811975604
1820953 -0.9027722997580575 -0.26097760768451256
1825856 -0.901095389215443 -0.2518632617253386
1830759 -0.9062471538037814 -0.25375510690894304
1835662 -0.9010040319095417 -0.252573942169328
1840565 -0.9024286663285244 -0.2537777026210681
1845468 -0.9054505073671225 -0.2519122087129683
1850371 -0.9062191797211508 -0.24972681497089153
1855274 -0.9016557712171664 -0.25430656571314647
1860177 -0.9024201915086875 -0.2506611871251782
1865080 -0.9058837700167887 -0.24633903882234742
1869983 -0.9002985231927818 -0.25304737129508903
1874886 -0.9032820892831882 -0.2496798939073593
1879789 -0.9112610073022455 -0.24919348013883066
1884692 -0.9050501616144926 -0.24504891320523461
1889595 -0.9066211643707152 -0.2448991852723936
1894498 -0.9049841285679314 -0.2429437863492722
1899401 -0.9095951275012136 -0.24792726183569264
1904304 -0.90459064303795 -0.24655719558956507
1909207 -0.9102355903453158 -0.24451243872543524
1914110 -0.9083010748738585 -0.24400269530443644
1919013 -0.9111148220022744 -0.24286079122652887
1923916 -0.9036137194367033 -0.24425106488516116
1928819 -0.9085729416602841 -0.24271581460256653
1933722 -0.9028800897929434 -0.23954171642255997
1938625 -0.9081148508430735 -0.24390971061086617
1943528 -0.9089902484231114 -0.24253516098789754
1948431 -0.9079773890553712 -0.23995208160890102
1953334 -0.909878110155135 -0.23978597330832183
1958237 -0.9081949707760233 -0.23965262308583685
1963140 -0.9064946713569698 -0.24309965504610487
1968043 -0.9081455993916202 -0.24270749685006426
1972946 -0.9050234803797454 -0.23967574642628736
1977849 -0.9097145929840966 -0.2378753023278904
1982752 -0.903776605228573 -0.23908752816903306
1987655 -0.9059597282302146 -0.23571601758860278
1992558 -0.9088591244153373 -0.233483376102636
1997461 -0.9109615967458108 -0.2369554960946078
2002364 -0.9100537963992786 -0.23762392478024388
2007267 -0.9052485665343306 -0.23391884873839433
2012170 -0.9097472919133599 -0.23372102531914554
2017073 -0.9089025026624781 -0.24322023880248259
2021976 -0.9095421530243919 -0.23407169711049985
2026879 -0.9100349376707082 -0.23087796390982318
2031782 -0.9119728185843089 -0.2301495793538523
2036685 -0.912669963643666 -0.23491208483537865
2041588 -0.9107390737316655 -0.23142214469419087
2046491 -0.9156327313005483 -0.23220679375074288
2051394 -0.9079197990725316 -0.2310565396656144
2056297 -0.915146382966133 -0.23063408162813695
2061200 -0.908388325460931 -0.22431620185227208
2066103 -0.9160402024885604 -0.22681368520101305
2071006 -0.9124388712697428 -0.2270483186273026
2075909 -0.916001834778897 -0.22615542272692582
2080812 -0.9090913240478122 -0.22481552788628717
2085715 -0.9095873164442051 -0.22419957240753158
2090618 -0.9144123711556549 -0.22776995471591432
2095521 -0.9078446726029609 -0.22514359697408426
2100424 -0.9147019992049353 -0.2222780797499911
2105327 -0.9103491478776603 -0.22419255958469922
