# HZ S RI R 50
100000 0.5289468974420887 -0.7204219033294699
104903 0.5027332463155956 -0.7366495563257976
109806 0.4734713306270647 -0.7512173825448977
114709 0.4434594633307093 -0.7672992176401802
119612 0.419636178850519 -0.779609750853421
124515 0.3897041330762853 -0.790292866897384
129418 0.35956099541886044 -0.8025376912796746
134321 0.3306550475059257 -0.8094476612009646
139224 0.3048466718331767 -0.8195489325036803
144127 0.27793207805314035 -0.8288474512387625
149030 0.24723455935890815 -0.8313924023625654
153933 0.21873431633483112 -0.8352485210632232
158836 0.19285339613921054 -0.8404211782460915
163739 0.16464251263026378 -0.841573937979898
168642 0.1370737212323547 -0.8377486315457592
173545 0.11281530542385945 -0.8386943739924758
178448 0.09007954127676457 -0.8335843093091806
183351 0.06173932082575843 -0.8259112853962984
188254 0.03528364408750421 -0.8180192247812561
193157 0.009881002001094 -0.8052639325300182
198060 -0.01231880564507185 -0.787465887035931
202963 -0.030551418661083823 -0.7598266107469732
207866 -0.028733208509990744 -0.7305369344607936
212769 -0.008382532155485019 -0.6982057891952557
217672 0.033547601669764095 -0.6925466793048581
222575 0.07542548909787535 -0.7366996218271848
227478 0.0643638980294684 -0.7884619211232012
232381 0.03589403495008302 -0.8171829005322363
237284 0.005897002233612017 -0.8319264716992929
242187 -0.02101428077847707 -0.8414726649157447
247090 -0.043553776119479144 -0.8436646415166493
251993 -0.06387568917535125 -0.8526470875977562
256896 -0.08477297835581492 -0.8505937107253241
261799 -0.10878428355329661 -0.8528331452538276
266702 -0.12648593003816752 -0.8509607538326948
271605 -0.14781879896285283 -0.8490109495546457
276508 -0.16353311157297107 -0.8496642220150594
281411 -0.1814790046336549 -0.8451613106516068
286314 -0.19749074875121284 -0.8402170330198007
291217 -0.2087868816711226 -0.8375584874233811
296120 -0.22522785151421634 -0.8345029239771584
301023 -0.23694957341997255 -0.8290551151226199
305926 -0.25239903264488694 -0.8235457761616474
310829 -0.2582607941403486 -0.8221908157083203
315732 -0.26868666458960994 -0.8198723942296146
320635 -0.28257504109786463 -0.8179054203277845
325538 -0.2932857605464949 -0.8133331418965939
330441 -0.30557713214511417 -0.8145056881125604
335344 -0.31758780198322134 -0.806229546421721
340247 -0.33089002076684604 -0.8074282919590611
345150 -0.3383822343373698 -0.8042676995100982
350053 -0.35261796019003205 -0.7996992653839247
354956 -0.3624463877992153 -0.7933138011527001
359859 -0.3741138488176753 -0.7877071381965784
364762 -0.38075084532169146 -0.7877601134846163
369665 -0.3890177241068728 -0.7799672402099511
374568 -0.39898841426470877 -0.7790993813535161
379471 -0.41133628667493444 -0.774004564561231
384374 -0.4197456967820042 -0.7738735491043331
389277 -0.4260926580091328 -0.7645235644647338
394180 -0.4360209359777389 -0.7622327033458873
399083 -0.44366766049828926 -0.7566974145056312
403986 -0.453112532152788 -0.7515155356642458
408889 -0.4600260567502246 -0.7518868272311129
413792 -0.4671794940859447 -0.7441147893459329
418695 -0.47417158526710274 -0.7403835542028304
423598 -0.48320761644140464 -0.7358623784897991
428501 -0.49299996401858137 -0.7315855841648365
433404 -0.49661550681299915 -0.7287957876064112
438307 -0.5070777044829069 -0.721427295131282
443210 -0.5089047774925478 -0.7200551977427981
448113 -0.5170307911423054 -0.7173659848729608
453016 -0.5221837805169243 -0.7133367094087626
457919 -0.5292002480408419 -0.7063285510019577
462822 -0.5344384707901855 -0.7036974205067876
467725 -0.539850151153852 -0.6966659954752702
472628 -0.5476138743838754 -0.695282157936323
477531 -0.5530016840291836 -0.6905755408209725
482434 -0.5582956532865231 -0.6837559662825639
487337 -0.5623076603982242 -0.6833468371321759
492240 -0.5697219639445954 -0.6764436056402678
497143 -0.5732061507045378 -0.6729148044405858
502046 -0.5789846500824457 -0.6681051916984967
506949 -0.5824110023301746 -0.665281399019226
511852 -0.5848446640858304 -0.662745327206016
516755 -0.5902429556520025 -0.6575965981385379
521658 -0.5987735824794602 -0.6566723812201039
526561 -0.5999399361902394 -0.6500019610760162
531464 -0.6060548058043399 -0.6465834766291522
536367 -0.613086398093276 -0.6415279868245942
541270 -0.613292393174235 -0.6349722501676118
546173 -0.6180765757044475 -0.6319682943956401
551076 -0.6243962220067777 -0.6274705541846897
555979 -0.6294457682475038 -0.6211501366181048
560882 -0.6304379970927406 -0.6160226491380943
565785 -0.6347643986704342 -0.606061724994679
570688 -0.6356719007383365 -0.5989107675453987
575591 -0.6305947410555792 -0.5935631721031208
580494 -0.6225248233977669 -0.5875637743209428
585397 -0.6164535497408129 -0.5916991570946347
590300 -0.619522783117588 -0.5960357047444989
595203 -0.6230342444478376 -0.603611912904241
600106 -0.6240975716691476 -0.6082049211765984
605009 -0.6325772268841213 -0.6101927034449515
609912 -0.6385735268103818 -0.6074384113886885
614815 -0.6472532324562681 -0.6081095577757769
619718 -0.6513628121521052 -0.6078153515552637
624621 -0.6587785928069382 -0.6033538939656619
629524 -0.6659997670189278 -0.6005087919108274
634427 -0.6683357538999035 -0.5968824528776733
639330 -0.6737577120336299 -0.5966119494480157
644233 -0.6778117152923675 -0.5871506176814728
649136 -0.6806543852727298 -0.587407143889927
654039 -0.6846974888256544 -0.5863772266311633
658942 -0.6942034993724571 -0.5801868334150624
663845 -0.6940965529469715 -0.5798200601229878
668748 -0.6974448717083518 -0.57272352020425
673651 -0.6964189141112972 -0.5729350292207662
678554 -0.702960955591738 -0.5656502058839701
683457 -0.7038133427042923 -0.5680823805886798
688360 -0.700336532772989 -0.5619551258806247
693263 -0.713080412763623 -0.5587155495062458
698166 -0.715816703687032 -0.5585508010871639
703069 -0.7161732816641473 -0.5558311234428271
707972 -0.7184519283248874 -0.5542666701556689
712875 -0.721777229480909 -0.5472390174211048
717778 -0.7278879771023062 -0.5488940897497996
722681 -0.7257616657821311 -0.541311577628039
727584 -0.7306238300932663 -0.5374834968719425
732487 -0.7322617677497978 -0.5353564637500183
737390 -0.7375890090315356 -0.5338443494134546
742293 -0.7374711542979953 -0.5320484799785543
747196 -0.7425866729114088 -0.5292192068940507
752099 -0.7431295006768016 -0.5280526804724437
757002 -0.7470338281898158 -0.5226713411288509
761905 -0.7474429933105218 -0.5203806586026428
766808 -0.7487639701089253 -0.5185660483001727
771711 -0.7495383500163084 -0.5200148470494045
776614 -0.7524086730449513 -0.5135680499469503
781517 -0.754683953938613 -0.5132449339670325
786420 -0.7574569140862469 -0.5105802320392118
791323 -0.7576241407639945 -0.5066739834059842
796226 -0.7621575722720989 -0.5040703517279668
801129 -0.7627319583835516 -0.5024960952312898
806032 -0.7642628971859539 -0.4975998274082876
810935 -0.7683645356774637 -0.49699158873911653
815838 -0.768409052196122 -0.49879897629035347
820741 -0.7680702316238294 -0.4915032316278977
825644 -0.771185484681709 -0.49141840422871846
830547 -0.7741008985988191 -0.4901755852921734
835450 -0.7787359113107951 -0.4852368028888891
840353 -0.7735355658068732 -0.4848709032085021
845256 -0.7759598222155498 -0.4816671167631968
850159 -0.7809465054128718 -0.47974376891992887
855062 -0.7801697078854779 -0.47862729941394894
859965 -0.781581472373769 -0.4761503576467535
864868 -0.7843517210670299 -0.4723027156129003
869771 -0.7873558279732691 -0.4727802195750228
874674 -0.7878464574908063 -0.46954638323077796
879577 -0.7866542598650413 -0.4673578378038039
884480 -0.78923164146599 -0.461505809365764
889383 -0.7927651919103675 -0.4597999411793908
894286 -0.7934173838057061 -0.45999305911025956
899189 -0.7970567675051802 -0.4556703838579144
904092 -0.7959286102483409 -0.45447640256060107
908995 -0.7968162082920176 -0.45240481970204655
913898 -0.79845895324203 -0.4497202327043482
918801 -0.8002159060020185 -0.44387072097186786
923704 -0.7986001620352072 -0.4452350173870858
928607 -0.8018094995672209 -0.44261067938329013
933510 -0.7995285454665516 -0.44259637502936383
938413 -0.8011107038040014 -0.43536609724759456
943316 -0.8000498604209575 -0.4330627215216223
948219 -0.8001547880890194 -0.43250500818903376
953122 -0.803252058435405 -0.4316070591507978
958025 -0.7958110946921497 -0.432887493332912
962928 -0.7986172596389767 -0.43272860986767775
967831 -0.8025404310385813 -0.4336311315989931
972734 -0.8025522337876756 -0.4333101572239182
977637 -0.8028200375180997 -0.43447534608708493
982540 -0.8037252146002054 -0.4288356707207257
987443 -0.8109173458856799 -0.43168965830262135
992346 -0.8099465580157489 -0.4294434008993348
997249 -0.8104880288270049 -0.42689415126581226
1002152 -0.811377833598455 -0.42626151029124504
1007055 -0.8147492913416078 -0.42743580168060047
1011958 -0.8162536748191729 -0.4260457045742937
1016861 -0.8204544858021127 -0.42105456000540553
1021764 -0.8227094707198425 -0.41963366011527276
1026667 -0.8219533673418349 -0.41673128281875094
1031570 -0.8256024878750541 -0.4190653426369529
1036473 -0.8211637577616041 -0.41417119880100106
1041376 -0.8278238890139615 -0.41422979570357477
1046279 -0.8281556940469407 -0.4114194067858554
1051182 -0.8268775252623163 -0.41367711958180675
1056085 -0.8313517275733245 -0.40890978112314
1060988 -0.8301156501071006 -0.40978040354502854
1065891 -0.8340851625800749 -0.40725980529364125
1070794 -0.8316503624759113 -0.4027916348110737
1075697 -0.8351458802972073 -0.40316775944309496
1080600 -0.8348848728525184 -0.4041715050630399
1085503 -0.8352080885939308 -0.4001699508657237
1090406 -0.8363162325830186 -0.3969390849234324
1095309 -0.8402044603382339 -0.39503991411206657
1100212 -0.8389745201321474 -0.3980278954354494
1105115 -0.8412708797717374 -0.3908988163452441
1110018 -0.8395534862964279 -0.39096018397748505
1114921 -0.8413674619606649 -0.3872020717554997
1119824 -0.8419823846463209 -0.39234616319770793
1124727 -0.8428419070378528 -0.38667116914674937
1129630 -0.8444815295190327 -0.38416822725038957
1134533 -0.8457113406534573 -0.3833825569014412
1139436 -0.8450422578527661 -0.3848963640263312
1144339 -0.845210102193364 -0.38096641381665747
1149242 -0.8484763561165226 -0.3805580403115736
1154145 -0.8510688673885562 -0.3767747913758451
1159048 -0.8505503764942779 -0.38173241174210687
1163951 -0.8518556722760535 -0.37481510791860406
1168854 -0.8488010698661044 -0.37294049362368387
1173757 -0.849460213033967 -0.37062002222595086
1178660 -0.8540828905323999 -0.37052396807488197
1183563 -0.8499014067147697 -0.3672523988323388
1188466 -0.8518291320727057 -0.3694715379624702
1193369 -0.8556189961552626 -0.37064419520910685
1198272 -0.8535011585381773 -0.36539618623347525
1203175 -0.8549959847892661 -0.3646647750592753
1208078 -0.8560797512100351 -0.35785847403867566
1212981 -0.8576607590462452 -0.3607620988335048
1217884 -0.8534430289870859 -0.35735345502227134
1222787 -0.8579289272080053 -0.3570352392243834
1227690 -0.8568695102715997 -0.3571121969257583
1232593 -0.8592206166873682 -0.3585723627610838
1237496 -0.8604678897563874 -0.35430210935001083
1242399 -0.8640855695618745 -0.35278534672308076
1247302 -0.862712245992722 -0.3554069500221101
1252205 -0.8627410910712066 -0.34861957874904803
1257108 -0.8639761376756121 -0.34796445365546574
1262011 -0.8614108746965722 -0.34771144112856844
1266914 -0.8615521664606852 -0.34815569329897456
1271817 -0.8640139410572099 -0.344209573038479
1276720 -0.8645985999123204 -0.3414550886291803
1281623 -0.864554645846554 -0.34142672078452063
1286526 -0.8625661770817155 -0.33875478628784417
1291429 -0.8632534439125059 -0.3406352332460323
1296332 -0.8634810357118166 -0.33708791909795116
1301235 -0.86441951434993 -0.33711858282570767
1306138 -0.8646322722991522 -0.33999449674539794
1311041 -0.8611684309317509 -0.3296146222797185
1315944 -0.8596240860266198 -0.33321374144297145
1320847 -0.8611067168508673 -0.33578280588106957
1325750 -0.8589922766171795 -0.33927802285166475
1330653 -0.8619619519772084 -0.3356529666533669
1335556 -0.8668878718104087 -0.33539141734534267
1340459 -0.8665731360988227 -0.33986011025070484
1345362 -0.8653121385473276 -0.33144111898166223
1350265 -0.8678742267775839 -0.3343022729120522
1355168 -0.869889266633857 -0.3339282729695982
1360071 -0.8706458315501099 -0.3291262494696856
1364974 -0.8747997781905957 -0.3297874091887945
1369877 -0.8733666765923439 -0.33047168159421353
1374780 -0.872667472023836 -0.33084540042875116
1379683 -0.8794706248334653 -0.3267896443939794
1384586 -0.8734541161722253 -0.32327124754960995
1389489 -0.8758586158169779 -0.3234620334583403
1394392 -0.8776436763361406 -0.32382161538166454
1399295 -0.8753318306799768 -0.32276419363734715
1404198 -0.8748235630964696 -0.3240175559289531
1409101 -0.8771196086843374 -0.3205707983176314
1414004 -0.8802541708843491 -0.3194778216575531
1418907 -0.876090801247468 -0.31854566057031874
1423810 -0.87783033637624 -0.3152267613856856
1428713 -0.8814729009261172 -0.3174944698368083
1433616 -0.8802673129633241 -0.3178923115837277
1438519 -0.8763535723856918 -0.312967125762493
1443422 -0.8790290438519607 -0.31071091316211014
1448325 -0.8843346729265822 -0.3115749832500392
1453228 -0.879792805562393 -0.3118193930297035
1458131 -0.8807598093194978 -0.3096916072846098
1463034 -0.8837128919967424 -0.30994585702049243
1467937 -0.8788379779783388 -0.3093531451973661
1472840 -0.8840565208253095 -0.30991601531452706
1477743 -0.8824965674722491 -0.3056001278589731
1482646 -0.8815103183596579 -0.3057423919480423
1487549 -0.8850938647176476 -0.30361504016149743
1492452 -0.885887606684069 -0.30254439651659004
1497355 -0.8856382707355047 -0.3002204019046732
1502258 -0.8807066198472586 -0.2994317839191928
1507161 -0.884925345884083 -0.29863865182351107
1512064 -0.8863835599586226 -0.300629478036118
1516967 -0.8873903843327859 -0.2992548054698049
1521870 -0.8862862605439062 -0.2990772799079332
1526773 -0.8847469295489819 -0.296007094605135
1531676 -0.8864214629615033 -0.29661535834474195
1536579 -0.8871433308958345 -0.29511726835888913
1541482 -0.8885532042642506 -0.29467656467841274
1546385 -0.8866437881011333 -0.29421089005015083
1551288 -0.8895609622804505 -0.2918056388410764
1556191 -0.8899755547187214 -0.29142472599387054
1561094 -0.890936928040454 -0.2899821749801949
1565997 -0.8880745437095273 -0.2878665425204067
1570900 -0.8938263847078654 -0.2886906223518277
1575803 -0.8893177834027026 -0.290795796592167
1580706 -0.886275559607086 -0.2849553202519374
1585609 -0.891757739417835 -0.2878981636183333
1590512 -0.8863092970807629 -0.28572556749106026
1595415 -0.8912218401601989 -0.284477695246876
1600318 -0.8875748841702955 -0.2840088142656606
1605221 -0.8912977421615954 -0.28331609197778107
1610124 -0.8888267920103965 -0.2853265956507792
1615027 -0.8902949487235174 -0.2829932154444964
1619930 -0.8889950060194491 -0.2837172869328044
1624833 -0.8903264599621047 -0.2810499083033085
1629736 -0.8943999415153909 -0.28019596243554123
1634639 -0.8930852810014682 -0.28283344193605603
1639542 -0.8939276482328693 -0.2791421941714996
1644445 -0.8945038450864218 -0.2793566053976362
1649348 -0.8960187748285154 -0.2787326379990177
1654251 -0.8963851417285119 -0.27991222046409325
1659154 -0.8980561816290883 -0.27503232365308145
1664057 -0.8965781679846746 -0.2768001888717493
1668960 -0.8986187109683822 -0.2729565935006893
1673863 -0.8975683137101163 -0.279086741143047
1678766 -0.8962807834603621 -0.273762536913066
1683669 -0.8995981846128682 -0.27566183703637204
1688572 -0.8948235120852887 -0.2739916602826385
1693475 -0.8997205147212883 -0.27019601453514197
1698378 -0.8978286803497765 -0.271973981488803
1703281 -0.8964914770977966 -0.26753695337056504
1708184 -0.8986299065007349 -0.2703785297905861
1713087 -0.8950218442425296 -0.27185284925598174
1717990 -0.8991587962788374 -0.2711919432048576
1722893 -0.8982540436958864 -0.26685391937381164
1727796 -0.900703059571706 -0.2678546838477356
1732699 -0.893207419305887 -0.2673919848315225
1737602 -0.9004806611235302 -0.26534449569339363
1742505 -0.9002232022675091 -0.2682021697356505
1747408 -0.8994819515501895 -0.2575134999008562
1752311 -0.8969243792652111 -0.26134805095888314
1757214 -0.9037429401253203 -0.2605600978313626
1762117 -0.8987985917384348 -0.261569203305976
1767020 -0.8948648531169444 -0.26030829645944537
1771923 -0.9022262319197375 -0.25461974145559696
1776826 -0.8993288267466969 -0.26160234221486006
1781729 -0.903834380052443 -0.2556289435194354
1786632 -0.8975015863477608 -0.25499076267098053
1791535 -0.9039423163078828 -0.25412665674840146
1796438 -0.90147710211849 -0.2573228505778276
1801341 -0.8986499246692179 -0.2508660332470009
1806244 -0.8990205736873548 -0.2543796156873173
1811147 -0.9028306150514319 -0.24929658078825043
1816050 -0.9055785956070018 -0.24918973725319543
1820953 -0.9053276748027532 -0.2541393037673233
1825856 -0.899744854112399 -0.25134336641108135
1830759 -0.8975229538747392 -0.25409028420467167
1835662 -0.8984361807984528 -0.2514557998242243
1840565 -0.8997570266278659 -0.2523714727440474
1845468 -0.9033251821742825 -0.2512736427978751
1850371 -0.9032614713120224 -0.24524239371168188
1855274 -0.9055739392077832 -0.2513563657902323
1860177 -0.9025326541144226 -0.24921666792167568
1865080 -0.9074257405238558 -0.2471649244971236
1869983 -0.8992362888651851 -0.2519970454723609
1874886 -0.9041621131666726 -0.249081768006405
1879789 -0.9089720121575111 -0.2499672101796454
1884692 -0.9048601594922507 -0.24632443474154914
1889595 -0.9034188517865824 -0.2445441973294894
1894498 -0.904668949730952 -0.23885464055068675
1899401 -0.9081469180311389 -0.24406326194495406
1904304 -0.9044280228260814 -0.24012456201704144
1909207 -0.9065401270637101 -0.24387593978752306
1914110 -0.9065321842047245 -0.24122238881251612
1919013 -0.9090091706416935 -0.24135950627312408
1923916 -0.9095840099539683 -0.23946852722239276
1928819 -0.9046317349586207 -0.2417597313526357
1933722 -0.9076369499254326 -0.23637087012353622
1938625 -0.9094352305618628 -0.23712505895657085
1943528 -0.906615866084735 -0.23912720838254173
1948431 -0.9049620384212729 -0.23536146618181597
1953334 -0.9117850628627197 -0.2345247641187706
1958237 -0.9068601730140726 -0.23613576436493536
1963140 -0.9032643612658334 -0.23785455647275963
1968043 -0.9060629155095139 -0.235595987009894
1972946 -0.9021162587606167 -0.2374507514087269
1977849 -0.9073856302060428 -0.2388917608144842
1982752 -0.9048464270535299 -0.23658363646879876
1987655 -0.906602725934122 -0.23193556705022433
1992558 -0.9059614176015075 -0.23598583772749612
1997461 -0.912838746772018 -0.23401959026990612
2002364 -0.9064499289065271 -0.23640357188084296
2007267 -0.906514899728124 -0.23387112457478357
2012170 -0.9089812493746222 -0.23094544954128374
2017073 -0.9075016205911239 -0.23358874319767928
2021976 -0.9099558173352589 -0.2346010966128203
2026879 -0.9106955460968654 -0.23172796174931798
2031782 -0.9100849337365756 -0.2318161082234694
2036685 -0.9135610679152679 -0.2325339033789298
2041588 -0.9097911269170584 -0.2302131813805473
2046491 -0.9167437187801624 -0.23008632630655976
2051394 -0.9105561625469552 -0.22833748107717627
2056297 -0.910620853278869 -0.22600886249168123
2061200 -0.9125976800410524 -0.22915880997502125
2066103 -0.9147472440459146 -0.22404027633790047
2071006 -0.9094058790384908 -0.22420711372572283
2075909 -0.9142450886408501 -0.2243118313698488
2080812 -0.9081457891629665 -0.22380891855274868
2085715 -0.9125113791384613 -0.22256921634480245
2090618 -0.9162948633217927 -0.22383409448317357
2095521 -0.9135996199352645 -0.22030201965341203
2100424 -0.9113702142194214 -0.22348550954897387
