# HZ S RI R 50
100000 0.5394884526134092 -0.7200707402651001
104903 0.513632992148387 -0.7368788194843044
109806 0.48546934019523 -0.7508088443759203
114709 0.4559006519183083 -0.7667469874349914
119612 0.43343059062648204 -0.7789786874999923
124515 0.4046266623549373 -0.7899427417017597
129418 0.3769272797262745 -0.8029025169669423
134321 0.3504743086669998 -0.8092388600649121
139224 0.32700563026678325 -0.8212347878798064
144127 0.3004853761677927 -0.8308242783297921
149030 0.274294030374439 -0.8352308321035109
153933 0.24887178981343558 -0.8408242860200832
158836 0.22805298892611436 -0.8471938827435413
163739 0.2041138927852947 -0.8528345730667943
168642 0.18188041418755033 -0.8541219013181536
173545 0.15941790192211777 -0.859685876623882
178448 0.13841392905483746 -0.8617949787728075
183351 0.11557443078693194 -0.8628635158695411
188254 0.09411809887078659 -0.8649810912650067
193157 0.07157430730803988 -0.8650701937454299
198060 0.05447288787791559 -0.8653438743583552
202963 0.03152257731841633 -0.8696592684927704
207866 0.013690132190986824 -0.8695152198090099
212769 -0.006849903945338374 -0.864541561558407
217672 -0.02305216469118759 -0.8651901083858718
222575 -0.03937198207404938 -0.8674551806130426
227478 -0.05593983611951226 -0.867161872075882
232381 -0.07375958725726629 -0.8649224209120822
237284 -0.09015190640935018 -0.863986087610715
242187 -0.10676728965906868 -0.8611893396950283
247090 -0.12176422992467396 -0.8560543187799541
251993 -0.13814887879088397 -0.8590825970407394
256896 -0.15282006632440379 -0.8548910557065579
261799 -0.16870034525797714 -0.8532657582262816
266702 -0.1834354437645068 -0.8494832022957196
271605 -0.19792999352366472 -0.8450503808383316
276508 -0.2106372263402171 -0.8415767611145574
281411 -0.22542501838754603 -0.8410118703412092
286314 -0.23746108621724255 -0.8370286925385076
291217 -0.24722184862457472 -0.8330473094146926
296120 -0.2622573156705492 -0.8294639374687717
301023 -0.27373493471909477 -0.8243141127667317
305926 -0.28888019437813534 -0.8235506174792026
310829 -0.29575396440034013 -0.8209107842345597
315732 -0.30704125940069654 -0.8177341007899148
320635 -0.32110407404388264 -0.8125773845920151
325538 -0.33088161451352077 -0.8060554177375946
330441 -0.33871523474455945 -0.8046767744480413
335344 -0.351972326208923 -0.7987645065648672
340247 -0.36222487973924283 -0.7978957402720604
345150 -0.3683166119399863 -0.7937658010469067
350053 -0.38098900029889093 -0.7872108191864928
354956 -0.3886020363934574 -0.7831626817141132
359859 -0.40059299073175575 -0.779086031403092
364762 -0.4068590566466651 -0.7771526430284106
369665 -0.4140981147249321 -0.7701699895965275
374568 -0.42251990547609225 -0.7688042790715891
379471 -0.43392587849145786 -0.7626216816979583
384374 -0.44161636552506406 -0.7649630760252656
389277 -0.4463278265799162 -0.7555625642542919
394180 -0.45932508662647265 -0.7529611381675514
399083 -0.46420269081799115 -0.7488499760089354
403986 -0.4725563145632678 -0.7411722511927338
408889 -0.47486090826110994 -0.7415856044203843
413792 -0.4851739009079858 -0.7325341290776078
418695 -0.4920088685185646 -0.7312890887988294
423598 -0.49849579983200787 -0.7268530447481822
428501 -0.5081496555386971 -0.7220573335721074
433404 -0.5119334844253676 -0.7187507736703581
438307 -0.5212997242369101 -0.7135950191591712
443210 -0.5229671619911767 -0.7130580319060734
448113 -0.5290103774548521 -0.7088563182582327
453016 -0.535693659850755 -0.7074166381802849
457919 -0.540901264590789 -0.6988478842781735
462822 -0.5469381989147264 -0.6947401992355213
467725 -0.5522223414572275 -0.6888748263422291
472628 -0.5610800650462977 -0.6892189149025628
477531 -0.5646573927853966 -0.685162913549021
482434 -0.5663452389913006 -0.6774967145095233
487337 -0.5750630502910863 -0.6799352457719444
492240 -0.5799386618175958 -0.6710953213364756
497143 -0.5830998934680722 -0.669635705304757
502046 -0.5883182780754527 -0.6652299522585905
506949 -0.5910090567483224 -0.6628533649283508
511852 -0.5948088868446689 -0.6586367172594882
516755 -0.6012257456765028 -0.6543672887807714
521658 -0.6077813249390636 -0.6545010207573891
526561 -0.6094516058455449 -0.6504859555129942
531464 -0.6155910096533738 -0.6446598045139443
536367 -0.622175933771915 -0.6425660436497745
541270 -0.6228631471228046 -0.6364109596907112
546173 -0.6249712300809653 -0.6382655432843057
551076 -0.631765863870268 -0.6323871670027961
555979 -0.6372512755394366 -0.6303118218233166
560882 -0.6369716080076756 -0.6255176191476752
565785 -0.6435733707411855 -0.6206657914848314
570688 -0.6480515970114569 -0.6184982012298155
575591 -0.6536884830985823 -0.6173975024522393
580494 -0.6524130785434865 -0.6088393841299801
585397 -0.6553038031451828 -0.6078378103883291
590300 -0.6600460858619696 -0.606744075298973
595203 -0.6655089321746843 -0.6030464973299025
600106 -0.6661039075913605 -0.6015633814604887
605009 -0.6743614280236095 -0.5990089877924609
609912 -0.6752465713259704 -0.5954495851103699
614815 -0.6769809243739416 -0.5910731646669874
619718 -0.6808769416355623 -0.5894349939259639
624621 -0.6827839167684491 -0.5839770921552677
629524 -0.6882258791261062 -0.5847776363608223
634427 -0.6899185292166987 -0.5811847862589873
639330 -0.6952955571134154 -0.5777434855489602
644233 -0.6980503888453462 -0.5756168321167381
649136 -0.6960886919877983 -0.5744219498493438
654039 -0.6996391802958927 -0.5686861386484122
658942 -0.7106186030404995 -0.5658064897003233
663845 -0.7098584456247208 -0.565373216073425
668748 -0.7086248274895278 -0.5578017284177625
673651 -0.7132104492918514 -0.560142142153016
678554 -0.714618515591985 -0.5525653131276681
683457 -0.7187279428992573 -0.5534391350427023
688360 -0.7179065298907491 -0.5482609454906673
693263 -0.7285838293053366 -0.5479275814006384
698166 -0.7269695458648509 -0.5435363440259293
703069 -0.7306480291963884 -0.5392697817346228
707972 -0.7299403480664102 -0.5390737619683308
712875 -0.7325065343904937 -0.5362529708062233
717778 -0.7343676103052672 -0.5359260310244822
722681 -0.7367292802901113 -0.5314486552701417
727584 -0.7368019827938922 -0.5318248687028674
732487 -0.7395422175657104 -0.5255061708410973
737390 -0.7445642150416273 -0.521820137005338
742293 -0.7459332775901367 -0.5205765345726396
747196 -0.749553021423847 -0.5194884667415045
752099 -0.7516384140844893 -0.514274654296798
757002 -0.7528691608632283 -0.5118772343709188
761905 -0.7527034527332859 -0.5115343619280981
766808 -0.7558421361270429 -0.5077990384560029
771711 -0.758716102766017 -0.506313180610117
776614 -0.7593323434421926 -0.5047521570889675
781517 -0.7616829739419831 -0.5019393226222465
786420 -0.7668967170600786 -0.49887286968784095
791323 -0.7694136325486789 -0.4990628209408053
796226 -0.7691676744200926 -0.4940720094876325
801129 -0.77047936505192 -0.49338590091442264
806032 -0.7722126905495051 -0.48889788855957367
810935 -0.7743153578312865 -0.49151637274755894
815838 -0.7724015000958578 -0.48953248280566714
820741 -0.7731522507495313 -0.4877646038192261
825644 -0.7769233939718587 -0.48337237938471356
830547 -0.780152361879477 -0.4841153126831641
835450 -0.7849811345553442 -0.4798263448232962
840353 -0.7779378198516829 -0.47987716361109717
845256 -0.7822812438955795 -0.47381140778259645
850159 -0.7872057459038756 -0.4734337751908742
855062 -0.7845224604828392 -0.47218490329230806
859965 -0.7906004926798175 -0.468752356325617
864868 -0.789304051795765 -0.46640003571203575
869771 -0.7907695079551437 -0.466402637897879
874674 -0.791799664581308 -0.46288391689532127
879577 -0.7902931415372089 -0.4614000352086613
884480 -0.7946155692872471 -0.45836593334379416
889383 -0.7951647235721306 -0.45716305180627487
894286 -0.7984467331284942 -0.4562334002411775
899189 -0.801146329100391 -0.45270300495927657
904092 -0.80210776146084 -0.4516353935246765
908995 -0.8010165824616479 -0.4487574415531223
913898 -0.8056787279332266 -0.4485564503435782
918801 -0.8032319594889947 -0.4469476799729338
923704 -0.8055634405886977 -0.4441098011230186
928607 -0.8085050277174035 -0.4433766977500463
933510 -0.8068288004586781 -0.4414018683675626
938413 -0.8088434080740713 -0.4367964439255863
943316 -0.8093313150942174 -0.43853991894995253
948219 -0.8147703275988557 -0.4356730085004132
953122 -0.814742233371131 -0.43154867629375154
958025 -0.8103438811634617 -0.4325113885781514
962928 -0.8158092202874809 -0.42899354129905903
967831 -0.8182177358461497 -0.43192314587887437
972734 -0.8159829227950972 -0.4267520616130733
977637 -0.8159908764363052 -0.425275729017786
982540 -0.819218444873004 -0.4215930246717421
987443 -0.8230575943698983 -0.4224476354544242
992346 -0.8209433642871957 -0.41689428369955345
997249 -0.823717481278967 -0.4216675857863345
1002152 -0.8248854834240144 -0.41915442176285733
1007055 -0.8226614709522538 -0.417826643569143
1011958 -0.8275798411047043 -0.4135738523170025
1016861 -0.8290422211191409 -0.41350523125938154
1021764 -0.8304982111028874 -0.4119785585445726
1026667 -0.824616664203802 -0.4091945122569726
1031570 -0.8273785349332193 -0.4100034198392266
1036473 -0.8275576459539343 -0.40591480869862406
1041376 -0.8330949389618733 -0.40827036352667073
1046279 -0.8299299804060888 -0.40458431335852607
1051182 -0.8329897922351641 -0.4014271535377211
1056085 -0.8356219396793739 -0.4038896709291305
1060988 -0.8329478726546025 -0.40344330112287946
1065891 -0.8393550544260228 -0.3989422064418976
1070794 -0.8349795497811588 -0.39729928536018627
1075697 -0.8397326037680802 -0.39707769265294657
1080600 -0.839008129429145 -0.3919177246450304
1085503 -0.8374744956898701 -0.39331506305772673
1090406 -0.8428416049958872 -0.388294786707615
1095309 -0.8401083867478878 -0.3892122733062669
1100212 -0.8437171778673618 -0.3910716707910953
1105115 -0.843258027986073 -0.3863051354187865
1110018 -0.8429343399633743 -0.3869044145610806
1114921 -0.8433199089066177 -0.38348005849092626
1119824 -0.8434368973049157 -0.3865495637210732
1124727 -0.8464629437408898 -0.38086053972269085
1129630 -0.8471351091336696 -0.37730597032361646
1134533 -0.8490438006706653 -0.38025762322850687
1139436 -0.8486629282251029 -0.3819468369337039
1144339 -0.8486173989616966 -0.3759770540845117
1149242 -0.8488337079445697 -0.37665967118400906
1154145 -0.8515457839335231 -0.37540670234394086
1159048 -0.8494040978230885 -0.37636051132818565
1163951 -0.8524109752026217 -0.37296166019147076
1168854 -0.8523634947108134 -0.3707101695113401
1173757 -0.8534075462996478 -0.36697021321957
1178660 -0.8519716509329548 -0.36681190385429485
1183563 -0.8520305364307879 -0.36800863015542573
1188466 -0.8528381369693576 -0.36445493774591153
1193369 -0.856341209447194 -0.3672181792178577
1198272 -0.8565679729170155 -0.36487790081071964
1203175 -0.8586099959453181 -0.36122199155423623
1208078 -0.8586758161841592 -0.3565030829321092
1212981 -0.8552842130118239 -0.35608113897103383
1217884 -0.8575471409452993 -0.35852818914197093
1222787 -0.862377512370726 -0.35641716148587244
1227690 -0.8615786582859404 -0.35621914100608476
1232593 -0.8626684976030532 -0.3558782513232225
1237496 -0.864019467169944 -0.3555062085452036
1242399 -0.8637193914818037 -0.3525222058829605
1247302 -0.8610783411261654 -0.3553718626541599
1252205 -0.8629605449832141 -0.3499753175965922
1257108 -0.8678450551658475 -0.3499759005549399
1262011 -0.8647382988595467 -0.3488490835707011
1266914 -0.8669796538481187 -0.346104806637541
1271817 -0.8649104776676313 -0.3507617045590914
1276720 -0.868700958487799 -0.3450975422324174
1281623 -0.8662286554628502 -0.34406039026431867
1286526 -0.8674266284328798 -0.34195652677903576
1291429 -0.868735383695858 -0.3438175210289525
1296332 -0.8681029185235698 -0.33927495458023765
1301235 -0.8697602261983416 -0.3387910029739708
1306138 -0.8709370333878139 -0.34384174743500934
1311041 -0.8674484450536434 -0.33799770831410486
1315944 -0.8676116156473069 -0.3343476520381758
1320847 -0.8701596201481527 -0.3372071944688421
1325750 -0.8697743064950294 -0.33660666908371223
1330653 -0.8715158315040311 -0.3314260788999064
1335556 -0.8738506967272855 -0.33075495589129195
1340459 -0.8742726167299335 -0.3337141123531766
1345362 -0.8727593520059059 -0.3292456471664731
1350265 -0.871274440588241 -0.32871582616440786
1355168 -0.8746547124862118 -0.3302766822686567
1360071 -0.8760573747440736 -0.3260276604461545
1364974 -0.8743241359103512 -0.32599486949413253
1369877 -0.8795448647232796 -0.3260251167054627
1374780 -0.8764768511393194 -0.32714750377825697
1379683 -0.8794668224636057 -0.3238700635316841
1384586 -0.8773223361071588 -0.32344726163497267
1389489 -0.8792188766490447 -0.32278909383699994
1394392 -0.8783766101279513 -0.323749131395797
1399295 -0.8798489760544634 -0.321764029096992
1404198 -0.8784772858592594 -0.3244309127002051
1409101 -0.8795495609166897 -0.3180890903693533
1414004 -0.8815614522087131 -0.31741053034471184
1418907 -0.8801441652060811 -0.3197020695936197
1423810 -0.8824709919090876 -0.3144033974924705
1428713 -0.8846140730243787 -0.3168863685321879
1433616 -0.8822741246449746 -0.32050648064227216
1438519 -0.8790234391074428 -0.31447572103894644
1443422 -0.8853144009398063 -0.31340851835329514
1448325 -0.8851023914287488 -0.3131387755534467
1453228 -0.8812047558397333 -0.31251936368709804
1458131 -0.883237812882228 -0.3089926204624608
1463034 -0.8862736013782471 -0.3111911544049231
1467937 -0.8830486289926536 -0.30847559654561624
1472840 -0.8827221847319887 -0.3064813960557782
1477743 -0.8818662043584294 -0.3083293538717022
1482646 -0.8850723747594713 -0.30694397462347206
1487549 -0.8851817201487711 -0.3069895991024124
1492452 -0.8889109746404612 -0.3042762256836853
1497355 -0.8874858167067616 -0.3024375002661568
1502258 -0.8896654025138288 -0.3037013307221668
1507161 -0.887949630641323 -0.3037425246574796
1512064 -0.8880903988547119 -0.300716539958467
1516967 -0.8890906473311458 -0.2979715449812889
1521870 -0.8878283874646684 -0.2991072660129653
1526773 -0.8878999545519558 -0.30037451318216635
1531676 -0.8880219862572418 -0.296164111076138
1536579 -0.8908103431720328 -0.2951384788822961
1541482 -0.8899066807088567 -0.3017392584065703
1546385 -0.8921868947413109 -0.2952829639121577
1551288 -0.8928800960692457 -0.29531448495315077
1556191 -0.8924476357269765 -0.2928737303587536
1561094 -0.89651427373996 -0.2918150212123621
1565997 -0.8914371010510931 -0.2906613218754306
1570900 -0.8975998267216679 -0.29315468181488186
1575803 -0.893501585147338 -0.2949435080389889
1580706 -0.8900771380852667 -0.2938605118131764
1585609 -0.8933104767397761 -0.29127872783859904
1590512 -0.8900603224337597 -0.2847769910211022
1595415 -0.8961984955242684 -0.28880303347117947
1600318 -0.8903644680282674 -0.2906033347599256
1605221 -0.8960195428360169 -0.28684150776327516
1610124 -0.89469044405006 -0.2889922023521659
1615027 -0.8952207924293653 -0.2869610300103106
1619930 -0.8931540996197316 -0.2864340461759757
1624833 -0.896049762462612 -0.2823297285209783
1629736 -0.8976171790391079 -0.2839869878394474
1634639 -0.89608576093993 -0.27876554463946046
1639542 -0.8978247510643054 -0.2831828026291399
1644445 -0.8998387746127454 -0.28345273285497663
1649348 -0.8962726095523603 -0.2812301554963624
1654251 -0.8987519762140435 -0.2812350426783143
1659154 -0.8967333358079215 -0.2797415584918729
1664057 -0.9002557776904915 -0.2757111796720714
1668960 -0.9007894174806141 -0.2763288508962271
1673863 -0.8970906730405744 -0.2800348005406257
1678766 -0.8995311770333888 -0.2796218471974688
1683669 -0.90069202696538 -0.27583540256705114
1688572 -0.8990891282230314 -0.2789406599730474
1693475 -0.9030902039598999 -0.27452792174375534
1698378 -0.9011880359894963 -0.27282129450018483
1703281 -0.8988233701285978 -0.27593634864875444
1708184 -0.9000241011500282 -0.27584150169578125
1713087 -0.9005716007711337 -0.275531771264394
1717990 -0.9021788913629979 -0.2725333177474021
1722893 -0.9016198979483249 -0.2714937975835555
1727796 -0.9024539089015208 -0.2694693532336178
1732699 -0.900239159273498 -0.2693082504360236
1737602 -0.9030233830450433 -0.2686106308487674
1742505 -0.9016250648466715 -0.2680829264392492
1747408 -0.9049320446052347 -0.26609886659229726
1752311 -0.9006133047245469 -0.2681641951412702
1757214 -0.9048007742400264 -0.26815479958404254
1762117 -0.9024631221096144 -0.2690302511067174
1767020 -0.9049650515203698 -0.26663636164320914
1771923 -0.904992566201531 -0.26552269947950646
1776826 -0.9037672443331335 -0.26818375460288224
1781729 -0.9074818937034131 -0.26559198418587043
1786632 -0.9023363544061319 -0.26362077441824394
1791535 -0.9048851542058202 -0.2644157017668303
1796438 -0.9049752130924823 -0.2676325592016479
1801341 -0.9023030054701797 -0.2633929821433775
1806244 -0.9040472694604239 -0.2608494184523907
1811147 -0.9071153706600796 -0.25784483841847394
1816050 -0.9098304998376183 -0.25915266517247587
1820953 -0.9101968484503989 -0.25906079522301856
1825856 -0.9051979368933046 -0.2602726363283977
1830759 -0.9076855626866585 -0.25884990494805793
1835662 -0.906315806177321 -0.2561764843061928
1840565 -0.9067065611138163 -0.2583980355068502
1845468 -0.9104135831144056 -0.25289716862748973
1850371 -0.904111956151895 -0.25741457769571685
1855274 -0.9082332591377187 -0.2567226548482724
1860177 -0.9043309115896437 -0.25259490502713755
1865080 -0.9116857825029085 -0.252751202975435
1869983 -0.9049520218896585 -0.2565275293803964
1874886 -0.906496614271415 -0.2532196430548852
1879789 -0.9101001859654907 -0.2563135019257828
1884692 -0.9075409505819206 -0.2535608015761001
1889595 -0.9072859543487398 -0.2547285638445188
1894498 -0.908909899201345 -0.2500497891726807
1899401 -0.9120282182638592 -0.25166005048412077
1904304 -0.9120428049254516 -0.24976617372321847
1909207 -0.913404695115369 -0.24930154160865725
1914110 -0.906809008171229 -0.2508335050338365
1919013 -0.9126012222109152 -0.24995945590676424
1923916 -0.9074212651313607 -0.24974096791879963
1928819 -0.9129464953829333 -0.24869705361235964
1933722 -0.9127269928460795 -0.2469191688615167
1938625 -0.909707067898306 -0.24510656230192351
1943528 -0.9126458708467015 -0.24901931270130706
1948431 -0.9084152697240984 -0.25054805440476513
1953334 -0.9138726342467881 -0.2465638733194979
1958237 -0.9102667463236258 -0.24539078283851434
1963140 -0.9144606983847309 -0.24597117300463567
1968043 -0.9115161865760426 -0.24617106616500892
1972946 -0.9124792712458005 -0.24031695666570363
1977849 -0.9126708426568658 -0.2447722653415108
1982752 -0.9120214613935185 -0.24192386796735263
1987655 -0.9147003508482485 -0.24085667892957957
1992558 -0.9137836405207099 -0.24190250797328666
1997461 -0.9162982586566323 -0.24134568873076562
2002364 -0.9149792746483717 -0.24264763952624852
2007267 -0.9146230178742352 -0.23965302315529888
2012170 -0.9149018355409659 -0.23917694326278335
2017073 -0.9117506839403735 -0.23782094881830537
2021976 -0.9132561828344082 -0.2398287275015087
2026879 -0.9159288170914333 -0.23866116140801286
2031782 -0.9148196473731557 -0.24138982414375362
2036685 -0.9140968392930126 -0.23904557522188777
2041588 -0.9122944673065012 -0.23808009214848186
2046491 -0.9206746979960272 -0.2394820510358929
2051394 -0.9131141176917316 -0.2365022463252792
2056297 -0.9162768415499202 -0.23639894364695635
2061200 -0.9133963713656527 -0.23449924360726063
2066103 -0.9175321353318512 -0.23335794691397807
2071006 -0.9141947042775345 -0.2366761534317468
2075909 -0.9194629360174619 -0.23512384587312124
2080812 -0.9080435342851291 -0.23363975199682713
2085715 -0.9194881117757153 -0.23419747460452786
2090618 -0.917352342202611 -0.2362277467848852
2095521 -0.9158173293362407 -0.22949213131655727
2100424 -0.911371892763529 -0.23404815713464838
2105327 -0.9162435298192181 -0.23426642625849534
