# HZ S RI R 50
100000 0.5211048009991286 -0.7162329599862142
104903 0.4934845368928661 -0.7345027270232576
109806 0.4643482443562875 -0.7487990181360178
114709 0.43051093576589106 -0.7665370443467393
119612 0.40284190032669 -0.7769944441203538
124515 0.37400925698748066 -0.787857532509252
129418 0.34309744945238513 -0.8000879250898
134321 0.3111150732828952 -0.8061586435201926
139224 0.2803568455323676 -0.8160695372906608
144127 0.24601846087756088 -0.8186435026719339
149030 0.21662033562831562 -0.82330461439409
153933 0.18353692768100485 -0.8249162039358866
158836 0.15165536033815333 -0.8273509535886121
163739 0.1165037619286749 -0.8213117771096471
168642 0.0830104897269675 -0.8119865774447425
173545 0.05550849207643857 -0.8008917657260265
178448 0.027187770180789012 -0.7856657409723319
183351 -0.00389025024620326 -0.7668596507133839
188254 -0.033321753868441724 -0.7418779031907622
193157 -0.05838935565606033 -0.7095760658517662
198060 -0.07780909128086344 -0.6656440639211164
202963 -0.08105770793801256 -0.602754722097827
207866 -0.042944772292402955 -0.5479910990694642
212769 0.022306880953016247 -0.503178235843148
217672 0.1219441012598486 -0.5023463091454845
222575 0.2077267700101588 -0.5867226613963551
227478 0.2076599939234461 -0.6874188407902486
232381 0.17201571529118964 -0.7467894307834756
237284 0.1343285454250964 -0.783105618088573
242187 0.09588594514964117 -0.807405289995214
247090 0.0664408503904366 -0.8188305676116224
251993 0.0418030454176379 -0.8333694987198822
256896 0.01374312445200238 -0.8403689081915906
261799 -0.012840345537534485 -0.849891322827662
266702 -0.04152182259758582 -0.8532065817851047
271605 -0.06699112340814464 -0.8523608515767341
276508 -0.09003743244681857 -0.8554541666963418
281411 -0.11116503912711319 -0.8509590337763328
286314 -0.131795619651992 -0.8490481244712483
291217 -0.14659636415887975 -0.8434630253352405
296120 -0.164510118787117 -0.8401672636576426
301023 -0.17789592689956224 -0.8352693063877235
305926 -0.19393199747565235 -0.8299585157078305
310829 -0.20072117419950125 -0.8278041537353183
315732 -0.2114669483077425 -0.827231390414667
320635 -0.2248354531953664 -0.8261455427360974
325538 -0.23691056228192656 -0.825368211320098
330441 -0.2508616438001009 -0.8275758514663969
335344 -0.26757312026460944 -0.8239666010852377
340247 -0.28114596176104856 -0.8231746730809762
345150 -0.2930844548247258 -0.8195334354874975
350053 -0.3076373298701051 -0.8147441054704928
354956 -0.3168888171575419 -0.8110903510016502
359859 -0.3330712463803382 -0.8069042951460617
364762 -0.33954017889566784 -0.8028998938578947
369665 -0.3494835922424377 -0.7966073157282167
374568 -0.3621866451117708 -0.7956252805919929
379471 -0.3717736171627569 -0.7908164492006782
384374 -0.38070578314378206 -0.7885719366090468
389277 -0.39109670125290913 -0.7819031159377556
394180 -0.4021812804419685 -0.7769218579859979
399083 -0.40912651023476937 -0.7733638424505224
403986 -0.4205460481901583 -0.7676700473335614
408889 -0.42465595536407197 -0.7694433918725203
413792 -0.43344117450423814 -0.7592373523994954
418695 -0.444632693118234 -0.7538133381014734
423598 -0.45471134815597275 -0.7504953128156953
428501 -0.46272430156827804 -0.7457126792843712
433404 -0.4663833309222245 -0.743371508469139
438307 -0.47945250241534976 -0.7367301435924325
443210 -0.4819606487409611 -0.7368587253570729
448113 -0.4910374957093779 -0.7309952021224064
453016 -0.49719432966992416 -0.7243104581000455
457919 -0.5046995613181517 -0.7200656196258787
462822 -0.5125654204836012 -0.7163936797135514
467725 -0.5193845283579074 -0.7103850351876653
472628 -0.5261167477043898 -0.7072520908437644
477531 -0.5316604488208316 -0.7028206794306039
482434 -0.5372701912952151 -0.694113481479542
487337 -0.5417846903484822 -0.69348912855554
492240 -0.5498291946789164 -0.687276200168407
497143 -0.5557155373620883 -0.6832364053700647
502046 -0.5621818533958743 -0.6766507951359078
506949 -0.5640496674615895 -0.674299753700028
511852 -0.5682948591550663 -0.6675903059901241
516755 -0.5779574180471078 -0.6604487490144039
521658 -0.5837619150661065 -0.6593531158828034
526561 -0.5869954539737843 -0.649976978025747
531464 -0.5911773558515492 -0.6433576634256344
536367 -0.599961712282836 -0.6367624368257302
541270 -0.6037408320469969 -0.6299571481805828
546173 -0.605869339432506 -0.625384866324883
551076 -0.6088297603706777 -0.6131381859243225
555979 -0.6118005580968456 -0.5997774767382175
560882 -0.6074793830932804 -0.5887283186953863
565785 -0.6029502416103029 -0.5752607506178778
570688 -0.5922941992863943 -0.5620180771332458
575591 -0.5770416897085837 -0.560520812833184
580494 -0.5534070641655214 -0.5649262770604249
585397 -0.5439694597684549 -0.5842143583538186
590300 -0.5454356523543945 -0.605995332527246
595203 -0.5552153645603077 -0.6210745329435239
600106 -0.5660303618076363 -0.6290237119301418
605009 -0.5796194690571882 -0.6354330213213049
609912 -0.5893209823354183 -0.6377227165884478
614815 -0.6012498537315821 -0.6352063455685507
619718 -0.610311507569818 -0.6344933727231407
624621 -0.6192804976999621 -0.6306379169559692
629524 -0.6285304161628488 -0.6280818335949608
634427 -0.6363650970958842 -0.6254085012774211
639330 -0.6433337108629146 -0.6217752484301272
644233 -0.6481144216705964 -0.6136735203876962
649136 -0.6528684958483316 -0.6154683176068388
654039 -0.657998202528648 -0.6087932879441057
658942 -0.6660190573015455 -0.6052071874077489
663845 -0.6680281590818296 -0.6024864050710178
668748 -0.6700894830591138 -0.5977272435699357
673651 -0.6735562484017859 -0.5944357251338452
678554 -0.6793953762403531 -0.5912308376599884
683457 -0.6813482498614132 -0.5895873932297024
688360 -0.6819353509886589 -0.5836401090299096
693263 -0.685886503666672 -0.5810478581495376
698166 -0.6934967690084262 -0.5796959117191964
703069 -0.6929994933782165 -0.577130331055196
707972 -0.6978295924700909 -0.5769621515387248
712875 -0.6999123020771394 -0.5725069483924811
717778 -0.708680800377896 -0.5670780699001678
722681 -0.7074134301632946 -0.5621159209491767
727584 -0.7114055419835529 -0.5613198144159135
732487 -0.713567229434489 -0.5593877387741357
737390 -0.7181582679596427 -0.5541272464706843
742293 -0.7237633499179541 -0.5530316360110025
747196 -0.7229922415006145 -0.5454011393283058
752099 -0.7262775812879608 -0.5457493365425319
757002 -0.7280069489890053 -0.5424573007874492
761905 -0.7322859774307391 -0.5399144904400208
766808 -0.7323225492388069 -0.5376783880961672
771711 -0.7352687935687781 -0.5328758406851345
776614 -0.7325358501102432 -0.5325294427992804
781517 -0.7437031694922405 -0.5298698590962695
786420 -0.7440140146183115 -0.5249058279016867
791323 -0.7468107706135 -0.5244293201164947
796226 -0.7473498863611424 -0.5201380303573333
801129 -0.7471569014013376 -0.5187995631165426
806032 -0.7508208832062019 -0.5149095585235822
810935 -0.7519891004700392 -0.5139105338107248
815838 -0.7546476406361056 -0.5116049517070849
820741 -0.7533935555424871 -0.5060949355998108
825644 -0.7577579709923491 -0.5031174784889054
830547 -0.7622071242406351 -0.5040113894820849
835450 -0.7650081886003249 -0.5002260024968759
840353 -0.7593276620217868 -0.4999815059234795
845256 -0.765090312153453 -0.4943805874218751
850159 -0.76779252693067 -0.492257907844923
855062 -0.7684363195413653 -0.4913749086884953
859965 -0.7737043403516168 -0.4868256374757589
864868 -0.7727980201610468 -0.4836315415066282
869771 -0.773750002721457 -0.4828372242349211
874674 -0.776790130161555 -0.4788719976046361
879577 -0.7770348803453864 -0.4751375383570934
884480 -0.7776949755215317 -0.4725254263190267
889383 -0.7828196433922807 -0.4665762568985071
894286 -0.785144246150278 -0.46498723675921394
899189 -0.7840664420465857 -0.4622139450049522
904092 -0.7863462040617694 -0.45717745561959117
908995 -0.7858977830633785 -0.45415826342318627
913898 -0.7852377855348066 -0.45328492335703013
918801 -0.7864834427222812 -0.4466848217461417
923704 -0.7838009930047907 -0.44190893778670237
928607 -0.7838266931501551 -0.44139684798523515
933510 -0.7777963690359015 -0.4393805882508486
938413 -0.7747607528736017 -0.43348711090536224
943316 -0.7699368614750666 -0.4368670057954237
948219 -0.7676449220348944 -0.44108981311808093
953122 -0.7715539157412106 -0.4445693125789006
958025 -0.767302319327645 -0.4473658383857983
962928 -0.7736008838032551 -0.4511824574745379
967831 -0.777727119045588 -0.4542543982702439
972734 -0.7797673650471971 -0.4516762865901539
977637 -0.7823594299519724 -0.4522442578775312
982540 -0.7852154125060925 -0.4498571163521597
987443 -0.7908984902343646 -0.4516025766444565
992346 -0.7930460366566351 -0.4484008749477725
997249 -0.795834151090008 -0.4474340135539024
1002152 -0.7972336519314894 -0.4444234386766521
1007055 -0.8004821343286667 -0.4434294344970165
1011958 -0.8040953614944105 -0.4409865456696315
1016861 -0.8065008821320488 -0.43796476649766397
1021764 -0.8095251415927336 -0.4373170749410846
1026667 -0.8072403372230016 -0.43435994232984876
1031570 -0.8115927541649443 -0.4347741960407076
1036473 -0.8120037257072535 -0.4295313054579498
1041376 -0.8136784458464301 -0.43234257102096596
1046279 -0.81481449237618 -0.42722398427469016
1051182 -0.8174368844516281 -0.42715851587689996
1056085 -0.8191709863033927 -0.42636437786822623
1060988 -0.818328552335155 -0.42455881351212593
1065891 -0.8223014608665669 -0.42168446841879187
1070794 -0.8243407948560819 -0.4179073154586272
1075697 -0.8254372091928059 -0.4150297448368218
1080600 -0.825572040427663 -0.4168742293184553
1085503 -0.8250996491647714 -0.4124517600468954
1090406 -0.8299488868448156 -0.41218724343381974
1095309 -0.8302016487167663 -0.4109001267309982
1100212 -0.8304401991167233 -0.4112899986628046
1105115 -0.8304339596261728 -0.4036312810241037
1110018 -0.8329213451887901 -0.4048448816973619
1114921 -0.8326543995937483 -0.40017566112826114
1119824 -0.8351158325945286 -0.4055973671783663
1124727 -0.8352448068049746 -0.4000670001407099
1129630 -0.8384235528665963 -0.39365423642628444
1134533 -0.8377070289427075 -0.3939086915666933
1139436 -0.8380768945631702 -0.39487405394594566
1144339 -0.8378855079623266 -0.39003840233697296
1149242 -0.8417232106759472 -0.3908406649944923
1154145 -0.841950041517271 -0.3876507380000742
1159048 -0.8438511557418933 -0.38948822572491215
1163951 -0.8407594495962293 -0.385452474580473
1168854 -0.8425090244691489 -0.3831526203923122
1173757 -0.8428283824800157 -0.3804749145558246
1178660 -0.8463871896431814 -0.37914932928332257
1183563 -0.844283202235983 -0.379246072951402
1188466 -0.8452962564227141 -0.3750411518109552
1193369 -0.8493948841212252 -0.37862142695764234
1198272 -0.8475522639589157 -0.37435013902666425
1203175 -0.8493746345490676 -0.37144383310280593
1208078 -0.8506270859466826 -0.365909522824143
1212981 -0.8497682903536474 -0.3658606560536455
1217884 -0.8500536127819223 -0.3665730695773923
1222787 -0.8537240040766372 -0.3647968823847877
1227690 -0.850682708215705 -0.36288195747413515
1232593 -0.8509969016646882 -0.36311649832027826
1237496 -0.8518631940467779 -0.3623238590474114
1242399 -0.8551366634589134 -0.358908591869914
1247302 -0.8543073071505888 -0.35923549091486784
1252205 -0.8558598489816392 -0.35607897284463164
1257108 -0.8568331102495348 -0.35242253610209157
1262011 -0.8548892289588204 -0.3516238363237264
1266914 -0.853992888834271 -0.3509549867735872
1271817 -0.8509492678115685 -0.349030853403227
1276720 -0.8526755157899322 -0.34442667755793077
1281623 -0.8484678421315734 -0.34457083015630574
1286526 -0.8486377145949976 -0.34324982264707277
1291429 -0.849627804912263 -0.34432123746977544
1296332 -0.8458129567992987 -0.3439843453325976
1301235 -0.8455099368543573 -0.34740547868082167
1306138 -0.852625951518907 -0.34990358491427626
1311041 -0.846451890280157 -0.34996718327069976
1315944 -0.8465391240298538 -0.34778438955645796
1320847 -0.8501938793356102 -0.3488671768780454
1325750 -0.8530589680059245 -0.3508181566833276
1330653 -0.8554018249273792 -0.34595558300586715
1335556 -0.8567518557508744 -0.345375433339232
1340459 -0.8583562337331273 -0.34869155087437914
1345362 -0.8588115064408841 -0.34279637998296647
1350265 -0.8581570904340955 -0.345908332312331
1355168 -0.8667166680565079 -0.3401724187628586
1360071 -0.8657667429913869 -0.34143391772957904
1364974 -0.8654995980152475 -0.3390576646338973
1369877 -0.8669437932988796 -0.3398725931983605
1374780 -0.8652506537550364 -0.3382216889365639
1379683 -0.8707600115299128 -0.33611970589027135
1384586 -0.8673365233682162 -0.33397880860663653
1389489 -0.8691536709176085 -0.3327922257884431
1394392 -0.8698625390672343 -0.33046104792464304
1399295 -0.8722407510271615 -0.33241358770740814
1404198 -0.8716554845845383 -0.32902536238138724
1409101 -0.8763173427990886 -0.328133537449033
1414004 -0.8750192482403398 -0.32656248312798425
1418907 -0.8714706626760799 -0.3251342707574889
1423810 -0.8738820818081671 -0.3233894222858328
1428713 -0.8771845746042509 -0.32323623712824623
1433616 -0.8734737212614272 -0.32359642712849224
1438519 -0.8720770733500051 -0.323023201841445
1443422 -0.8763541668989138 -0.3170850435873575
1448325 -0.8774649170935409 -0.3187899555094075
1453228 -0.8753497795597901 -0.3164908271213835
1458131 -0.8752130432593191 -0.31516563789895724
1463034 -0.881346547952749 -0.31382559722426295
1467937 -0.8746307949907846 -0.31323788038647593
1472840 -0.8796339231268864 -0.3129447975913132
1477743 -0.8759373531617747 -0.3091851897849582
1482646 -0.8811585848050705 -0.3085250060467953
1487549 -0.8779569754225862 -0.30785019090535587
1492452 -0.8825056369812343 -0.30742359477364106
1497355 -0.8824161671278657 -0.3049677434852666
1502258 -0.8838725710958437 -0.30425719039713545
1507161 -0.87642491191367 -0.305113325947974
1512064 -0.8823798172097854 -0.3033122545384682
1516967 -0.8803391640778856 -0.30309952313200467
1521870 -0.8813156406227084 -0.2990580605507899
1526773 -0.8813436986065483 -0.29821554202377903
1531676 -0.8791867036229197 -0.29736395126887116
1536579 -0.8824618047768459 -0.29660271711236813
1541482 -0.8830430259784637 -0.2961934421177686
1546385 -0.8835604784244725 -0.2920774299088238
1551288 -0.8819301157612432 -0.2937170048004893
1556191 -0.8797867888326036 -0.28846287572512913
1561094 -0.8808284523222948 -0.2896834560372471
1565997 -0.8825942799899671 -0.2866102306830669
1570900 -0.8823160454622148 -0.2850081871433116
1575803 -0.8783332295281892 -0.2906709474667491
1580706 -0.8766343192141052 -0.2912925521306383
1585609 -0.8787980458452286 -0.28874682279868735
1590512 -0.872841070136836 -0.2897771333893686
1595415 -0.8812947646285525 -0.2899572092934731
1600318 -0.8771365210777579 -0.2919632313570376
1605221 -0.882226229738776 -0.292282980794966
1610124 -0.883743321625784 -0.29020075203165785
1615027 -0.8826140602447697 -0.28782333163211726
1619930 -0.8817243298732175 -0.2898839401218382
1624833 -0.8838890134487859 -0.2881645248400205
1629736 -0.8861751216019798 -0.2852586647681036
1634639 -0.8878524592978219 -0.2858698024835702
1639542 -0.8889885979805464 -0.28347571968618507
1644445 -0.891004122319166 -0.28497460552697895
1649348 -0.8920408391701601 -0.2807990074956169
1654251 -0.8892606308132817 -0.2839292416406641
1659154 -0.889992662508716 -0.27845748848589047
1664057 -0.8923541333287378 -0.27754340792527415
1668960 -0.8963692543537614 -0.27729660006983636
1673863 -0.8917490559749719 -0.2795365901321284
1678766 -0.891821845009637 -0.278275382355524
1683669 -0.8956486028052079 -0.27522674021567384
1688572 -0.8925045842348136 -0.2724415377100567
1693475 -0.8975760243485469 -0.27077427709892216
1698378 -0.8950170019966605 -0.2695685829071821
1703281 -0.8952763710447935 -0.2701330904364437
1708184 -0.8896168628901713 -0.26850573654222726
1713087 -0.8962484839411635 -0.26759085038372027
1717990 -0.8949774013306976 -0.2663719280654268
1722893 -0.897788949622244 -0.2617291088790782
1727796 -0.8973759349832923 -0.26404089950836074
1732699 -0.8980954472075326 -0.2636727857742012
1737602 -0.8949438676413343 -0.2641746181337457
1742505 -0.8975308081248164 -0.2623120323571579
1747408 -0.8966357123248819 -0.26109345643488
1752311 -0.8925240050484693 -0.25779396372952484
1757214 -0.9006521625778097 -0.2578951320552785
1762117 -0.8955986833743581 -0.2580028343688978
1767020 -0.8933721630224687 -0.25694444274455974
1771923 -0.8951140250390959 -0.2520640823997461
1776826 -0.8967924671777849 -0.25834059809309456
1781729 -0.8972558200736259 -0.2507847544576118
1786632 -0.8909264468917741 -0.2515394724011946
1791535 -0.8940755950827347 -0.2541090293304784
1796438 -0.8921716322475789 -0.25951617316826836
1801341 -0.8914435186856254 -0.25294691264663904
1806244 -0.8919055600509739 -0.25125933448389615
1811147 -0.8940260333422386 -0.25143372676224457
1816050 -0.8950370330180419 -0.25214782177913875
1820953 -0.8978764923801051 -0.25607986116337966
1825856 -0.8990243157390969 -0.250689594961584
1830759 -0.8988126898847841 -0.25378491735383185
1835662 -0.892893481557252 -0.25064899828993487
1840565 -0.9024839102390323 -0.25026874880361083
1845468 -0.899264538944257 -0.2517252941433054
1850371 -0.901121467438788 -0.2485815115371922
1855274 -0.8958597057262013 -0.24612091065726818
1860177 -0.897710763280993 -0.24646535777327608
1865080 -0.9011672112161304 -0.2466881532029291
1869983 -0.8993892789927825 -0.24643162818489286
1874886 -0.8991443973278405 -0.24824169726381667
1879789 -0.9028574316521224 -0.24357383396917678
1884692 -0.8977713527716972 -0.2416135878411136
1889595 -0.9003086946499536 -0.23889602995559223
1894498 -0.8997017890539085 -0.23818271334880392
1899401 -0.90243241466611 -0.24161588585453406
1904304 -0.9025979957272376 -0.2367382528454324
1909207 -0.9009186295217081 -0.24191667746833564
1914110 -0.9001980912623935 -0.23591788811494832
1919013 -0.9038120297986156 -0.2339078025893638
1923916 -0.898189333664351 -0.23417565363127646
1928819 -0.89771780353469 -0.23654505470335263
1933722 -0.9020787738746269 -0.23347113199281264
1938625 -0.9005678155862628 -0.2347003279839108
1943528 -0.8993974808632467 -0.23541677032491146
1948431 -0.8978396125535981 -0.2354504024441113
1953334 -0.9012318233235538 -0.2345901351467775
1958237 -0.9005931285701977 -0.23667184975710603
1963140 -0.8976210750276838 -0.23360499013053496
1968043 -0.9031281259790285 -0.23698872693128042
1972946 -0.9033866092244902 -0.23052939710349896
1977849 -0.9062057272432135 -0.23505484298734874
1982752 -0.9014550275531892 -0.2341973130360448
1987655 -0.9055488148990469 -0.23026758285622637
1992558 -0.9083170447036492 -0.2333662883403213
1997461 -0.9098411487831533 -0.22909376505517082
2002364 -0.9055026874896172 -0.23074118889795878
2007267 -0.9041950969882692 -0.22777983120640527
2012170 -0.9047177392779687 -0.2305379051246499
2017073 -0.9051394672627895 -0.22866456334669455
2021976 -0.9032460076234453 -0.227698125614505
2026879 -0.9078580546844683 -0.22775721407911712
2031782 -0.9078313878808963 -0.22047247102083478
2036685 -0.9057224326289608 -0.2249725821211749
2041588 -0.915147529207297 -0.21851112586677954
2046491 -0.9108323665300606 -0.22312857554819865
2051394 -0.9099392139924031 -0.21985746725899355
2056297 -0.9111734504608108 -0.22045531994023287
2061200 -0.9092896236763276 -0.22094695605826048
2066103 -0.9109114882966679 -0.2123709994624129
2071006 -0.9083407449097859 -0.21590624883527365
2075909 -0.9151221676788163 -0.21857628803745074
2080812 -0.9083938422625952 -0.21694551326329672
2085715 -0.9100780220085302 -0.21411005118411652
2090618 -0.910965476460694 -0.21374213516642887
2095521 -0.9072787591719811 -0.2108634647517589
2100424 -0.9052969101473681 -0.2138388785800892
2105327 -0.9115350571312678 -0.21392979793566472
