# HZ S RI R 50
100000 0.5189759987977394 -0.7161180298953173
104903 0.49141715098481686 -0.7325888318680485
109806 0.46313416226468007 -0.7482774156469433
114709 0.42784971476582684 -0.764465395405638
119612 0.3943126682848124 -0.774688314722142
124515 0.3698300211032398 -0.7880713590369327
129418 0.33717632235221506 -0.7984697602218035
134321 0.30600788899004255 -0.8051549145700041
139224 0.2741244848763856 -0.8138436683612834
144127 0.2410548938779388 -0.8212269142338838
149030 0.20561651862270153 -0.8207219907194845
153933 0.17166250496411883 -0.821429259724316
158836 0.13888206859406046 -0.8226533131185741
163739 0.10127557415560198 -0.8135108521462916
168642 0.06806474041727147 -0.8001029646288017
173545 0.03697200489854308 -0.7868956757178057
178448 0.007101234756543477 -0.7692780859464812
183351 -0.02295649859476088 -0.7446025486715757
188254 -0.05241923793159564 -0.7142074260664067
193157 -0.07599543656304501 -0.6751923278218387
198060 -0.09621075623868391 -0.623872590739426
202963 -0.08936672014591808 -0.5499685482107838
207866 -0.04022877202421582 -0.49078552668092557
212769 0.038416788690194395 -0.44239386578691153
217672 0.15071383337331243 -0.4477067774144714
222575 0.24873632186690978 -0.5413141937433313
227478 0.2539720504144427 -0.6526086557551766
232381 0.21551277216038517 -0.7227135218472098
237284 0.17592547630016958 -0.7655368537731129
242187 0.13659640816758417 -0.7935166145861952
247090 0.10443740934692486 -0.8086492773052885
251993 0.0775792859621336 -0.8242122192911202
256896 0.04795652578584099 -0.8373732133346234
261799 0.01817634575771075 -0.8461456685672004
266702 -0.007616726996520094 -0.8523523008893722
271605 -0.03579439008334418 -0.853183863517222
276508 -0.061948853959527164 -0.854833333329447
281411 -0.08481954071719618 -0.8548805769000543
286314 -0.10488725333657234 -0.8509868131905391
291217 -0.12144440694621117 -0.8474523433285638
296120 -0.1414687052966246 -0.845197587091554
301023 -0.1565381980388758 -0.8376323382773047
305926 -0.1725750299259652 -0.8332702722046296
310829 -0.17909668111898544 -0.8296593906435406
315732 -0.19014291328513513 -0.8292866932290806
320635 -0.20387675319856144 -0.8300150572280408
325538 -0.21794607035941305 -0.8285670035266406
330441 -0.22986220738639432 -0.8317591881385334
335344 -0.2476913119408625 -0.8299045639649935
340247 -0.2629832870782637 -0.8291875858365021
345150 -0.2726902360020833 -0.8253645042607648
350053 -0.291045859341937 -0.8206496335390053
354956 -0.29982756034735786 -0.8184912260019299
359859 -0.31478373386738856 -0.8098865472769434
364762 -0.32390844478321595 -0.8106095939358745
369665 -0.33361689708171566 -0.8024753916931345
374568 -0.34587735028008365 -0.8018594963957342
379471 -0.3580027669868132 -0.7963561473643379
384374 -0.3667828824243603 -0.7961606060676244
389277 -0.37591180754941034 -0.7880553285497166
394180 -0.38815980109262915 -0.7863126110238998
399083 -0.3951913229481623 -0.7823333157248409
403986 -0.4071436502778474 -0.7749610209602098
408889 -0.4142645847679032 -0.7737502998405484
413792 -0.42357772206307154 -0.7660256341646059
418695 -0.4324231381695436 -0.7609793038105451
423598 -0.4407695762766542 -0.757164817035212
428501 -0.4522764481067505 -0.7522926835283984
433404 -0.4558096847840586 -0.7500718201110641
438307 -0.4690000160389957 -0.7429357594440583
443210 -0.47004973920015203 -0.7426605724535713
448113 -0.48078203680276893 -0.7357659268045296
453016 -0.4854067973858546 -0.7328888311328673
457919 -0.4941749226263497 -0.7256912503628256
462822 -0.502540129468363 -0.7232897482647929
467725 -0.5082119214076197 -0.7162996230243838
472628 -0.5179625927919436 -0.7130602359202859
477531 -0.5219646895721166 -0.7072204377621607
482434 -0.528131356545601 -0.700433397311488
487337 -0.5348827252564202 -0.6985506440873025
492240 -0.5429666746642027 -0.6931965797624201
497143 -0.5484709445820732 -0.6881614692904373
502046 -0.5558143489757924 -0.6813909308871167
506949 -0.5580596516758243 -0.6753280116165209
511852 -0.5621749048044777 -0.6716388166486129
516755 -0.57026973100441 -0.6642154458318713
521658 -0.5782134190537894 -0.6594808189808751
526561 -0.5820021687743046 -0.6527233827514645
531464 -0.5857090016548367 -0.6448559563201158
536367 -0.5938734524971534 -0.6386548016550538
541270 -0.597858651931836 -0.6252932032762101
546173 -0.6013376589780807 -0.6206106754687545
551076 -0.6041388657452998 -0.6055597215308436
555979 -0.6049036368411537 -0.5920371099290791
560882 -0.5980210619678077 -0.5793844634745459
565785 -0.5879386260117114 -0.5611990727125911
570688 -0.57255881586135 -0.5500528816308309
575591 -0.5489396821655362 -0.5498480286780616
580494 -0.5259651380894836 -0.5643508292642951
585397 -0.514643324940619 -0.5890702492289723
590300 -0.5198168178510558 -0.6107627045807844
595203 -0.5329997202039539 -0.6304133824887495
600106 -0.5464384019224691 -0.6394122160337107
605009 -0.5610075845810525 -0.6427000189474321
609912 -0.5730881901412488 -0.6460220024835698
614815 -0.5836817154978073 -0.6474249503239863
619718 -0.5976196089687432 -0.6451950480764715
624621 -0.6054271717064513 -0.6429374835800394
629524 -0.6125631876898243 -0.6393737671258439
634427 -0.6223741671750677 -0.6376387043237177
639330 -0.6324143351807551 -0.6313737486155127
644233 -0.6380498329761145 -0.6283077600017851
649136 -0.639057238280517 -0.6243113774443815
654039 -0.6467074423571734 -0.6187914831051126
658942 -0.6556207359536633 -0.6167214573532237
663845 -0.6584495556285722 -0.6136032751503422
668748 -0.6605784389496977 -0.6058129747834986
673651 -0.6649676062111686 -0.6046362778584372
678554 -0.6687035066276389 -0.5961262814807465
683457 -0.6733184010466369 -0.5987983360744483
688360 -0.6746401518600331 -0.5912053866691535
693263 -0.6808450522451419 -0.5897051329873689
698166 -0.6829682816387532 -0.586983935096245
703069 -0.6848051795705615 -0.5817131955690127
707972 -0.688414738932996 -0.5837242241947596
712875 -0.6911947665817091 -0.5795768347226914
717778 -0.7012476850048357 -0.5798187841401118
722681 -0.6999781042157452 -0.5719266011923717
727584 -0.7024424977282536 -0.5698307145311109
732487 -0.7065573105469714 -0.564720236863823
737390 -0.7105049502794271 -0.5584036965662644
742293 -0.7109092697495742 -0.5580834940877705
747196 -0.7161154114300317 -0.5550100198665461
752099 -0.7190231828922369 -0.5519328421088429
757002 -0.7235880723879075 -0.5504032773448397
761905 -0.7275619928624845 -0.5489971580157447
766808 -0.7242792952543768 -0.5442099525880421
771711 -0.728540610575516 -0.5420131848319145
776614 -0.73093152015192 -0.5389339499579124
781517 -0.7338188747626795 -0.5363674441351143
786420 -0.7387565854912077 -0.5341825739480962
791323 -0.7388240024499031 -0.5338781095407654
796226 -0.7431483753482648 -0.5275657796766725
801129 -0.7441686006675101 -0.5257536467816905
806032 -0.7472148240031519 -0.5218913301847746
810935 -0.749506907310299 -0.5196492163524378
815838 -0.7499207287780416 -0.5177180447345061
820741 -0.7506720545217992 -0.5164309423589015
825644 -0.7514445990727586 -0.5100525177966594
830547 -0.756535602487303 -0.508560207816427
835450 -0.7595232436345754 -0.5070021260245571
840353 -0.7577528043353574 -0.5032907031066431
845256 -0.7620689237680852 -0.49873577691421866
850159 -0.7655170231214337 -0.4975499626912584
855062 -0.7647228571695667 -0.49411020868460664
859965 -0.7680944926793102 -0.4915134509736049
864868 -0.7693501560999951 -0.4900279130086623
869771 -0.7729988652780656 -0.4881929712593045
874674 -0.7713036227189414 -0.4858490649405203
879577 -0.7707694997542426 -0.4804432812328505
884480 -0.7738851701627477 -0.4753780664986226
889383 -0.7765068704297988 -0.47013902132698165
894286 -0.7784917626456613 -0.46882774746671874
899189 -0.7819926995174604 -0.4675270760778497
904092 -0.782161225365901 -0.45983582751344587
908995 -0.7798033308520462 -0.4552826042387774
913898 -0.7813541220968245 -0.4531772742130505
918801 -0.7788574883462499 -0.4490550183683226
923704 -0.7746240862135718 -0.43897152567652814
928607 -0.7733063875116841 -0.44007649981365266
933510 -0.7659138713810775 -0.43951592018421415
938413 -0.7621154037443763 -0.4374649906451257
943316 -0.7563383395483562 -0.4411371481704844
948219 -0.7564022010244924 -0.44817042857095457
953122 -0.7581272890809716 -0.45393965265406677
958025 -0.7577417878614175 -0.4564183547519416
962928 -0.7659195935554939 -0.458757150358717
967831 -0.7708795746941483 -0.4637452748936947
972734 -0.7748317900256387 -0.46094737150096554
977637 -0.7737011259055299 -0.4603096043332924
982540 -0.7817858542537461 -0.4596290576026257
987443 -0.7864499957760618 -0.45636814803517417
992346 -0.7862035790948514 -0.4571035672306995
997249 -0.7914515672167056 -0.45609355627961873
1002152 -0.7934068653686007 -0.45187731064039466
1007055 -0.7956122461579993 -0.45278433635971377
1011958 -0.7988637150738015 -0.44920513199692647
1016861 -0.8037762769191098 -0.4486322649925828
1021764 -0.8039065200922891 -0.4459948306525114
1026667 -0.803323006872422 -0.4426113809124449
1031570 -0.8079230097092673 -0.44368280750008987
1036473 -0.8040137156395831 -0.4351705807218095
1041376 -0.8102194695399476 -0.43746790496390814
1046279 -0.8082544263046634 -0.4334788774863379
1051182 -0.8143887674710402 -0.43167630215179226
1056085 -0.8171450850964133 -0.43091473908900874
1060988 -0.816285100645494 -0.43148485935260456
1065891 -0.8181251659508912 -0.4259647986393307
1070794 -0.8172684502284601 -0.42799430116509213
1075697 -0.819440189654329 -0.42387269426522367
1080600 -0.8224598537911622 -0.42253972246721383
1085503 -0.8212466098982795 -0.4174113358960502
1090406 -0.822975792999536 -0.4172083648834773
1095309 -0.8275634631009204 -0.41668015895736327
1100212 -0.8268028456960853 -0.4156271358674018
1105115 -0.8304041289512998 -0.4116263201362441
1110018 -0.8269037334830495 -0.40981126401661905
1114921 -0.8309197905510173 -0.40584612887248006
1119824 -0.831290218209207 -0.4110659884925557
1124727 -0.8345134461908195 -0.40412569926673864
1129630 -0.8328621909664691 -0.40285543292182013
1134533 -0.8351777466269515 -0.40057783820733756
1139436 -0.835539734445017 -0.4011712871538703
1144339 -0.8347272982326173 -0.393219334180942
1149242 -0.8368068847382926 -0.3931099397361022
1154145 -0.8394985981603825 -0.3930237491929338
1159048 -0.8389990243439847 -0.39616787009965215
1163951 -0.8425390452756255 -0.38872383222311174
1168854 -0.8387838481776969 -0.3882646407072109
1173757 -0.8421945057871825 -0.3827095556713923
1178660 -0.843308050969686 -0.3833840594095283
1183563 -0.8404864477259104 -0.3796181310180431
1188466 -0.8412403841780047 -0.3798884168423882
1193369 -0.8428197769324695 -0.38164682586027854
1198272 -0.8479846233450633 -0.3765896747431615
1203175 -0.8470586824227399 -0.3753737639554596
1208078 -0.8473461858397034 -0.3701698350108408
1212981 -0.845143972220702 -0.3712843898994311
1217884 -0.8488590188637357 -0.372837082824341
1222787 -0.8511724849908121 -0.3642868654209956
1227690 -0.8491548763487675 -0.3656826011210786
1232593 -0.8485002280067097 -0.36630114245924433
1237496 -0.8484586248235353 -0.3642029636347215
1242399 -0.8525790810050144 -0.3604137373303603
1247302 -0.8494414614897062 -0.35834422403322636
1252205 -0.849946477098115 -0.35650137574918395
1257108 -0.8526797534373025 -0.3553234426643289
1262011 -0.8489733372816372 -0.3522487966760802
1266914 -0.8497157881775655 -0.3482113126151955
1271817 -0.846974827393341 -0.35357125872033285
1276720 -0.8449670903754697 -0.34934192560850513
1281623 -0.8398543442098829 -0.3467594436817691
1286526 -0.8385654587868492 -0.34845281614023266
1291429 -0.8428055569543076 -0.3538134533410464
1296332 -0.8404957006542169 -0.3482462326153647
1301235 -0.8430393038326013 -0.35344441892983
1306138 -0.8468027588272811 -0.35919857760827345
1311041 -0.8471186365253125 -0.35434752878279957
1315944 -0.8466287215992022 -0.3513479650022122
1320847 -0.8535080311152747 -0.356917559546213
1325750 -0.8495430032073064 -0.35611859979676297
1330653 -0.8522980691726846 -0.35095873226572005
1335556 -0.8578342479817559 -0.3508451099439253
1340459 -0.8546248196593211 -0.3530299121454103
1345362 -0.8559468512073409 -0.34771125762218524
1350265 -0.8563129472162098 -0.346144968552381
1355168 -0.8607472974114885 -0.344929426909854
1360071 -0.8632899910248822 -0.34399559318744494
1364974 -0.8649061126207426 -0.3430313464741021
1369877 -0.8662309683762026 -0.3411300111873501
1374780 -0.8643124798626801 -0.33951620939160415
1379683 -0.8744084319347514 -0.3391581170989404
1384586 -0.8660255255698329 -0.33764284168264047
1389489 -0.8656510147176966 -0.3340430323031478
1394392 -0.8688018130440375 -0.3355654738077681
1399295 -0.8644107580078393 -0.3325005756186379
1404198 -0.8687016775684177 -0.3341536733864572
1409101 -0.8683967658892345 -0.33114793457861263
1414004 -0.8736860226464943 -0.328923116861923
1418907 -0.8690263088969624 -0.32944759853538297
1423810 -0.8713614485926789 -0.32763196313401793
1428713 -0.8730590793468067 -0.3259831039358385
1433616 -0.873149298587806 -0.3272705696232899
1438519 -0.8723545979628623 -0.3242689612077432
1443422 -0.8768665985498949 -0.321044615824697
1448325 -0.8754144963878397 -0.32023870621857997
1453228 -0.8748884237378932 -0.31772576431022276
1458131 -0.8766364949116368 -0.32012450452344143
1463034 -0.8788358729751051 -0.31720577288661805
1467937 -0.8754525493281945 -0.31519422081904863
1472840 -0.8756993185635232 -0.3123511942863183
1477743 -0.876397710181624 -0.3138992698135698
1482646 -0.8778246030106482 -0.3093634232301839
1487549 -0.8778395192057656 -0.31172511192592006
1492452 -0.8800996004899825 -0.30929609810343195
1497355 -0.8798933293551847 -0.3058084753154364
1502258 -0.8808052265019046 -0.3042528643102286
1507161 -0.8772030491551778 -0.3057745289984101
1512064 -0.878232231149934 -0.3051145999874741
1516967 -0.8814233938408738 -0.30077427172665855
1521870 -0.8784237348490819 -0.30099627195187767
1526773 -0.8802545738205241 -0.30001828472926156
1531676 -0.8804214136822139 -0.29714144186052033
1536579 -0.8846548400854609 -0.29441477550854395
1541482 -0.8788630206358927 -0.2964305089651364
1546385 -0.8786405666495574 -0.2917390336593673
1551288 -0.8826179672654391 -0.2909072637527519
1556191 -0.8771993642059249 -0.28952678373983637
1561094 -0.8753949361664635 -0.2907089514516865
1565997 -0.8758278653782067 -0.29033883638809266
1570900 -0.8759533638008093 -0.2916233846858572
1575803 -0.8702753113910296 -0.29323822966552465
1580706 -0.8748039300140288 -0.29300514058911326
1585609 -0.8730134148922022 -0.2957166363830739
1590512 -0.8749495171972302 -0.2926853091521385
1595415 -0.8813271366250953 -0.28852965174992873
1600318 -0.8775188289292545 -0.29606456876640663
1605221 -0.8891401862764078 -0.2912495967667731
1610124 -0.8837137638468063 -0.29494356240916014
1615027 -0.881803819336609 -0.2947164904220819
1619930 -0.8819799403487683 -0.29278723577195714
1624833 -0.8857759666807845 -0.2905351775013635
1629736 -0.8900587906677345 -0.28779545182758376
1634639 -0.8873858503586256 -0.2851282101402752
1639542 -0.8916704611040709 -0.28710324378576096
1644445 -0.8886304249602233 -0.28664271487149695
1649348 -0.8919986609815708 -0.2830456598167333
1654251 -0.890662579646925 -0.28132535416313526
1659154 -0.8904287766861315 -0.27962556587386905
1664057 -0.8909041135571504 -0.2778794082694201
1668960 -0.8941211843916343 -0.27760063851736194
1673863 -0.8903818261111961 -0.28027595413770096
1678766 -0.8905837642813857 -0.2756938596321308
1683669 -0.8918091250576783 -0.2761279311052393
1688572 -0.8916913567701199 -0.27644830106203
1693475 -0.8969269185855361 -0.2730806432141691
1698378 -0.8922633732884377 -0.2726320397035832
1703281 -0.894834859524699 -0.2698970197517938
1708184 -0.8928191167098959 -0.27260815119841303
1713087 -0.8946514801010556 -0.269025469176629
1717990 -0.8943012548353667 -0.26848452576716075
1722893 -0.8940892035385164 -0.2647295447845147
1727796 -0.8949062775669514 -0.26637350053942344
1732699 -0.8922600161748941 -0.2611351798274956
1737602 -0.8937669791417557 -0.2631382775200762
1742505 -0.8961583456227431 -0.26147838043524935
1747408 -0.8945546996452728 -0.25770091925104943
1752311 -0.8919226737207879 -0.258176472118576
1757214 -0.8964046334868847 -0.2571634841675588
1762117 -0.8915328739563206 -0.2598345330147843
1767020 -0.8972863230434273 -0.253820515817573
1771923 -0.89377264967957 -0.25363544048406234
1776826 -0.8925484792633628 -0.25756673492496923
1781729 -0.8919282662062071 -0.25547787652463283
1786632 -0.8882488909111923 -0.25340357509066797
1791535 -0.8907952073913793 -0.25466568945052703
1796438 -0.8907804796729977 -0.26076744377146865
1801341 -0.8889033606511174 -0.2506090749423235
1806244 -0.8934788661300055 -0.25175402342814507
1811147 -0.8950235024188634 -0.25350007968283134
1816050 -0.8954842749472243 -0.2502101049385897
1820953 -0.8976860237126755 -0.254030385422606
1825856 -0.894638303369568 -0.25457813436021015
1830759 -0.8969528805067795 -0.25429471832640216
1835662 -0.8938163542859403 -0.24990919360654898
1840565 -0.8988318248853607 -0.2494624641726843
1845468 -0.8995815088218077 -0.2491668703311324
1850371 -0.8991365793464418 -0.24635351683449544
1855274 -0.8963231241825724 -0.24974146120922658
1860177 -0.8992079650805622 -0.2385561576279726
1865080 -0.8989733307387552 -0.24331613413885306
1869983 -0.89838088373399 -0.2463807458383862
1874886 -0.895211513614503 -0.24556893329105414
1879789 -0.8977896715779836 -0.24142356068713183
1884692 -0.9000120718206853 -0.24216734190613656
1889595 -0.8967245033444445 -0.2391408593620131
1894498 -0.8969237330286757 -0.23728950700635354
1899401 -0.8993430927375295 -0.2392161467093095
1904304 -0.898020628449296 -0.23389845855709174
1909207 -0.9002529094485847 -0.23508035198232427
1914110 -0.8977176596494998 -0.235692560987227
1919013 -0.8968711593945239 -0.23935038762423172
1923916 -0.896526057542196 -0.2379931894820198
1928819 -0.892251962693648 -0.23622399257215748
1933722 -0.8964837130131341 -0.2362396165418236
1938625 -0.8978223423973195 -0.2371331629158055
1943528 -0.8977506273380707 -0.23686153607875432
1948431 -0.8964533372601268 -0.2372029380935668
1953334 -0.9007317841687404 -0.2351823372829086
1958237 -0.8984697488102755 -0.23757556189909623
1963140 -0.9008064445054481 -0.23811753141647607
1968043 -0.8978259134252797 -0.23901078683709645
1972946 -0.901765516878499 -0.23429673940961446
1977849 -0.9056532393681973 -0.23627856422405902
1982752 -0.9006992897030799 -0.2339146266347277
1987655 -0.9042851607722803 -0.2319873070121263
1992558 -0.9043135128847731 -0.2293981286243828
1997461 -0.9067368646870357 -0.2302182136163627
2002364 -0.906788488609884 -0.23065074746511546
2007267 -0.9032656301342127 -0.22385376165198634
2012170 -0.9090297468670415 -0.22546261454023198
2017073 -0.9053229732630496 -0.2302047403334873
2021976 -0.9060034410830728 -0.22523715217497217
2026879 -0.9094557618749248 -0.22395790071230293
2031782 -0.9084347752785129 -0.2232530204245304
2036685 -0.9099042664794946 -0.2209013820884025
2041588 -0.907595787556521 -0.2212746186606769
2046491 -0.9092383600766067 -0.21941481524084286
2051394 -0.9142506389843651 -0.22045570047431345
2056297 -0.9108939327112354 -0.2172297309913474
2061200 -0.908017600672365 -0.21385025797005452
2066103 -0.9102586184120735 -0.21456929073746153
2071006 -0.9088180908003398 -0.2166231520705179
2075909 -0.9129526956206365 -0.2129387866507724
2080812 -0.9067536912098757 -0.21596950179760607
2085715 -0.912907181862681 -0.21249757069588368
2090618 -0.9099765479877293 -0.21541183541636982
2095521 -0.9125426261243987 -0.21033333493884324
2100424 -0.9085022189070614 -0.21225346298849354
2105327 -0.9115716644891234 -0.21052109442101422
