# HZ S RI R 50
100000 0.5374533261937082 -0.7190027349501209
104903 0.5102128057440994 -0.7366576761339826
109806 0.4831924748437456 -0.7515884887532233
114709 0.4501269936630138 -0.7694094441658692
119612 0.4209418183113305 -0.7799949603247169
124515 0.40098046315059516 -0.7918076648348589
129418 0.3725926253594578 -0.8020066813750515
134321 0.347142742987375 -0.8108235209695114
139224 0.32104925462178924 -0.8216723321082832
144127 0.29712716017198565 -0.830136075800571
149030 0.2690413713274002 -0.8348305031207391
153933 0.24403028295252982 -0.84015621018104
158836 0.22271291475955476 -0.8463725972314239
163739 0.1978141154639221 -0.8508973759135037
168642 0.1722696632176066 -0.8528240879912511
173545 0.15220230575586874 -0.8571626699561286
178448 0.13039528724679822 -0.8587197971563371
183351 0.1069066655377668 -0.8593058716839618
188254 0.08535727163494201 -0.8586637324408568
193157 0.06245076052785389 -0.8571289116550602
198060 0.044113653815158485 -0.8570254225106958
202963 0.023425371420123575 -0.8557780791924506
207866 0.00665025622013956 -0.8535074910183361
212769 -0.009373496130579546 -0.844085782500259
217672 -0.018830052989606615 -0.8435026202120015
222575 -0.02656135746002824 -0.8498433631658922
227478 -0.045403108074725786 -0.8558262724111345
232381 -0.061797321072823645 -0.8599928947864984
237284 -0.08020874491797694 -0.8574993254294867
242187 -0.10000716593829927 -0.8603376464202122
247090 -0.11506987999738479 -0.8552549620543529
251993 -0.1278893415827913 -0.8578567245161635
256896 -0.1460874366670784 -0.8538916480155132
261799 -0.16444433369336717 -0.8516412085441214
266702 -0.17961661991305608 -0.8497507148743126
271605 -0.1947612313024612 -0.8467534600927658
276508 -0.2083204400001301 -0.8441714844651116
281411 -0.22256668924200584 -0.8404946133390804
286314 -0.23493132187116966 -0.8370984139458489
291217 -0.24548442520243505 -0.8325327974937151
296120 -0.2589183193179034 -0.8299383202047248
301023 -0.27146737293113804 -0.8268937770666683
305926 -0.2844158077624018 -0.8216623155965509
310829 -0.29106104377375547 -0.8184076611556131
315732 -0.3037129173978075 -0.8182889086884273
320635 -0.3173081499665059 -0.8119597720529745
325538 -0.3281471800876034 -0.8045081415725892
330441 -0.3396255684668647 -0.8066242860022856
335344 -0.3484714030747951 -0.8002821723095713
340247 -0.3594269299515341 -0.7965918738277656
345150 -0.36848092041165054 -0.7928460805097117
350053 -0.37734328355963587 -0.7887898839339164
354956 -0.3886021831080107 -0.784294800251699
359859 -0.3970792480185318 -0.7786236554891574
364762 -0.40505047788315635 -0.777411967946217
369665 -0.4114093933101291 -0.7703578649071751
374568 -0.4225366629426749 -0.7674175103261207
379471 -0.4341871539736481 -0.7651064645648716
384374 -0.4387498400528203 -0.7648463363715905
389277 -0.44552267963780534 -0.754037150604792
394180 -0.45618702178962073 -0.7506940534231822
399083 -0.4604610223366212 -0.7474744312154609
403986 -0.47099397102951746 -0.741392168455143
408889 -0.47727895813048477 -0.7420212096021392
413792 -0.4829368293733876 -0.7318851656000285
418695 -0.4909216367407651 -0.7324390924666636
423598 -0.49726553487492653 -0.7255303381844997
428501 -0.5083037244852721 -0.7225426629017878
433404 -0.5113542630814379 -0.7190450916904477
438307 -0.5199059998162608 -0.7127337859154204
443210 -0.5222911437833516 -0.7141702426004872
448113 -0.5293941645770972 -0.7066712113374214
453016 -0.5354600295410119 -0.703207664197834
457919 -0.540718780177707 -0.6991495930798939
462822 -0.5486319903321756 -0.6968559728368315
467725 -0.5511958110504962 -0.6896910258512863
472628 -0.561517410517056 -0.6885119304473825
477531 -0.5647279177156644 -0.6805086340546904
482434 -0.5673878966741595 -0.6770504083983446
487337 -0.5726395218986594 -0.6783986593130148
492240 -0.5791179914212183 -0.6716719959285591
497143 -0.583443680530911 -0.6703636006686094
502046 -0.5873855289006699 -0.6653082654281207
506949 -0.5913352693383228 -0.6623123514651883
511852 -0.5946600690968115 -0.659464182290532
516755 -0.6012650466033801 -0.6537243191294846
521658 -0.6067173786346399 -0.6528272482795974
526561 -0.6091334512189628 -0.6487499365885094
531464 -0.615196277825474 -0.6450316026809155
536367 -0.619751420924829 -0.6417728822543503
541270 -0.6235003543674582 -0.6357464805782203
546173 -0.6281376326180003 -0.6369365010156289
551076 -0.6316709654593179 -0.6331975254764649
555979 -0.6358670501919571 -0.6261420425087726
560882 -0.638681543178239 -0.623814834804138
565785 -0.6419830683737338 -0.618976770082394
570688 -0.6479320381667084 -0.6138993888709948
575591 -0.6530318757824601 -0.6126002518010781
580494 -0.6502288352964484 -0.6064435490522424
585397 -0.6520503874625433 -0.6039256935308706
590300 -0.6578148800930276 -0.6030705251015086
595203 -0.6597368920084438 -0.6008825083534783
600106 -0.6619318144017159 -0.6011000240019237
605009 -0.6688748560111297 -0.5985832828564699
609912 -0.6724423704895396 -0.5969888371710684
614815 -0.6737592411069593 -0.5908667480751217
619718 -0.6784486353068521 -0.5893821090139929
624621 -0.6813971356182282 -0.5866601563403397
629524 -0.6870889920712634 -0.5847984237588487
634427 -0.6895315751719502 -0.5819052247900752
639330 -0.6946140886359249 -0.5794976227515167
644233 -0.6955590667549642 -0.575911895269635
649136 -0.6968163425834967 -0.5740001615432974
654039 -0.699261913238239 -0.5692029015015713
658942 -0.7108393429087941 -0.5677642322924357
663845 -0.7084958320079524 -0.5651419669071353
668748 -0.7090321851958311 -0.5599387305069424
673651 -0.7137399608391772 -0.5580181048209989
678554 -0.7124534030948602 -0.5547996702476589
683457 -0.7181782268785871 -0.5544260364651312
688360 -0.7187082092896421 -0.5469493191397061
693263 -0.7268113439170626 -0.5463286627549768
698166 -0.7264174763112692 -0.5472433979745084
703069 -0.7271966953938557 -0.5417904466680191
707972 -0.7316595106673405 -0.5425675629080342
712875 -0.7313272064514008 -0.5369588068495376
717778 -0.7366378625816109 -0.5337045122149884
722681 -0.7352267324156009 -0.5288067765229872
727584 -0.7382760564189621 -0.5294844411518888
732487 -0.7391122450150616 -0.5268626267289093
737390 -0.7439984200203468 -0.5215261512348665
742293 -0.7456748040997484 -0.5215223234596371
747196 -0.7479080470008868 -0.5184443555735725
752099 -0.7492349621567591 -0.5159259423381358
757002 -0.7543551106618404 -0.5136845630020572
761905 -0.755469408503519 -0.512424257493786
766808 -0.7522735684130166 -0.5089196632210168
771711 -0.7579160150956926 -0.5060306271545593
776614 -0.7597668684157862 -0.5047066541908664
781517 -0.7609265424127236 -0.5044709585014339
786420 -0.7665094768545924 -0.49864856595486073
791323 -0.7675733992044033 -0.5006153555927121
796226 -0.7704709572918951 -0.4958691261789302
801129 -0.7674858975915938 -0.4922205005216821
806032 -0.7723861838988113 -0.4890778178830101
810935 -0.7766032825444983 -0.49115290498673675
815838 -0.7732331614751022 -0.4895654485195333
820741 -0.7751266789686514 -0.48457206397136326
825644 -0.7767653181106189 -0.4852069920483749
830547 -0.7786634615790702 -0.483174887729115
835450 -0.7804451735319071 -0.478941575626919
840353 -0.7818454334566138 -0.4777869150619801
845256 -0.7831359522934185 -0.472618118305491
850159 -0.7833589133525354 -0.47303755898159655
855062 -0.7876047943115576 -0.46995292773894226
859965 -0.7875811550850927 -0.46925125293495934
864868 -0.7891008781743617 -0.46714808313586365
869771 -0.7912216946094346 -0.4660989391848031
874674 -0.7943012182239853 -0.464218782485428
879577 -0.7893686787471121 -0.460206110510504
884480 -0.7941197917101572 -0.456970048110146
889383 -0.7969837029969389 -0.4548468887465984
894286 -0.7984546476891736 -0.45443702322115237
899189 -0.7983921305648357 -0.45188153396201447
904092 -0.8008106463552757 -0.4493323673725514
908995 -0.8013670413671489 -0.4480187713950293
913898 -0.8019713400377697 -0.4495631446386371
918801 -0.8052934503359094 -0.44517689243893105
923704 -0.8026620909654305 -0.4433786765030906
928607 -0.8068669253523822 -0.44274354890606243
933510 -0.8094259038094914 -0.4399359201031547
938413 -0.8110910739899637 -0.4348204245848993
943316 -0.8066320082266595 -0.4326545766189386
948219 -0.8133274541010089 -0.4364942498621594
953122 -0.812624533918851 -0.4335635699143456
958025 -0.8098519641652082 -0.4315518670675728
962928 -0.8141625927216792 -0.4303392006713953
967831 -0.8177298996040725 -0.429201370760066
972734 -0.8149629411264298 -0.42657551786827685
977637 -0.8172649026264396 -0.4255935046111656
982540 -0.8198190902702238 -0.4225621717709223
987443 -0.8221636870521656 -0.42219684105810673
992346 -0.8216228678913999 -0.4214455833128942
997249 -0.822371531835672 -0.4223695301888507
1002152 -0.8237574277847183 -0.4151225411772765
1007055 -0.8219172805955166 -0.4188765019558863
1011958 -0.8256757442949698 -0.4158394520301685
1016861 -0.825948598993905 -0.4136210626440276
1021764 -0.8289040437639882 -0.4123246970905089
1026667 -0.8265310590874635 -0.4082898409862325
1031570 -0.8301150674561304 -0.4102013285548084
1036473 -0.8271053272608416 -0.403157860300054
1041376 -0.8328049104629721 -0.4077589921303432
1046279 -0.8341567300371502 -0.4067596288849036
1051182 -0.8329238309630833 -0.4044848502589798
1056085 -0.8341921991819498 -0.40305902625136736
1060988 -0.8331415093698462 -0.40245486488264065
1065891 -0.8351461190546969 -0.39648005476845416
1070794 -0.8370342079713828 -0.39776331075628635
1075697 -0.8357398306157695 -0.39513401285422894
1080600 -0.8432717114372089 -0.3955509387075599
1085503 -0.8364116307244168 -0.39211418131816184
1090406 -0.8396516779230209 -0.3889071410945924
1095309 -0.8422222250254628 -0.3900159317202816
1100212 -0.8407089896383465 -0.3928360032590066
1105115 -0.8441014816825141 -0.3839919658593658
1110018 -0.8454849130525167 -0.3878053932112949
1114921 -0.8423331866838698 -0.38209949698387835
1119824 -0.8443824108415209 -0.38516100703133577
1124727 -0.8454842134184665 -0.38037923349998637
1129630 -0.8481188600760582 -0.3807502025149081
1134533 -0.8471742925931373 -0.37821888404260745
1139436 -0.8511681128877626 -0.38075940068643904
1144339 -0.8478904422427846 -0.37527847173950263
1149242 -0.8497048551169284 -0.37521428584230426
1154145 -0.8521808465586298 -0.3724005027938184
1159048 -0.8541259545419578 -0.3766149651452435
1163951 -0.8499626919867501 -0.3691457639675703
1168854 -0.8527471045615106 -0.3702925638715671
1173757 -0.8551004205123671 -0.3699800569371469
1178660 -0.8527108358068366 -0.3670082068882142
1183563 -0.8515543624301238 -0.3664582267303802
1188466 -0.8549366173853783 -0.3668078069562796
1193369 -0.855897908804652 -0.36616532762906034
1198272 -0.8559819625943508 -0.3643444347627533
1203175 -0.8580500349938598 -0.36073277559564176
1208078 -0.8565588107270244 -0.3558154200284801
1212981 -0.8569326191786858 -0.3588302770425118
1217884 -0.8596971896737533 -0.3577856507691052
1222787 -0.8650054235644058 -0.3547769377571491
1227690 -0.8576066517998457 -0.3545099055245713
1232593 -0.8623448264657378 -0.35458569135750584
1237496 -0.8621153019339247 -0.3555077556917203
1242399 -0.8632652292448016 -0.35274320882190696
1247302 -0.86454262515737 -0.35274753494601563
1252205 -0.8663358586427022 -0.3472852299766723
1257108 -0.8694714541693099 -0.3515146654334632
1262011 -0.864379800250939 -0.3464914834711005
1266914 -0.8663670992958633 -0.3458958430795264
1271817 -0.8643840402610331 -0.3485766239154092
1276720 -0.8710823040150437 -0.34298178704157
1281623 -0.8656384669005972 -0.3430757567071953
1286526 -0.866329413152961 -0.3422264954801194
1291429 -0.8676937884431778 -0.3398796402999907
1296332 -0.869530852671277 -0.3399856900563279
1301235 -0.8701438553446809 -0.33955771631538806
1306138 -0.8722974217452772 -0.3407396153403994
1311041 -0.867689234882983 -0.3331009898362209
1315944 -0.8686318135381389 -0.3337412075745541
1320847 -0.8696306937393483 -0.3349545265897238
1325750 -0.8700074607390275 -0.33509609265209644
1330653 -0.8696141261069851 -0.33299801018921493
1335556 -0.873114197988104 -0.3340862782590743
1340459 -0.8701231236866928 -0.3329996816824624
1345362 -0.8720693400506707 -0.328677826164865
1350265 -0.8738612027406542 -0.3312904872024432
1355168 -0.8719564630229165 -0.32986649444940075
1360071 -0.8749815446355163 -0.33034345998994497
1364974 -0.8780438697752494 -0.3283036902079606
1369877 -0.877892690551919 -0.32676724687518655
1374780 -0.8763261444774746 -0.3253123425390853
1379683 -0.8815235978856127 -0.32246462215789123
1384586 -0.8782535488057162 -0.3240363894168179
1389489 -0.8787730155636734 -0.321868976391001
1394392 -0.8778572929199209 -0.32394012723073723
1399295 -0.8767477573611291 -0.31694902621534066
1404198 -0.8776490162065093 -0.3218186511297558
1409101 -0.8802883118637382 -0.3178965431068732
1414004 -0.8835574985731633 -0.3193674866970003
1418907 -0.8763743946918077 -0.31816951526392445
1423810 -0.8812909846579298 -0.3160029887063748
1428713 -0.8818970589007142 -0.3173830821535766
1433616 -0.8818476184057354 -0.3168641611886055
1438519 -0.879909634921413 -0.3146492736222625
1443422 -0.8851077576296907 -0.30959495113264723
1448325 -0.8837363571885823 -0.31036794190697
1453228 -0.8824662267656739 -0.3134963743375248
1458131 -0.8835517340849 -0.3107313040936453
1463034 -0.8860356314683926 -0.30802165201950976
1467937 -0.8805930515976552 -0.307194196044139
1472840 -0.8830374216058761 -0.30887098739525226
1477743 -0.8849277249637109 -0.3047072508971504
1482646 -0.8837381154810197 -0.30413075985361465
1487549 -0.8831534958264 -0.3032992773307996
1492452 -0.8875186594100397 -0.3018147134136598
1497355 -0.888283987019614 -0.30348184795703154
1502258 -0.8867681323662298 -0.2996852769445227
1507161 -0.8867542117977295 -0.3014992703016122
1512064 -0.891645242310423 -0.302193086404134
1516967 -0.8905366449171795 -0.299507484966776
1521870 -0.8847667231816011 -0.2978886802638347
1526773 -0.8887482976646963 -0.2972526411881324
1531676 -0.8862180390471317 -0.29536641559792054
1536579 -0.8898998772369013 -0.29549015937043016
1541482 -0.8903075767131909 -0.2982628889395986
1546385 -0.8903842038996205 -0.2955333774312947
1551288 -0.8900510425259316 -0.2943377445972707
1556191 -0.8904371148494913 -0.2919745299933152
1561094 -0.8935874805127079 -0.29360151028184067
1565997 -0.8910213735033137 -0.2907123744250031
1570900 -0.8945531631582836 -0.2907175691452514
1575803 -0.8933309300988636 -0.2932522293704276
1580706 -0.8919288285269537 -0.2928353358403601
1585609 -0.8939457731959605 -0.29049254631601634
1590512 -0.8890019690062855 -0.2876388600250711
1595415 -0.8961045615146718 -0.28850018985168885
1600318 -0.8923527366869338 -0.2843769164702881
1605221 -0.8960395752319749 -0.28414792208357215
1610124 -0.8952416337166317 -0.2851143532679895
1615027 -0.8957578834948111 -0.28312742868065643
1619930 -0.8950340466091903 -0.28476179473255897
1624833 -0.8936744013677242 -0.285456574667733
1629736 -0.8980983257517271 -0.28018394485128034
1634639 -0.8946167729276228 -0.27887905597938084
1639542 -0.8956921631895726 -0.282300071296125
1644445 -0.8948293557919107 -0.28015296259019934
1649348 -0.8985479045439555 -0.2806733024573503
1654251 -0.8974234549839805 -0.28015579809930335
1659154 -0.8962218395423514 -0.27429845678419684
1664057 -0.8990723288520143 -0.2759278985775061
1668960 -0.897411946365007 -0.2743920884156451
1673863 -0.8988685872991209 -0.27838249792480635
1678766 -0.8996895838123795 -0.2762118126323443
1683669 -0.9026666448067101 -0.2777726926001925
1688572 -0.899344797418774 -0.2741372239210156
1693475 -0.9031441314455478 -0.2704895383266551
1698378 -0.8996821129029519 -0.2748749432598082
1703281 -0.8974815227840954 -0.2717936741812353
1708184 -0.8984236294360379 -0.2735518689918759
1713087 -0.8997522066054425 -0.273955455358837
1717990 -0.8981795032471983 -0.27331908776393593
1722893 -0.900453353716147 -0.27043831037465016
1727796 -0.8989096150562298 -0.26812655156110105
1732699 -0.8983218428684768 -0.26824775451659977
1737602 -0.9028632014133641 -0.27087150855359554
1742505 -0.9028530631822215 -0.2685452799850552
1747408 -0.9028047789313411 -0.26652112022831437
1752311 -0.8993455421120875 -0.26602415825308023
1757214 -0.9036579278246099 -0.2654457980253586
1762117 -0.9028734622868776 -0.2648429960381591
1767020 -0.9036558971861363 -0.2667312071147214
1771923 -0.9054692068812856 -0.25964428954398044
1776826 -0.9038844101183929 -0.2673112658763222
1781729 -0.9114337552487964 -0.263529185483
1786632 -0.9024758916302253 -0.2599056082834741
1791535 -0.9063259760377863 -0.26028564538324983
1796438 -0.9044599463755456 -0.2620485519099191
1801341 -0.899930827997044 -0.26179236625573266
1806244 -0.9024704061297679 -0.25618523416686606
1811147 -0.9059163821702091 -0.2552862000618053
1816050 -0.9046097474774313 -0.2553134626196125
1820953 -0.908881838120232 -0.26182581198462535
1825856 -0.9063609564830842 -0.2587815844267057
1830759 -0.9079880858874646 -0.25751465218716585
1835662 -0.9041434208964988 -0.2544263580083228
1840565 -0.910160788287543 -0.25087889124821167
1845468 -0.908695530382367 -0.2539113608009761
1850371 -0.9076456098808081 -0.2510376500685888
1855274 -0.9052305935996343 -0.25495752448116293
1860177 -0.9061583495590326 -0.2523545949064396
1865080 -0.905190757104096 -0.2521122368083234
1869983 -0.9065720496049064 -0.2560888147839242
1874886 -0.9057007812078451 -0.2547118270562649
1879789 -0.9093141222474577 -0.2531587515898006
1884692 -0.9074887233059111 -0.2508852010567426
1889595 -0.9107565150706598 -0.2528838062091272
1894498 -0.906567027068585 -0.24742268864481498
1899401 -0.9128580889708668 -0.25040685965081644
1904304 -0.9082297717342115 -0.24864636858836175
1909207 -0.9092940244049135 -0.24970815499463173
1914110 -0.9068001532736055 -0.24718104769102284
1919013 -0.9133258058564064 -0.24739593631653897
1923916 -0.9087441988703642 -0.24912522114813962
1928819 -0.9103709831724909 -0.24528032491542226
1933722 -0.9101532262562714 -0.24426368965539363
1938625 -0.9131688040732848 -0.24748437357891925
1943528 -0.9107527938093832 -0.24712172677718106
1948431 -0.9092379702582122 -0.24411853684829946
1953334 -0.9124458184667147 -0.24362229140649008
1958237 -0.9074124958354911 -0.2444019964907412
1963140 -0.9104648092981553 -0.24559604314988034
1968043 -0.9113019330343952 -0.2449183601692703
1972946 -0.9113396294811655 -0.2483598338770656
1977849 -0.9127533335049381 -0.24286165081739192
1982752 -0.9123573854402244 -0.24312138263727875
1987655 -0.9103435902197973 -0.23784947855201333
1992558 -0.9125878265402348 -0.24274045609879624
1997461 -0.9127731598347528 -0.2410686479939611
2002364 -0.9141371644282409 -0.24425649252141385
2007267 -0.9103937599516535 -0.23867858025039998
2012170 -0.9129045584249778 -0.23847531143680317
2017073 -0.9101872621027365 -0.2398210335832504
2021976 -0.9129923585977605 -0.2367801568130234
2026879 -0.9128093616206745 -0.23843294055523265
2031782 -0.9114570515585232 -0.2337956433159648
2036685 -0.9145413542731402 -0.2404809318339908
2041588 -0.9188907345670959 -0.23362626830815972
2046491 -0.9170207571253977 -0.23712954849761692
2051394 -0.9136285843269055 -0.2351355746760095
2056297 -0.9142285308073926 -0.2355480159705676
2061200 -0.9146472750428153 -0.23610306124603195
2066103 -0.9151144767702013 -0.2339090243440465
2071006 -0.9152164756343325 -0.234234945195126
2075909 -0.9164748794403575 -0.2340243417557985
2080812 -0.9114550006577747 -0.23291001071484502
2085715 -0.9177472811268163 -0.23429111504759836
2090618 -0.9146780689724999 -0.23062720175165177
2095521 -0.9170053481811472 -0.22973183286704515
2100424 -0.9150719245555058 -0.23475403548778334
2105327 -0.918067754512457 -0.22869318814953743
