# HZ S RI R 50
100000 0.537495539724497 -0.7205513197123117
104903 0.5112208784194539 -0.7361766992283016
109806 0.48222789164517826 -0.7521636316521632
114709 0.45048792275579885 -0.7656941950419808
119612 0.42398941520034544 -0.7789879712013822
124515 0.4015613103116629 -0.7901077690090068
129418 0.3738528582010304 -0.8037732592059394
134321 0.34884921487976117 -0.809602952054483
139224 0.32273981200361335 -0.8213871408095796
144127 0.2993451919289256 -0.8300337077383524
149030 0.27056881919254056 -0.835270743993299
153933 0.24550399120159186 -0.8398334593747779
158836 0.22324782673611832 -0.8457693902618828
163739 0.1990672737182203 -0.8523535905937794
168642 0.17714794982515905 -0.8547112648152551
173545 0.15423169203842338 -0.8595503041855016
178448 0.13297181789653378 -0.8599977204630482
183351 0.11020617136585574 -0.8611097395502362
188254 0.08779738605615789 -0.8607844969425138
193157 0.06618215297678146 -0.8618405704012607
198060 0.04794640643298181 -0.8605697788668544
202963 0.026389079390148253 -0.8609861101954027
207866 0.009788732907387554 -0.8596789807049299
212769 -0.008536272496710635 -0.8534539227459513
217672 -0.020654123083909535 -0.8531471367022968
222575 -0.034812293769670426 -0.8584615813178104
227478 -0.04981167094559923 -0.8605274200058397
232381 -0.06757283992059843 -0.8632004186582982
237284 -0.08589902690402129 -0.8597510576130682
242187 -0.10588774494214837 -0.8601290580798984
247090 -0.11880110789276117 -0.8571660893793407
251993 -0.13423601847707897 -0.8561727397490142
256896 -0.1514520755216892 -0.8543646824658079
261799 -0.16575604547153203 -0.8512648324215832
266702 -0.1803852878454213 -0.8502763569896238
271605 -0.19506176708634765 -0.8434563804384047
276508 -0.20994055097861433 -0.8409042504877984
281411 -0.22609277397427907 -0.8401711615852289
286314 -0.2360628248709469 -0.8359071637415085
291217 -0.24619961482238395 -0.8336814538145094
296120 -0.261909854861643 -0.8312513754850528
301023 -0.2706968630780786 -0.8233535905260919
305926 -0.2868733853097224 -0.819995309333704
310829 -0.29391007735762975 -0.8181808409251775
315732 -0.30668392788942167 -0.8171701268875348
320635 -0.3195030779316335 -0.8110980001624167
325538 -0.32982186315204803 -0.8046254873459969
330441 -0.33853436073539933 -0.8063983434549248
335344 -0.3504708800575229 -0.7987046749047402
340247 -0.362789887532261 -0.7960517298204769
345150 -0.3677541404546903 -0.7936370065717763
350053 -0.38022199335061313 -0.7879805803196717
354956 -0.38944452222441855 -0.784143286102755
359859 -0.3981916225187643 -0.7771612426362132
364762 -0.40644493513918883 -0.7766634137810104
369665 -0.41490258065944835 -0.7696731377033765
374568 -0.42359635089996894 -0.7682049068458721
379471 -0.43258763839604814 -0.764045359742364
384374 -0.4420576986302272 -0.7638513530013984
389277 -0.4463333053893107 -0.7540374015727638
394180 -0.4560438863498265 -0.7511102065399861
399083 -0.4638110016071418 -0.7466743342306824
403986 -0.4727053139956245 -0.7430088954127814
408889 -0.4768577141693628 -0.7426511045418422
413792 -0.48537758917756724 -0.7328955985328217
418695 -0.49191516283548 -0.7307410923529346
423598 -0.4998009091175426 -0.7262539784127181
428501 -0.5084357934991018 -0.7220344415613209
433404 -0.5143534773157155 -0.7197456662816971
438307 -0.5221819704842663 -0.7126953569573378
443210 -0.5234427082953136 -0.7139748565935321
448113 -0.529046232905837 -0.7079214918162803
453016 -0.5349251784003668 -0.7029044998950733
457919 -0.5416068507167027 -0.6987605881588191
462822 -0.5470446944201255 -0.694754635506029
467725 -0.5546313882713815 -0.6900218609609671
472628 -0.5597461299721243 -0.6887242235494523
477531 -0.5672267874718155 -0.6838026269229062
482434 -0.5684506543457423 -0.6768872364211301
487337 -0.5747885640272359 -0.6779508543860662
492240 -0.5796162149283332 -0.6743379166171612
497143 -0.5835308869486847 -0.6699117441981389
502046 -0.5887533241439852 -0.6635806907835116
506949 -0.5925946034153865 -0.6631985436571792
511852 -0.5945338909558574 -0.661321511417433
516755 -0.6005225190687098 -0.6537631851793685
521658 -0.6085443793741431 -0.6542392834874967
526561 -0.6087564150848053 -0.6490215561466184
531464 -0.6145061653919408 -0.6448946552296932
536367 -0.6201823997486569 -0.6401407097603107
541270 -0.6232875043403002 -0.6378390623211724
546173 -0.6277732736186714 -0.6374285149525538
551076 -0.6325140051720747 -0.6332023440029811
555979 -0.6372652587843477 -0.6282374096811841
560882 -0.6371725575384096 -0.6242944161107654
565785 -0.643132062938028 -0.61831370366126
570688 -0.6481692934747371 -0.6154838219234987
575591 -0.6524856554453237 -0.6144059257496387
580494 -0.6514592118196627 -0.6067665008004175
585397 -0.6551943102396616 -0.605672163454145
590300 -0.660250553110466 -0.6043580933875636
595203 -0.6643068124557021 -0.6031239611885084
600106 -0.6675559834906888 -0.5996561765933365
605009 -0.6715925815431297 -0.5980292364113371
609912 -0.674329492319104 -0.5958234038464286
614815 -0.676502400622474 -0.5927411624855516
619718 -0.6810110865370304 -0.5892241907538189
624621 -0.683316954064487 -0.5870561570534498
629524 -0.6870225629053491 -0.5839197224982361
634427 -0.6896308830412312 -0.5816771552577006
639330 -0.695517967626718 -0.5779720384541035
644233 -0.6960409937413173 -0.575003644051428
649136 -0.6999869320183943 -0.5735647546446254
654039 -0.7009118623294325 -0.5695083978186175
658942 -0.7083462245019011 -0.5656440214745635
663845 -0.707369464117176 -0.5634499959123228
668748 -0.7070060311827966 -0.5619206766577866
673651 -0.713724861191554 -0.5553072301093781
678554 -0.7154074163330761 -0.5535100104664398
683457 -0.7152958922577008 -0.5528713871045318
688360 -0.7189019825623377 -0.5487740250091299
693263 -0.7263805546677854 -0.54721546815188
698166 -0.7286881345546167 -0.5441682734397613
703069 -0.7275630461130599 -0.5414927416339276
707972 -0.7292355200558946 -0.5398887774310615
712875 -0.7330903590084964 -0.5368834264792136
717778 -0.7350416164558292 -0.5324456586254664
722681 -0.7360880232822183 -0.5305969292655536
727584 -0.7398199907856657 -0.5271397009682077
732487 -0.7383493919186846 -0.5264079329432272
737390 -0.7457795035869923 -0.5219140598837883
742293 -0.7489756807386436 -0.5216196090602964
747196 -0.750323178858273 -0.5199540650788618
752099 -0.750823303591064 -0.5139314971733345
757002 -0.7529296626584805 -0.5136675643530058
761905 -0.7552782181557032 -0.5103888720801245
766808 -0.753368057541805 -0.5110464546236878
771711 -0.7577042711949723 -0.5071759392895728
776614 -0.7600718755630923 -0.5079135725678838
781517 -0.7617182578589115 -0.5025159922386692
786420 -0.7674180628507707 -0.5008866415665049
791323 -0.7677916087919436 -0.49887331504521487
796226 -0.7672536955993945 -0.49451986332402476
801129 -0.7686203816596342 -0.49372538965909796
806032 -0.7737420099949318 -0.491332375597532
810935 -0.7741600381827856 -0.4910055576718123
815838 -0.775777829905938 -0.4890757115405399
820741 -0.7756645457500994 -0.48416214043168226
825644 -0.7788015957055788 -0.484519500445008
830547 -0.7776806591062632 -0.48125254205828333
835450 -0.7821283795561463 -0.47664732258184095
840353 -0.7765829952506041 -0.47911540265341057
845256 -0.7821571596798915 -0.4729239738704893
850159 -0.785857520835288 -0.4720546822940197
855062 -0.7867313683523017 -0.46892263432148745
859965 -0.7881296753339704 -0.471388475051182
864868 -0.789075169999295 -0.46661372464287915
869771 -0.7926319411265781 -0.4666031992284608
874674 -0.7920537432546961 -0.46293969161730875
879577 -0.7911055784719647 -0.46135323854415
884480 -0.7924114638915797 -0.45760881553249944
889383 -0.7984794222628206 -0.4564432719735204
894286 -0.7979795836698834 -0.454003755785634
899189 -0.8008152787496399 -0.4519028280863695
904092 -0.800468153195744 -0.4509714528283072
908995 -0.8013427342396495 -0.44963613073264647
913898 -0.8039495696075656 -0.4484975842880418
918801 -0.8031608916672025 -0.4448439459103575
923704 -0.8023683749612486 -0.44349843584256377
928607 -0.806747201452458 -0.4418915626423833
933510 -0.8092428773131088 -0.44439804364668395
938413 -0.8107641728684889 -0.43298059443343845
943316 -0.8074563357541382 -0.43461868469175147
948219 -0.8137705476530728 -0.4350772689752789
953122 -0.8153737813765618 -0.4328445552323908
958025 -0.8096278831258692 -0.42913043883104096
962928 -0.8152885737305929 -0.42936715770198036
967831 -0.8179748745559063 -0.4285487305326172
972734 -0.8190351488045181 -0.42978478525067004
977637 -0.8178804293926597 -0.42589690758304943
982540 -0.8193963010173275 -0.4213719964413986
987443 -0.82215541682774 -0.4240497738335015
992346 -0.8211234157189181 -0.42018351029127793
997249 -0.8243370354776685 -0.4213297402894218
1002152 -0.8204867527275344 -0.4164780693398698
1007055 -0.8207408061255242 -0.4156182167278391
1011958 -0.8268965328664806 -0.41719593899077856
1016861 -0.8275465054523606 -0.41504355357371675
1021764 -0.8283340574158911 -0.4112495405916591
1026667 -0.8273459163242376 -0.4095692610803235
1031570 -0.8304132914549223 -0.409581056714391
1036473 -0.8292242969572592 -0.40647319448321706
1041376 -0.832537987565347 -0.4063123326323934
1046279 -0.8336299128303829 -0.4023597019608009
1051182 -0.8326795319308425 -0.4055983588717779
1056085 -0.8357334369136227 -0.4017891862200326
1060988 -0.833036614488965 -0.4026853387174683
1065891 -0.8387851069388862 -0.3972159393466618
1070794 -0.8369909512987987 -0.39861708437940546
1075697 -0.8396554526722807 -0.39573538842767125
1080600 -0.8414800637791247 -0.39526974977494195
1085503 -0.837786705755175 -0.3916946674307692
1090406 -0.840469236846233 -0.3895916553605063
1095309 -0.8439493017895814 -0.39110009372108284
1100212 -0.8408682011345002 -0.39131643425657864
1105115 -0.8435485524471446 -0.3833960061931458
1110018 -0.8428563024503091 -0.3888726984263057
1114921 -0.8439194570833555 -0.37929471154226196
1119824 -0.8444381006560082 -0.3854975614580965
1124727 -0.846594741066097 -0.3799960775607672
1129630 -0.84786189852083 -0.3781459947971372
1134533 -0.8471143762429194 -0.378991781259751
1139436 -0.8486907449674521 -0.380202471556169
1144339 -0.8477771782261391 -0.3764888178145416
1149242 -0.8487634878041811 -0.3750818776795151
1154145 -0.8534724337369558 -0.3751419834558744
1159048 -0.8510409079197085 -0.3772221792123165
1163951 -0.8524028596413338 -0.3725273770185411
1168854 -0.8499151657410532 -0.3677784984937293
1173757 -0.8544964464846002 -0.3705384345530145
1178660 -0.8559199554767177 -0.364600460369302
1183563 -0.8521238690188081 -0.3690670056320021
1188466 -0.8526521569969873 -0.3670063615414044
1193369 -0.8564492263738963 -0.3680393491758408
1198272 -0.8585383118717382 -0.3622393559472216
1203175 -0.8603950722819299 -0.36229756969854005
1208078 -0.8582930747743156 -0.35708215648175223
1212981 -0.8576221997952516 -0.35822912068675156
1217884 -0.860498386343634 -0.35862576236473725
1222787 -0.8608163041493138 -0.35707339315534625
1227690 -0.8603414409421168 -0.35476942263208944
1232593 -0.8622986884143042 -0.35772726428650403
1237496 -0.8620968831151476 -0.35750453115714204
1242399 -0.8631548079121767 -0.35340782768004664
1247302 -0.8664716441202391 -0.3531920693615996
1252205 -0.8635657663697848 -0.34892618650168195
1257108 -0.8670290624713718 -0.350193343452559
1262011 -0.8675284293277566 -0.3471109954857828
1266914 -0.8656439961940503 -0.34713111895239895
1271817 -0.8669538054424093 -0.34938976129761107
1276720 -0.8667437886468504 -0.34146438354798336
1281623 -0.8670237927509064 -0.3448731424468852
1286526 -0.8647192425433448 -0.34267713692908497
1291429 -0.8696708073962339 -0.34118981026789313
1296332 -0.8666333542293088 -0.33791510362666094
1301235 -0.8710379923877344 -0.33731216897489
1306138 -0.8734106640396745 -0.3421675492638262
1311041 -0.8697997292084375 -0.3329556744812379
1315944 -0.8703901992489351 -0.33619169320723175
1320847 -0.8710426427339168 -0.33302796133921275
1325750 -0.8704963236003822 -0.33908868814587095
1330653 -0.8691195561581553 -0.3331858119969214
1335556 -0.8741530933568111 -0.3339425618687887
1340459 -0.8741213789525565 -0.33035807265682854
1345362 -0.873184224900726 -0.32938069983059315
1350265 -0.8734743041569191 -0.33033783335649536
1355168 -0.8743817420866739 -0.3278395803067062
1360071 -0.878381678580355 -0.32728879196736377
1364974 -0.8754919913280066 -0.32641982862008834
1369877 -0.8771566964273116 -0.32410064752195344
1374780 -0.8781306479282056 -0.32706270809329807
1379683 -0.8780024954581845 -0.3240581535823332
1384586 -0.8780707696757858 -0.3221170181875099
1389489 -0.8785289822547759 -0.32236256405722
1394392 -0.8802050641166979 -0.3230493415193027
1399295 -0.8780597675072649 -0.3207440431984623
1404198 -0.8804297752839928 -0.3197668695233689
1409101 -0.8791440712478519 -0.31919582959879
1414004 -0.8838839791444614 -0.31802362067456924
1418907 -0.8808685383429963 -0.31711778009242797
1423810 -0.8793471332417923 -0.3137665117999218
1428713 -0.8830712467123787 -0.3154654484409207
1433616 -0.8808074326207412 -0.3174005248742339
1438519 -0.8832642361208094 -0.31653769143418514
1443422 -0.8842750034550165 -0.30716215906349464
1448325 -0.8843420080704016 -0.3125295105269025
1453228 -0.8839629835160848 -0.30996396592592707
1458131 -0.8827457445844653 -0.31146643379297567
1463034 -0.8878340669346868 -0.3103056171562031
1467937 -0.8834634720384443 -0.3088979209770017
1472840 -0.8848064999384914 -0.3070633733425849
1477743 -0.8839930247111064 -0.3073209672804299
1482646 -0.8849526324903665 -0.30686614079507574
1487549 -0.8894309007306206 -0.30457852531378543
1492452 -0.8878398789003697 -0.3038815095541502
1497355 -0.89087359768461 -0.3015153745492381
1502258 -0.8860078777965855 -0.3001165293321695
1507161 -0.8863069488611047 -0.30190650763580057
1512064 -0.8918576451903203 -0.3024687765811433
1516967 -0.8929452787550506 -0.2975309619188208
1521870 -0.8868799802231613 -0.30144984696180666
1526773 -0.8890075323836745 -0.29663218191950647
1531676 -0.8881300644407615 -0.2965494008904294
1536579 -0.8906885621449292 -0.29376327941753777
1541482 -0.8904235749262037 -0.2979224854362071
1546385 -0.8940930408473088 -0.2968472721632245
1551288 -0.8919472353665391 -0.2931926919090454
1556191 -0.8897101107783167 -0.2912234607384565
1561094 -0.8928603550006279 -0.2967786020587216
1565997 -0.8914089087237769 -0.28961022658429936
1570900 -0.8944660926196801 -0.2917239147321907
1575803 -0.895871679564729 -0.2938716201656005
1580706 -0.8908740307443214 -0.28995484250821296
1585609 -0.8904267382827892 -0.2884908631051138
1590512 -0.8915620224684355 -0.287724896004819
1595415 -0.8988492213217494 -0.28753477954596557
1600318 -0.8923309419976648 -0.2865880538470072
1605221 -0.8962271361093938 -0.2843677727788312
1610124 -0.8961092272207892 -0.28582427205073635
1615027 -0.8964099900719067 -0.28373162178880956
1619930 -0.8952456450444782 -0.2830121242804678
1624833 -0.892436098428205 -0.2842424310520649
1629736 -0.8967223781766535 -0.2831330721296305
1634639 -0.8937861860984245 -0.28025503833047594
1639542 -0.8982112798720915 -0.2848737373636889
1644445 -0.8957878466387055 -0.2819666641898444
1649348 -0.8991782627622363 -0.278250966155329
1654251 -0.8975053625982338 -0.28214260158404925
1659154 -0.8989549145313239 -0.2770094524778969
1664057 -0.8967121544727003 -0.27538756309347395
1668960 -0.9003309212187796 -0.27566483856169127
1673863 -0.9006290752009003 -0.2795110186054298
1678766 -0.9003094480536791 -0.275006879405876
1683669 -0.9045520553233907 -0.27912779585220865
1688572 -0.8996626634493758 -0.2760878194267688
1693475 -0.9019287854216499 -0.2702694234473233
1698378 -0.8981655355328803 -0.27245366805412596
1703281 -0.9023058897888372 -0.2732833213901548
1708184 -0.8988849624466688 -0.27637693808100133
1713087 -0.9002187186697151 -0.27165764013375193
1717990 -0.9047756000886387 -0.2711694077244915
1722893 -0.9000927368855566 -0.2685382429515163
1727796 -0.90256670334196 -0.26839806941822963
1732699 -0.8972421318936459 -0.2697014220663693
1737602 -0.9033500440164883 -0.2699064621786204
1742505 -0.9026789482920947 -0.268191127042371
1747408 -0.906378382942884 -0.2637652578918118
1752311 -0.901460092117451 -0.2666559759152268
1757214 -0.9046833076624883 -0.2670233712887576
1762117 -0.9018584761177426 -0.26747798432878117
1767020 -0.9007153844969484 -0.26571891102933637
1771923 -0.9036924578001136 -0.26248914947722407
1776826 -0.909223786989547 -0.2667256849300163
1781729 -0.9079107381128867 -0.2632156171998244
1786632 -0.9013221143189388 -0.26030237521343946
1791535 -0.9029276829659151 -0.2638589609586237
1796438 -0.9043662321534772 -0.26489629784124336
1801341 -0.9024583393625021 -0.26031619691693547
1806244 -0.9029420282133607 -0.25800013115706916
1811147 -0.9037913800501675 -0.25717129294367874
1816050 -0.9076821137897902 -0.25807107708049687
1820953 -0.9079117553894253 -0.26014639455485905
1825856 -0.9054318322258553 -0.2557075815875631
1830759 -0.9089566950110847 -0.25989300883266614
1835662 -0.904183700798529 -0.25422474315813665
1840565 -0.9075735385213438 -0.2606436284128142
1845468 -0.9070191014003117 -0.2549742630540999
1850371 -0.9102437926097963 -0.25614913526278654
1855274 -0.9047785511236758 -0.255242131876848
1860177 -0.9071473015892387 -0.2539329416201306
1865080 -0.9075452664742654 -0.253012451155371
1869983 -0.9054074464689384 -0.25892553411890906
1874886 -0.9062659286623495 -0.25611570323954325
1879789 -0.9102264864467475 -0.25116067837561273
1884692 -0.9093752337721115 -0.25251963444605563
1889595 -0.9071127780461307 -0.25067079573595136
1894498 -0.9101355358252884 -0.2501113609551186
1899401 -0.9094034320582506 -0.24996414184569654
1904304 -0.9081783919331348 -0.2518025047321355
1909207 -0.9144923887590033 -0.24771885097360816
1914110 -0.9110950266209644 -0.24905227071652142
1919013 -0.9116269150963231 -0.24699936194212413
1923916 -0.9092111905200762 -0.24911234717468425
1928819 -0.911141030452186 -0.2503573800273674
1933722 -0.9117330710455773 -0.24488753029196927
1938625 -0.910343916509402 -0.2439139992325862
1943528 -0.9113273728261493 -0.2461755710277582
1948431 -0.910541511057414 -0.24436831514959237
1953334 -0.9158512754134048 -0.24281684300094974
1958237 -0.9105219303861084 -0.2468718910593405
1963140 -0.9122973814289953 -0.24371542141830946
1968043 -0.9133241678755181 -0.24910679537421976
1972946 -0.9114904926810254 -0.24314496719920395
1977849 -0.9157785759985709 -0.2416895125844424
1982752 -0.9082104321541428 -0.24163541248514778
1987655 -0.9127887442060015 -0.23687182673919954
1992558 -0.9155650720159183 -0.2401025609225477
1997461 -0.914983269265887 -0.24158331705022626
2002364 -0.9111378813851974 -0.24282191594001012
2007267 -0.9105150300090867 -0.23549596454813163
2012170 -0.9154215633028999 -0.23792097695872882
2017073 -0.9123318767630431 -0.2372288296448639
2021976 -0.9134306594739726 -0.2395814973584495
2026879 -0.914991148772534 -0.23705082664925411
2031782 -0.9154920392208523 -0.23721724074403683
2036685 -0.9122645836134411 -0.236801743580758
2041588 -0.9097310001251789 -0.2377785725121037
2046491 -0.9160781635856275 -0.23705958842209232
2051394 -0.9128294530859996 -0.23946584708773203
2056297 -0.914913141848328 -0.23875469605277494
2061200 -0.9157349890518158 -0.23602511250571848
2066103 -0.9166042726738901 -0.2344523682692589
2071006 -0.9158395513041306 -0.2331147795622691
2075909 -0.9206767843237503 -0.23594422722400546
2080812 -0.913225764279624 -0.23007986834219465
2085715 -0.918858711194398 -0.2332478093895499
2090618 -0.9145390895323888 -0.23300075142962953
2095521 -0.9168146441035558 -0.2331853734531954
2100424 -0.9129642504793809 -0.22901085811729224
2105327 -0.9165266229434955 -0.2319807294722185
