# HZ S RI R 50
100000 0.5230188961730875 -0.7182581918860063
104903 0.49656633860199595 -0.7351521865867988
109806 0.46622495817634585 -0.7508119874018627
114709 0.43365218622363433 -0.76634799382412
119612 0.4066157810887262 -0.7771789423518327
124515 0.37732181819585225 -0.7892700837693106
129418 0.34728673539320004 -0.800638910683636
134321 0.31707509644545806 -0.8071429104872507
139224 0.2880990055207118 -0.8175681701703701
144127 0.2587134382953816 -0.8234031297131257
149030 0.22458952431967477 -0.8264594964887182
153933 0.19307762914474594 -0.8278590361177063
158836 0.16393502627639062 -0.8313418441282451
163739 0.1303825430445387 -0.8286119060780963
168642 0.10067855269405475 -0.8185323414393416
173545 0.07275685742660298 -0.813831138074411
178448 0.046221038624627085 -0.8018187965394762
183351 0.015867531068104093 -0.7859625904637506
188254 -0.013367136766756165 -0.7684131564911743
193157 -0.038331096268810205 -0.7429527217346878
198060 -0.060320022459877186 -0.7065381461921187
202963 -0.06913782220539688 -0.653449918309007
207866 -0.04319384474226061 -0.6060183429448058
212769 0.009380050448305836 -0.5602416243473314
217672 0.0926187021822968 -0.557392781419919
222575 0.16774781199743286 -0.631346035599153
227478 0.16400638944663698 -0.7196531414709493
232381 0.1287089628832676 -0.7705642564675578
237284 0.0938712744026181 -0.8002939764377188
242187 0.05895707738003132 -0.8190660980629282
247090 0.030506885886145415 -0.8273326559233861
251993 0.007064224061025106 -0.8386277968222701
256896 -0.01896714949622091 -0.844943689335625
261799 -0.04529852705098784 -0.8501185083286532
266702 -0.06957812746370944 -0.8535686163147085
271605 -0.09447941159115116 -0.8511304475534557
276508 -0.115093806052801 -0.8529487073614235
281411 -0.13537737775611366 -0.8481690804751201
286314 -0.1537539920657505 -0.8453279695585648
291217 -0.1675525268363722 -0.8413474483530003
296120 -0.1859750130891134 -0.8384715395165679
301023 -0.19883395416058194 -0.8338493687270915
305926 -0.21435202989344346 -0.8269630904983688
310829 -0.2196780692374026 -0.8248989873629876
315732 -0.23000284201662013 -0.8237178597903494
320635 -0.2437098355865643 -0.8243044018577995
325538 -0.25581377161266095 -0.8198917137812863
330441 -0.26885140215491343 -0.8217545019959595
335344 -0.28364907636121434 -0.8185499751233644
340247 -0.29721209555588923 -0.8179324602688758
345150 -0.3070061891107578 -0.8129789140459509
350053 -0.3240815666294389 -0.8087064971193639
354956 -0.3323366462234723 -0.8044264176895322
359859 -0.34584950716299756 -0.7997763288133762
364762 -0.3534538869038107 -0.7971818981439359
369665 -0.36204913301741526 -0.7910829306794182
374568 -0.3728891758481233 -0.7890103033083692
379471 -0.3867875099422536 -0.7840523302682603
384374 -0.39417682741458654 -0.7843961864612018
389277 -0.4040451513705762 -0.7774040212376137
394180 -0.4113036524878546 -0.770083837928778
399083 -0.42210257991441436 -0.7692820919305463
403986 -0.4299078073381216 -0.7632124519850575
408889 -0.4380886052064953 -0.7613141677186359
413792 -0.4494363080748157 -0.7546704885885128
418695 -0.45566054253897853 -0.7482986783444777
423598 -0.46391259367614407 -0.7467818808839369
428501 -0.4729724185940699 -0.7401839839264247
433404 -0.479130153275284 -0.738027134443308
438307 -0.4861310295473676 -0.729531828493842
443210 -0.4914417379977907 -0.7310223167208659
448113 -0.49822913916180794 -0.7237229706361331
453016 -0.5073144735507081 -0.7223072695764563
457919 -0.5108759432835566 -0.7148980350419153
462822 -0.5208678824753713 -0.7110998628995475
467725 -0.5247847340864291 -0.7049454742533487
472628 -0.5327663276222318 -0.7025634924402054
477531 -0.5408424106165286 -0.6964678635532332
482434 -0.5445699254854094 -0.69041647257829
487337 -0.5504560986208693 -0.6923522249755364
492240 -0.5559784740027088 -0.6823387910742892
497143 -0.5637848577782288 -0.6797578689486519
502046 -0.5662560028961389 -0.6745605818398478
506949 -0.5699716722415298 -0.6693193653329177
511852 -0.5748583061648931 -0.66519319166858
516755 -0.5826962186836379 -0.6598852202754512
521658 -0.5892750690963579 -0.6593186368962329
526561 -0.5888945867686622 -0.6494635739200539
531464 -0.5968547120793661 -0.6442037205800378
536367 -0.6022339535636978 -0.6377519341513077
541270 -0.6057327020385177 -0.6308476739211709
546173 -0.6111398103577508 -0.6282952558257269
551076 -0.6173148826223985 -0.6182000020562963
555979 -0.6159613955224481 -0.6074818974880228
560882 -0.6153410053322543 -0.5984804140232517
565785 -0.6155052321276262 -0.5846249164554842
570688 -0.6093030424380246 -0.5759150792388138
575591 -0.5973541717821683 -0.5697130188542031
580494 -0.5781889240625842 -0.5697200988642145
585397 -0.5667943135003783 -0.5844304172044409
590300 -0.5684543720097487 -0.5980126647225593
595203 -0.5755923635589798 -0.6107396294453297
600106 -0.5861492930204484 -0.6235876086574035
605009 -0.5978104799289344 -0.6270495936655602
609912 -0.6069514232259482 -0.6251457198216096
614815 -0.6145880990229174 -0.6263516568075181
619718 -0.6234980026951882 -0.6219900228728452
624621 -0.6306996740086017 -0.6203403462584283
629524 -0.6400714173423603 -0.6170723346402475
634427 -0.6445131653094163 -0.6163558499560251
639330 -0.6528081542419036 -0.6131408874693065
644233 -0.6593724167928251 -0.607071746267079
649136 -0.662909200858943 -0.6062828109443097
654039 -0.6657796220077109 -0.6003220225065592
658942 -0.6745411776906703 -0.5972886175180805
663845 -0.6747791051921744 -0.5922959892526621
668748 -0.6771853215387742 -0.5884155558594043
673651 -0.6819915959673112 -0.5851196900187329
678554 -0.6847993149576157 -0.5826688084177517
683457 -0.6883111523079453 -0.581684019360709
688360 -0.6886913659100121 -0.5740970451436611
693263 -0.7013357532095538 -0.5735990731826686
698166 -0.6966690664149585 -0.5712585318606376
703069 -0.702002811553117 -0.5683670620665796
707972 -0.7035051299768089 -0.571423733588065
712875 -0.7088562667854796 -0.5638418013096069
717778 -0.7155606087845396 -0.5603735821441959
722681 -0.7120862907668188 -0.5540082304405998
727584 -0.7167823384164291 -0.5532917675837705
732487 -0.7200883144782871 -0.5511657494127143
737390 -0.7243886197221496 -0.5492148054551081
742293 -0.725881055189243 -0.5456972583618319
747196 -0.7303954487719825 -0.5395439374109915
752099 -0.7319160924454579 -0.5366564812288828
757002 -0.7316909797036101 -0.534442130329693
761905 -0.7359170487864619 -0.5339002546884294
766808 -0.7354300112771692 -0.5325741747969114
771711 -0.7395948885977672 -0.5258970875632069
776614 -0.7440482811242577 -0.5251493912743226
781517 -0.7441838375130959 -0.5244127866021704
786420 -0.7491049404494972 -0.5190089722995435
791323 -0.7471869421136255 -0.5188180055000865
796226 -0.7543023962594543 -0.5137368143215801
801129 -0.7530703796017683 -0.5125844145924392
806032 -0.7550405905072809 -0.5085578339915303
810935 -0.7612603803829318 -0.5089273804426869
815838 -0.7572887412532778 -0.5042254580398077
820741 -0.759925020386335 -0.5011650974868543
825644 -0.7601245074579804 -0.49995201468538386
830547 -0.768167781301943 -0.4980138617204357
835450 -0.7660071306109244 -0.49485473410413183
840353 -0.7649278015362301 -0.49037492066891675
845256 -0.7693712548364112 -0.48953973049885235
850159 -0.771824691343568 -0.4883023521918393
855062 -0.7764954219549409 -0.4871272147742863
859965 -0.7753709854164853 -0.48150169479875204
864868 -0.7769268154272164 -0.48108207067879977
869771 -0.7779654943586175 -0.4800728177244568
874674 -0.7774978009323624 -0.47510005513233666
879577 -0.7800845799906565 -0.46972649208894207
884480 -0.7800108347813824 -0.4697429329497274
889383 -0.7871836599016593 -0.4649660815813131
894286 -0.7878419951508532 -0.4640744873099776
899189 -0.7850183384295795 -0.4622781208066781
904092 -0.7905030130243395 -0.4549568624217788
908995 -0.7900109294564611 -0.4512026719346734
913898 -0.7899037857953433 -0.45392929484333644
918801 -0.7888627836582691 -0.446836925046093
923704 -0.7891138300724795 -0.4430822646167322
928607 -0.7901670283023775 -0.440495468467499
933510 -0.7872437164757048 -0.4392507724562885
938413 -0.7843350532492063 -0.4320012665713365
943316 -0.7817821742465653 -0.4328724003113117
948219 -0.7796630355306808 -0.43837778067630634
953122 -0.7784472624441771 -0.4386541161337854
958025 -0.7754172106886776 -0.44017213586857823
962928 -0.7773836535480501 -0.44381907478006855
967831 -0.7835286627942168 -0.44520946577804793
972734 -0.7895743694797545 -0.4450599478709158
977637 -0.788729521369899 -0.44574109891851715
982540 -0.7910651785819464 -0.4418423992784786
987443 -0.7956397560688804 -0.4413626607297371
992346 -0.79749265691277 -0.4427842512671263
997249 -0.8012084970343056 -0.44313310492325136
1002152 -0.8007701524957762 -0.43930540163206855
1007055 -0.8032823460264621 -0.4391152708574065
1011958 -0.8072464711006759 -0.4359799204902196
1016861 -0.8094531157843146 -0.433352565372408
1021764 -0.8122513253369635 -0.43248998247126613
1026667 -0.8130465036452001 -0.4298979675171682
1031570 -0.8183104109752996 -0.4299800380316778
1036473 -0.8121084624844961 -0.4246783100683528
1041376 -0.8193629767948277 -0.4261698949392134
1046279 -0.8177388008650207 -0.42246038039864175
1051182 -0.8221558956322262 -0.4220202942950418
1056085 -0.8237286113909474 -0.42037746063930465
1060988 -0.8228489215628118 -0.4186411066960511
1065891 -0.8271375277426699 -0.4160445571415856
1070794 -0.8254119866396428 -0.4151046922739463
1075697 -0.8274711212481648 -0.41124889197348424
1080600 -0.8296909249392196 -0.41140201252636965
1085503 -0.8310384920511062 -0.40730264573375735
1090406 -0.8306135278466615 -0.40840794983368817
1095309 -0.8331641314300695 -0.403307902175722
1100212 -0.8351827294063148 -0.40623599972818414
1105115 -0.837402615568766 -0.403932903993981
1110018 -0.8340982667925332 -0.4029133500282213
1114921 -0.8351287081028865 -0.3951961945260732
1119824 -0.8371954558146327 -0.39698383596952636
1124727 -0.8385110670121543 -0.3952617753488041
1129630 -0.8391869225249136 -0.38698748700877234
1134533 -0.8415565506870907 -0.3895673636113777
1139436 -0.840517804343673 -0.39251780868474306
1144339 -0.8405275595937369 -0.3881132593707666
1149242 -0.842397561114509 -0.3862843493962506
1154145 -0.8451857345246462 -0.385637203940542
1159048 -0.84457166373243 -0.384485496593123
1163951 -0.8456913198431997 -0.38117313549625387
1168854 -0.8438689890765975 -0.38119380787560814
1173757 -0.8473009722982394 -0.37770739802460757
1178660 -0.8464655868962863 -0.37589056977053853
1183563 -0.8462780290802697 -0.3748642155991279
1188466 -0.8484240012525875 -0.37370729646150164
1193369 -0.8493093123545306 -0.372386711378875
1198272 -0.851093138898873 -0.3727364867658902
1203175 -0.851291349478854 -0.3688677994160334
1208078 -0.8498759515681344 -0.3648325275476951
1212981 -0.8525068121959525 -0.3641353330157994
1217884 -0.8513347200396708 -0.3650336125927989
1222787 -0.8544410119586388 -0.3611146704182951
1227690 -0.8522880083732818 -0.36012224123615094
1232593 -0.8550913115057055 -0.35988527721100444
1237496 -0.8538080237363386 -0.3585051943369701
1242399 -0.8550241971363378 -0.3574542770218128
1247302 -0.8599345506525223 -0.3565572568889284
1252205 -0.8580038313339281 -0.3521883442098242
1257108 -0.8588731515047278 -0.3528439535584195
1262011 -0.8568412870097699 -0.34800094269157417
1266914 -0.8620083070844718 -0.3450659894403595
1271817 -0.8568089309368709 -0.348059361327221
1276720 -0.855551165310197 -0.34088501270438704
1281623 -0.8556127694146844 -0.3395644539177906
1286526 -0.8507761248557991 -0.3406331616285994
1291429 -0.8532248586061225 -0.3421890084438792
1296332 -0.8508080610363493 -0.337945690916963
1301235 -0.8510726478314145 -0.3430364337420202
1306138 -0.855801352930014 -0.34437619801333574
1311041 -0.8525983786102805 -0.34236501068215613
1315944 -0.8524283802198083 -0.3393395802615589
1320847 -0.852843628890587 -0.3452064984021884
1325750 -0.8553340733454444 -0.3448814496998014
1330653 -0.8596183453317227 -0.34495342579250216
1335556 -0.8610775380694272 -0.3441959469613792
1340459 -0.8617570070109355 -0.3431253281274262
1345362 -0.8622504798926659 -0.3413737762540246
1350265 -0.8623945446192892 -0.34022254304197447
1355168 -0.8637242693035646 -0.3400816737629278
1360071 -0.8684734210741002 -0.33236791035766083
1364974 -0.868683473385202 -0.33558314280639867
1369877 -0.8683528768768866 -0.33616043710302157
1374780 -0.8694057640675726 -0.3329632325154319
1379683 -0.87309903912661 -0.33285387218964274
1384586 -0.8701568581244035 -0.3316991016455531
1389489 -0.8721016328605603 -0.32611796115983793
1394392 -0.8727656928943159 -0.32720042869335086
1399295 -0.8706500893289981 -0.32715512538826513
1404198 -0.8744188062539826 -0.32556273699287225
1409101 -0.8745938208189926 -0.32739795614425543
1414004 -0.8771969717673467 -0.323147375259508
1418907 -0.8715257459502843 -0.3224909241580143
1423810 -0.8759184666189902 -0.31922596712287027
1428713 -0.8751182996502579 -0.3221400025902612
1433616 -0.8748629373707186 -0.3206211702020671
1438519 -0.8748323455714925 -0.3195031639215843
1443422 -0.8787196242179935 -0.31527766929519274
1448325 -0.8771473929981785 -0.3173807791480947
1453228 -0.8763307233502675 -0.31519451870774573
1458131 -0.879235968408553 -0.31270527193547926
1463034 -0.8807051169022503 -0.31409809145819495
1467937 -0.878096628391485 -0.309715673323822
1472840 -0.8795513154417199 -0.31047889099026554
1477743 -0.8785010319911003 -0.3093845160073006
1482646 -0.8796570204573193 -0.3062968882209433
1487549 -0.8836550593017377 -0.3072723735344832
1492452 -0.8823911889177101 -0.30575743404152855
1497355 -0.8811803166071768 -0.3020869883234089
1502258 -0.8801762601387715 -0.3030593043452702
1507161 -0.8816194779864254 -0.3018446060593534
1512064 -0.8803778441109277 -0.3028429622480062
1516967 -0.8829184333289393 -0.2983174767322731
1521870 -0.8824511339339882 -0.30040082244785393
1526773 -0.8831359963462521 -0.29422281603442285
1531676 -0.8818981016163422 -0.2969903875297994
1536579 -0.8847386847726801 -0.29314683955182386
1541482 -0.8854105715759204 -0.2950830411298185
1546385 -0.8807779378488363 -0.2917791139872795
1551288 -0.8864229382231679 -0.28916515703938067
1556191 -0.8847340150598102 -0.28942164413128996
1561094 -0.8876566197700942 -0.28874838259594554
1565997 -0.8796134183287275 -0.2845638723359747
1570900 -0.8890418030851169 -0.28568818357817205
1575803 -0.881027944891687 -0.28823966135130497
1580706 -0.8815072703408663 -0.2846440679510695
1585609 -0.8789994394493865 -0.28693201803151824
1590512 -0.8788788003450889 -0.2854251011089393
1595415 -0.8828920291143356 -0.29022579199920634
1600318 -0.8759377181711416 -0.288746475637832
1605221 -0.884635700337446 -0.28889076199448305
1610124 -0.8862205177998317 -0.2884869409559177
1615027 -0.8841514621271545 -0.2858143798849122
1619930 -0.8833714895250997 -0.2856150526841239
1624833 -0.8868616756230977 -0.28409028696044936
1629736 -0.891537624935989 -0.2827696930018603
1634639 -0.8886185201337962 -0.2826138835056943
1639542 -0.8910704389835838 -0.2810002656315888
1644445 -0.8912189928621136 -0.2828794169907856
1649348 -0.8928846843429821 -0.28031175581915024
1654251 -0.8919369956205835 -0.2782301225471225
1659154 -0.8921090318618563 -0.27613128688575267
1664057 -0.8945319071326522 -0.27671257953505163
1668960 -0.8946665447067172 -0.2754004718808837
1673863 -0.8921513378099866 -0.27842301508599515
1678766 -0.8957996224971714 -0.27534627037488074
1683669 -0.8927713698013123 -0.27951160116772317
1688572 -0.8936405087366882 -0.27412299004484636
1693475 -0.8991466253204626 -0.2717697470181257
1698378 -0.8947388436732103 -0.26966678132560146
1703281 -0.8949666424874113 -0.2692269967005135
1708184 -0.8940556198235203 -0.2741502971432344
1713087 -0.897505460039726 -0.26401234567437354
1717990 -0.894755901825337 -0.2678772765612553
1722893 -0.8956617660460113 -0.2622199042898689
1727796 -0.8980556136617496 -0.26045427909226565
1732699 -0.8936380895167421 -0.26142409768464603
1737602 -0.8963486261379148 -0.26284614611575974
1742505 -0.8977888168210574 -0.2637014529878173
1747408 -0.8967415343698485 -0.26094393291485
1752311 -0.8962497648858949 -0.25814297199281827
1757214 -0.9022231793581547 -0.25807813079232766
1762117 -0.8975230165956617 -0.2585117096547668
1767020 -0.8993788656040035 -0.25338008648001237
1771923 -0.896298739180881 -0.2538088300286945
1776826 -0.8990642338782365 -0.2589326099842565
1781729 -0.902560310907091 -0.2508956201479572
1786632 -0.8954928263198739 -0.2499155361594713
1791535 -0.898789327296071 -0.2532963460913868
1796438 -0.8945111282276895 -0.2574847840071699
1801341 -0.8908688854142954 -0.2529111988384048
1806244 -0.8935931266268687 -0.2521791499770229
1811147 -0.8947105413098329 -0.2515471900894364
1816050 -0.893518065893648 -0.2508966954345913
1820953 -0.8981726558108237 -0.2532204676396895
1825856 -0.8955869942656638 -0.25436749519967594
1830759 -0.8965991382812931 -0.2531352048201019
1835662 -0.8920724709916857 -0.25039073340765944
1840565 -0.8979183551617245 -0.2525232624971426
1845468 -0.9017573247320555 -0.24959987624870997
1850371 -0.897057817042676 -0.24690008951375964
1855274 -0.902537827159563 -0.25463690738984335
1860177 -0.8977990252760789 -0.24530710640452136
1865080 -0.9016555999827195 -0.24571343026624418
1869983 -0.9006017285115541 -0.24786807672675235
1874886 -0.8953062570126499 -0.243953115149013
1879789 -0.902159208112674 -0.24280906060589974
1884692 -0.9016432685433272 -0.24515514173406674
1889595 -0.903216318807169 -0.23941187758961852
1894498 -0.9018311546533531 -0.23762991145380638
1899401 -0.9009058661566689 -0.23986120623688442
1904304 -0.9016223235539002 -0.23693103957920658
1909207 -0.9036943556236743 -0.2353313192843699
1914110 -0.9009719464489073 -0.2390012553818629
1919013 -0.9042417985009766 -0.2355041706197138
1923916 -0.9054915686502728 -0.2339131597961166
1928819 -0.900961768488385 -0.23623131509897563
1933722 -0.899863977396589 -0.23212448934221053
1938625 -0.9020146155013131 -0.23125274729613335
1943528 -0.9036463664298433 -0.23966515795880353
1948431 -0.9007611975533037 -0.23716453038649649
1953334 -0.9028612601215783 -0.23102024049013334
1958237 -0.8969427616143625 -0.235219457461197
1963140 -0.9002387789006623 -0.232781519544082
1968043 -0.9016540139932052 -0.23965663113551178
1972946 -0.8997777528766951 -0.23458058543037313
1977849 -0.903797881439947 -0.2345784481731048
1982752 -0.8978687732399527 -0.23509215032830616
1987655 -0.9046935253819643 -0.23109178854204543
1992558 -0.9036712919722271 -0.2303009385348661
1997461 -0.9074334677779347 -0.23229385068152822
2002364 -0.9066904556010763 -0.23362614095044867
2007267 -0.906084786561495 -0.2272885087009063
2012170 -0.9065587560555877 -0.2289497848624327
2017073 -0.9055930126477426 -0.23065371586203556
2021976 -0.9067480373391069 -0.22909318761522518
2026879 -0.908542399825978 -0.22611429917594467
2031782 -0.9097999579326683 -0.2274871324833914
2036685 -0.9080650728653177 -0.22705210460596892
2041588 -0.9092428174725458 -0.2198967577706368
2046491 -0.9095363126649194 -0.22215499572780986
2051394 -0.9126076542677691 -0.2242037774682554
2056297 -0.9084116300425243 -0.22204812332573146
2061200 -0.9058100016723634 -0.21970649288229546
2066103 -0.9122526901757096 -0.21971337701344087
2071006 -0.9069744339870202 -0.21724901400983926
2075909 -0.9094783208644962 -0.21850277245577843
2080812 -0.9097628399821925 -0.2192583394853051
2085715 -0.9115135507519178 -0.2145704171205929
2090618 -0.9082862526599943 -0.21775157117118626
2095521 -0.9117667670983561 -0.21268980505152627
2100424 -0.9101680517566639 -0.21705161681707846
2105327 -0.911892275204837 -0.21200119411178425
