# HZ S RI R 50
100000 0.5209490401871826 -0.7176698434013254
104903 0.4930710648155999 -0.7344074492519885
109806 0.4629798449418205 -0.7495783571420304
114709 0.4292651871463845 -0.7650716184375721
119612 0.4033548651752138 -0.777003144867735
124515 0.37070085223646665 -0.7875656006282006
129418 0.3396512875918608 -0.7989007502120935
134321 0.3085833266414331 -0.805821504858994
139224 0.27675146963703434 -0.8140839496049461
144127 0.24186274721789436 -0.8185642118892914
149030 0.2106779189021058 -0.8216988937282727
153933 0.17785551870185207 -0.822774559440226
158836 0.14407205102056708 -0.8233211145904308
163739 0.10791638641308375 -0.817374053978348
168642 0.07516159450898259 -0.8042267347046815
173545 0.04572950018725161 -0.7942770903096387
178448 0.01728738537210467 -0.7779261402601755
183351 -0.013224162154739136 -0.7566633228620725
188254 -0.04327612564414804 -0.7275441616955782
193157 -0.06892614429645003 -0.693898285964833
198060 -0.08840898997585311 -0.6455426179879392
202963 -0.08391161043926446 -0.5760299985432086
207866 -0.04215655477140209 -0.5207651138622237
212769 0.029029275953055537 -0.4723409742358638
217672 0.13653585665077356 -0.47528450343627826
222575 0.22770974810619335 -0.5648145618445101
227478 0.2305831363166122 -0.6702105405961563
232381 0.19306166687990578 -0.7349876922737302
237284 0.15471561454652752 -0.7745582911731203
242187 0.11536920184066773 -0.8004713927759644
247090 0.08471538180915049 -0.8136187385228727
251993 0.05925019996065574 -0.8283527292059912
256896 0.03000849321505358 -0.8391919191798191
261799 0.0011759143992219323 -0.8474263041219323
266702 -0.02510735155128314 -0.8529450016229984
271605 -0.05199522118695387 -0.8537756125952264
276508 -0.07773394796630083 -0.8538916289574165
281411 -0.09839513554914725 -0.8537765095811111
286314 -0.11993424803410384 -0.8503524113221936
291217 -0.13347403474556335 -0.8454553469128385
296120 -0.15489896295380892 -0.8420078695110697
301023 -0.16615141525528876 -0.8358914899685258
305926 -0.1833584601944171 -0.8302205290514593
310829 -0.19073999533269612 -0.8274980940533
315732 -0.2030564089019512 -0.826938256060703
320635 -0.21543541700559665 -0.827881865416007
325538 -0.22730030549378694 -0.8258800162506008
330441 -0.24099287296288274 -0.8305815245566383
335344 -0.2559423984140876 -0.8285825217955295
340247 -0.27151768650328406 -0.8262690907051984
345150 -0.2819002449840774 -0.821527904581318
350053 -0.29999083380403657 -0.8180980151109989
354956 -0.3083907870281555 -0.812435890440145
359859 -0.32326777993584677 -0.8091785324493439
364762 -0.3335340855112401 -0.8073264687393208
369665 -0.3411786296743294 -0.800456812559152
374568 -0.35222959386850505 -0.7988867804775422
379471 -0.3653027052881408 -0.7939271483545782
384374 -0.3759932521846349 -0.7945921187787512
389277 -0.3826578245151184 -0.7850649182510534
394180 -0.394469760165668 -0.7800460817876438
399083 -0.40357660590680244 -0.7785783259161887
403986 -0.4144202545395166 -0.7710868051702828
408889 -0.4200556335131826 -0.7690649724542707
413792 -0.42965605595443906 -0.7618831849261024
418695 -0.440567669468558 -0.7600306057833734
423598 -0.4476044609228671 -0.7546434073895589
428501 -0.45756204529591293 -0.7476328670727209
433404 -0.4620301754532157 -0.7470227109504921
438307 -0.4723957867453664 -0.7384656195915867
443210 -0.4772282088811546 -0.738898483168188
448113 -0.48468772422107953 -0.7329885473581373
453016 -0.4926361961744566 -0.7298800377652106
457919 -0.4987600476960268 -0.7213941225548964
462822 -0.5081847669658477 -0.7197347516987278
467725 -0.5141834728453718 -0.7125515299461099
472628 -0.5209791659703248 -0.7112641239944237
477531 -0.5274298751149289 -0.7034434415664389
482434 -0.5333984918267556 -0.6961679603535652
487337 -0.538253971528051 -0.697529748785682
492240 -0.5465171779008098 -0.690069690304231
497143 -0.5521314081794733 -0.6847010559670439
502046 -0.5577114865356803 -0.678460128309443
506949 -0.5615153925285038 -0.6746035710380438
511852 -0.5663556062012117 -0.6693957187311299
516755 -0.5744199300631904 -0.663658898337703
521658 -0.581897138780671 -0.6609172137620136
526561 -0.5830354338781716 -0.6523887770605393
531464 -0.5921813939905605 -0.6447531930616838
536367 -0.5971920424276081 -0.6397057142703049
541270 -0.60082087025004 -0.6280455567571345
546173 -0.6037502526226686 -0.622487651943591
551076 -0.6061076914627757 -0.6114615933141225
555979 -0.609177579210797 -0.5974997267754494
560882 -0.602960394638475 -0.5840522863435605
565785 -0.5990159218412198 -0.5671790221818175
570688 -0.583391319380584 -0.5576971159191103
575591 -0.5623768144286753 -0.5551233375595289
580494 -0.5402420205197184 -0.5636060787408129
585397 -0.53005723853897 -0.5853962053629381
590300 -0.5332658723528485 -0.6054553816268075
595203 -0.5454114516126667 -0.6249157649564794
600106 -0.5569623280329383 -0.6342120220431321
605009 -0.574368435241765 -0.639834948841234
609912 -0.5806940779233252 -0.6434648424457253
614815 -0.5921023212003282 -0.6402791621512429
619718 -0.6035638588474617 -0.6383865499861381
624621 -0.6123991459492409 -0.636956318656257
629524 -0.620142455518401 -0.634891181640294
634427 -0.6301000741915003 -0.6305634090728203
639330 -0.636673413137826 -0.6268926645825533
644233 -0.6442765285770846 -0.6198208824292344
649136 -0.6462537993317611 -0.6194048437959444
654039 -0.6507833452414467 -0.6115327748047645
658942 -0.6602640017130367 -0.6110443877541043
663845 -0.659726416550923 -0.6058160827592182
668748 -0.6664604602741188 -0.600136223356503
673651 -0.6686197010547206 -0.5975381394243469
678554 -0.6736318570015541 -0.5953282341019761
683457 -0.6749977956155303 -0.5938625514968956
688360 -0.6781884383878084 -0.5875273203550491
693263 -0.6859238946324082 -0.5858687137186794
698166 -0.6877908749479337 -0.5829696123905967
703069 -0.6883499102184341 -0.5812333763717514
707972 -0.6932105398237425 -0.5788181569682284
712875 -0.6960298596819902 -0.5785493563931687
717778 -0.7049997572216087 -0.573186418896426
722681 -0.7041978538266824 -0.5679239956365439
727584 -0.7088262272334193 -0.5664731547134039
732487 -0.7071876253019109 -0.561092328086545
737390 -0.7142737678855435 -0.5583878400970093
742293 -0.7149500920454306 -0.554338767276272
747196 -0.7209802191813677 -0.5517465346407169
752099 -0.7231846003738495 -0.5513470831144823
757002 -0.7277680443854537 -0.5476181854364087
761905 -0.7290488314446723 -0.5437827615015504
766808 -0.7280174833948583 -0.54256387574817
771711 -0.7325324477831089 -0.5345908732724783
776614 -0.7358770974830345 -0.5358479424312418
781517 -0.7376818458309599 -0.5345169160055433
786420 -0.7432484444216423 -0.5269452729101141
791323 -0.7429329169958714 -0.5286415054527818
796226 -0.7460481908765257 -0.5235043578443803
801129 -0.7439005690477025 -0.5226494195008189
806032 -0.7518273021677608 -0.5166602995982948
810935 -0.7516301977534883 -0.516623572248937
815838 -0.7497595022035939 -0.5158419895498121
820741 -0.7539223573381972 -0.51107530164453
825644 -0.758981390052079 -0.5094014709330201
830547 -0.7598560556143451 -0.5064882058608352
835450 -0.7621457630784929 -0.5022457500082519
840353 -0.7594227274525077 -0.5008735628542952
845256 -0.7612084311937591 -0.4966784365502518
850159 -0.7668305133688356 -0.49574978726322527
855062 -0.7673214488079906 -0.4918458696794936
859965 -0.7717516395364947 -0.4897573666066948
864868 -0.7705897606037423 -0.48636756782570006
869771 -0.7716476976751134 -0.4847542181651716
874674 -0.7773326122090728 -0.4809569985628085
879577 -0.7739061436487732 -0.475150406450982
884480 -0.7737402612779747 -0.4733195080509829
889383 -0.780435212675928 -0.47000946818709455
894286 -0.7795380137466807 -0.468775512807898
899189 -0.7827995141286985 -0.46328371012112785
904092 -0.7837827457523436 -0.46028256565491976
908995 -0.7825029851318335 -0.45519949725806297
913898 -0.784329866887167 -0.45377984295285134
918801 -0.7830026278683093 -0.4451159307555079
923704 -0.7816421450107798 -0.4435005679648344
928607 -0.7777239917481557 -0.4404070103440267
933510 -0.7717532103842601 -0.43757373746611533
938413 -0.7689927619496316 -0.43396150654001947
943316 -0.7627791163052877 -0.43508092166488144
948219 -0.7632156988188736 -0.44516926057336537
953122 -0.763960012947377 -0.44774645100746513
958025 -0.7634740354814488 -0.4533909015612125
962928 -0.7685010731081566 -0.4553741993459436
967831 -0.7744308269675274 -0.45900798284867184
972734 -0.7798437484934009 -0.4570591782743088
977637 -0.7805457274754172 -0.4572612415792131
982540 -0.7835233585863007 -0.4528297348760188
987443 -0.79016138080978 -0.45373619187676073
992346 -0.7890206304457288 -0.45364349318142455
997249 -0.7929380559680324 -0.4509623758163122
1002152 -0.7939686170368657 -0.45436497930229747
1007055 -0.7993229751492534 -0.44837819946917934
1011958 -0.8006345658776901 -0.4458685631114563
1016861 -0.8023928824204786 -0.4430773121839146
1021764 -0.807581900717008 -0.44284483480327647
1026667 -0.8056028337515327 -0.43792453188085123
1031570 -0.8100184009339136 -0.43840790738448365
1036473 -0.8069341680092976 -0.4340098374878926
1041376 -0.8123983379892699 -0.433579854696929
1046279 -0.8127613902248897 -0.428864982067636
1051182 -0.8153047432294469 -0.4297349889211285
1056085 -0.8167304004334148 -0.42827537301234725
1060988 -0.8153520896296297 -0.42873954331574177
1065891 -0.8226046215993913 -0.424357601214757
1070794 -0.814498745754305 -0.42046282812796365
1075697 -0.8227763262144439 -0.4206060788093429
1080600 -0.8238545064691929 -0.41815199763116906
1085503 -0.8251924585477288 -0.4136061238293549
1090406 -0.8261664449115053 -0.4160180561827047
1095309 -0.8280292575320298 -0.41424725772282484
1100212 -0.8310080485543316 -0.4148038315891408
1105115 -0.8278957507766356 -0.4056188765391285
1110018 -0.8308377811183079 -0.4071303230037225
1114921 -0.831049205610655 -0.40540178925321896
1119824 -0.8324546417213085 -0.40492665036036113
1124727 -0.8337316001275481 -0.4011115701419535
1129630 -0.8352210385622721 -0.3982758192529436
1134533 -0.8363608865362848 -0.40014251917204624
1139436 -0.8365404720928968 -0.39516319352884605
1144339 -0.837079088284186 -0.39419337524868453
1149242 -0.8385769968607604 -0.39284789934603187
1154145 -0.8444251894066972 -0.3916838026388601
1159048 -0.840939046964832 -0.39107339445345174
1163951 -0.8428820539648506 -0.387590934120902
1168854 -0.8381960118692697 -0.38499093380259314
1173757 -0.8452219441903261 -0.3826711049324017
1178660 -0.8426683099976426 -0.3814004205652281
1183563 -0.8423897697597154 -0.3781467079495282
1188466 -0.8437330679451274 -0.3767620962508698
1193369 -0.8470097263598214 -0.3810671342103156
1198272 -0.8482111920730725 -0.37637177134888405
1203175 -0.8474656058904714 -0.3734122850334837
1208078 -0.8474435216350795 -0.37160771065809906
1212981 -0.8494058267135596 -0.37137306195339187
1217884 -0.8471822384057278 -0.36734160647989617
1222787 -0.8540279210163284 -0.36512403286156386
1227690 -0.8522670025860877 -0.3643807197117348
1232593 -0.8521059277101343 -0.36259914347541783
1237496 -0.8499501017245128 -0.3601024127579514
1242399 -0.851939848160349 -0.3596414316443265
1247302 -0.8522040205161994 -0.36027633341006177
1252205 -0.8557020354616609 -0.35363442958187513
1257108 -0.8550328278839234 -0.3525164852320098
1262011 -0.8529228318473987 -0.3524952712643224
1266914 -0.8520591272936416 -0.34695331113684486
1271817 -0.8501161938722319 -0.3484342409224077
1276720 -0.8494498173751305 -0.3437276112998588
1281623 -0.8462128910154846 -0.34572278288544034
1286526 -0.8428526362319421 -0.3477410771878324
1291429 -0.8451767700274486 -0.3483245190312406
1296332 -0.844296988850283 -0.34797955601953734
1301235 -0.8424786935990183 -0.3487538218043462
1306138 -0.847744299018605 -0.35392406427054796
1311041 -0.8488244219939692 -0.3500664424040041
1315944 -0.8452962096284836 -0.3497686157475002
1320847 -0.8509073526345551 -0.3516593005224906
1325750 -0.8546914509551264 -0.353384214887659
1330653 -0.8535403418728602 -0.34925325298430243
1335556 -0.860110307011661 -0.3478507722713849
1340459 -0.8574550715812185 -0.3507612068491605
1345362 -0.8610154912459649 -0.34360603639833076
1350265 -0.8562403397807206 -0.34616547703765327
1355168 -0.8608250232052153 -0.34113391908506197
1360071 -0.8642959736997488 -0.34378846883653574
1364974 -0.8647647842311915 -0.34090486487379973
1369877 -0.864513604544929 -0.340240591447258
1374780 -0.865193877672698 -0.34197118934920356
1379683 -0.8714916585850757 -0.33765098327140114
1384586 -0.8662294864556073 -0.3353818900031322
1389489 -0.8702920023391566 -0.33460223282634494
1394392 -0.8710397025474932 -0.33734057689414665
1399295 -0.8694478699377806 -0.3344093141922814
1404198 -0.8734848604255312 -0.3298951285268081
1409101 -0.8738290440995843 -0.3273432453086032
1414004 -0.8749301480514792 -0.3288332437680743
1418907 -0.8701787840165847 -0.32614623387123687
1423810 -0.8747577177448774 -0.32387862412787544
1428713 -0.8738542262243758 -0.323768390915894
1433616 -0.8747295000276942 -0.3260624265813304
1438519 -0.8711799373808765 -0.32188636945760174
1443422 -0.8759395990312029 -0.318450925503636
1448325 -0.876815039188219 -0.3184505542546738
1453228 -0.87507739761293 -0.3164615012288347
1458131 -0.8763908371538309 -0.31928913661849095
1463034 -0.877368297446358 -0.315961645359646
1467937 -0.8761914661534533 -0.31348501507924664
1472840 -0.8779913750742018 -0.31166791963298845
1477743 -0.8763213848971445 -0.31285973389401467
1482646 -0.8781798907281743 -0.31282103506607517
1487549 -0.8803821993268578 -0.3068857525944754
1492452 -0.8787722004740898 -0.30911688178147273
1497355 -0.8818449520533077 -0.30449183592641615
1502258 -0.8790767242705095 -0.30182913955516755
1507161 -0.8826951418503042 -0.30613540326530525
1512064 -0.8815891071562293 -0.3033673022045692
1516967 -0.8823817486656884 -0.30068328568676067
1521870 -0.8797987470903472 -0.3008761067834004
1526773 -0.8815582088446088 -0.2981255297539168
1531676 -0.8807523670763892 -0.2974756638517551
1536579 -0.8803965074448826 -0.2968047324563473
1541482 -0.8809672774314973 -0.295731796611617
1546385 -0.8794710586201867 -0.29196314897582415
1551288 -0.8827533816609768 -0.2897168263789342
1556191 -0.878161895807406 -0.2922677247199855
1561094 -0.8798307411245841 -0.2901245823688322
1565997 -0.876162956272995 -0.2898821664846379
1570900 -0.8814520076089729 -0.2908646429121157
1575803 -0.8766482388757433 -0.29113349806958166
1580706 -0.8717879230259781 -0.2904716337826669
1585609 -0.8739428280274112 -0.2915201644291142
1590512 -0.8750919363080947 -0.2923151717289384
1595415 -0.8781242383638794 -0.2916898299634055
1600318 -0.8782146747371543 -0.2939403130636447
1605221 -0.8818722994463949 -0.29049907287328686
1610124 -0.8830232157282089 -0.2932910719752017
1615027 -0.8828371704860777 -0.28922522790486177
1619930 -0.8874396991722311 -0.2918093282366089
1624833 -0.8849531972440837 -0.2886896382130781
1629736 -0.8895319222393425 -0.28879645902710116
1634639 -0.8854765982119814 -0.2845892725368225
1639542 -0.8869533887790462 -0.2815175908900231
1644445 -0.8846847599579687 -0.28420578476363295
1649348 -0.8904620219832984 -0.2813762658326155
1654251 -0.8911806958984803 -0.285361004310411
1659154 -0.892130290647428 -0.27644515412470927
1664057 -0.8929028550720661 -0.274145512315106
1668960 -0.8929398693800813 -0.27678098835418186
1673863 -0.8932999902414744 -0.28137196670530173
1678766 -0.8917567382434679 -0.27666943506477243
1683669 -0.8969804129517868 -0.27755054327184925
1688572 -0.8946851588929764 -0.27851866671805103
1693475 -0.8947472795727164 -0.2722256254004458
1698378 -0.8931958603572469 -0.2702234066746454
1703281 -0.8940060065659811 -0.2710885352219711
1708184 -0.892285690129289 -0.2693387267996625
1713087 -0.8954067667424501 -0.2682641609824651
1717990 -0.8929821865476004 -0.26728271099759704
1722893 -0.899876086116249 -0.26080908853356427
1727796 -0.8980002578377296 -0.26308918465949516
1732699 -0.8943429806604921 -0.26278910688948853
1737602 -0.894401569119296 -0.26257748842896095
1742505 -0.8980270314595432 -0.26108799656065473
1747408 -0.8960154983558284 -0.25664921883711983
1752311 -0.8948952728383232 -0.25751490593214665
1757214 -0.8972126549790429 -0.25891225605848683
1762117 -0.8931130351418747 -0.25811435438469904
1767020 -0.8930355885863006 -0.2568720740799356
1771923 -0.8975912772207213 -0.25238532357118426
1776826 -0.8941636749534646 -0.25497925425942886
1781729 -0.8947603402999568 -0.25325261042618163
1786632 -0.8877123382104969 -0.2544048146141883
1791535 -0.8907753244848664 -0.2515014873084117
1796438 -0.8890353197202187 -0.2556739278742953
1801341 -0.8901872936334789 -0.2546033611139755
1806244 -0.8921731477064316 -0.2542076678433501
1811147 -0.8907463652515792 -0.24628775052928858
1816050 -0.8986942579957857 -0.2535599985125003
1820953 -0.8937546730827404 -0.2575553225206986
1825856 -0.8978763004191584 -0.25009890685096603
1830759 -0.898385949497323 -0.25372344935337027
1835662 -0.8936450418663314 -0.24841416238228473
1840565 -0.8982024955253645 -0.2518152102629852
1845468 -0.9026322064078444 -0.24884495369714502
1850371 -0.9009066988935382 -0.24843816323247497
1855274 -0.899200380202685 -0.24941240637898274
1860177 -0.8988867592488863 -0.24488515922444695
1865080 -0.8994124437410328 -0.24447106820895959
1869983 -0.8937716455690936 -0.24743779777978442
1874886 -0.8999840647261922 -0.24544209015549986
1879789 -0.8996779426700683 -0.24445095316253804
1884692 -0.8955363062684771 -0.24046488432671873
1889595 -0.9003164595426305 -0.2382728245485201
1894498 -0.8981259716523625 -0.23288075521270676
1899401 -0.9005320585430535 -0.23942725649166186
1904304 -0.8980803806886553 -0.23651632725381444
1909207 -0.9022779221488121 -0.23898425750425742
1914110 -0.895517262612363 -0.2379925457097064
1919013 -0.9021088448375356 -0.23511304651122802
1923916 -0.8945679316922067 -0.23605790717640152
1928819 -0.8966308162083526 -0.2357820287349498
1933722 -0.8971753712409464 -0.23360677006502828
1938625 -0.8988251967748156 -0.2385111381776644
1943528 -0.8976268810253757 -0.23842700776399228
1948431 -0.8989820271375897 -0.2372974423858178
1953334 -0.9077621186711217 -0.23298847152766733
1958237 -0.9007479778805135 -0.23757428329996128
1963140 -0.9012814780454375 -0.2365649867966135
1968043 -0.8992957145420889 -0.23676399125811481
1972946 -0.8994525991509174 -0.23573072966205874
1977849 -0.9044082856876214 -0.23509497892687276
1982752 -0.9031626109361259 -0.23293992930740698
1987655 -0.9054653231155627 -0.233252925997871
1992558 -0.907473925209807 -0.22821942750386562
1997461 -0.9073967724282451 -0.22799156540898668
2002364 -0.908443958426422 -0.2323182745509391
2007267 -0.9019784213543247 -0.2283808250528224
2012170 -0.9108642154396093 -0.2278200832833875
2017073 -0.9052763277388088 -0.22795553792841242
2021976 -0.9070022259042062 -0.22483205425094405
2026879 -0.9080712618756002 -0.2248461748713485
2031782 -0.9078633750772693 -0.22040009623810636
2036685 -0.9103812445870034 -0.2262042833962329
2041588 -0.9082686695816776 -0.21769889540880777
2046491 -0.9120071484671965 -0.22125633765474484
2051394 -0.9076702230075946 -0.2205869091355023
2056297 -0.9127307901573981 -0.2221149332207558
2061200 -0.9083134547077412 -0.21655833524034776
2066103 -0.9095036129940541 -0.2129625741151363
2071006 -0.9083231308942786 -0.21407737362137125
2075909 -0.9136508255242248 -0.21534911581316246
2080812 -0.9070297424758137 -0.2148948517395969
2085715 -0.9108703557208303 -0.21398667604391133
2090618 -0.9084879605670981 -0.21543832134140656
2095521 -0.9041454856149234 -0.20872325258529578
2100424 -0.9081835475177918 -0.21408312772468663
2105327 -0.9130317001574468 -0.21355165318781594
