# HZ S RI R 50
100000 0.5261256767570993 -0.719446581727651
104903 0.4993801215535853 -0.7354843899532904
109806 0.4705576504487365 -0.7514373297545791
114709 0.4382681189398816 -0.7667754644779656
119612 0.40658374137246767 -0.7772077229777932
124515 0.383507349998193 -0.7898985299198644
129418 0.3550717015157851 -0.8021082311932709
134321 0.3263553785661267 -0.8096651872114611
139224 0.29781082518297053 -0.8189035240010595
144127 0.2707427845987878 -0.8269342773224323
149030 0.23905285816243446 -0.8303480973950752
153933 0.20951508023380513 -0.8331662217041665
158836 0.18136406888672543 -0.8369243735420995
163739 0.15275962937519805 -0.8369443165428225
168642 0.12195210481862717 -0.830368638759025
173545 0.09689322578193195 -0.8300285360273135
178448 0.07323991617080959 -0.8222573007071462
183351 0.04418611395913188 -0.8133589886148755
188254 0.01724881757679584 -0.798053892461409
193157 -0.008750614547737548 -0.7808339006493901
198060 -0.02948378437427183 -0.7588100540544179
202963 -0.04638880597725069 -0.7192977505265887
207866 -0.035343069900934714 -0.6834007591528829
212769 -0.005520775535707951 -0.6451685397818504
217672 0.05637823139468936 -0.6394594781284368
222575 0.11099526296915906 -0.6956425861711385
227478 0.1004999673180964 -0.7637769167792491
232381 0.06923093729922158 -0.8000754252767714
237284 0.039136506754595915 -0.8196084644887458
242187 0.009137755710297768 -0.8328541552619527
247090 -0.01838643388591439 -0.8372136651877814
251993 -0.03713352281301239 -0.8478285797499121
256896 -0.061127024673470844 -0.8479705357148738
261799 -0.0848169545659517 -0.8527443605633007
266702 -0.10653854982817729 -0.8531803289915838
271605 -0.12853382774269953 -0.8501301120846338
276508 -0.14581453957837284 -0.8508828403212729
281411 -0.16529826703753667 -0.8478805658125735
286314 -0.182117562956869 -0.8428690476910574
291217 -0.19433593576903163 -0.8390731256204765
296120 -0.2093482317001057 -0.8347500909481282
301023 -0.2238347488335584 -0.8300693579997476
305926 -0.23566733552739663 -0.8257147461620994
310829 -0.24427156747947665 -0.8204733561743236
315732 -0.2561531614145042 -0.8203198774505832
320635 -0.26902113865136446 -0.8202095536184636
325538 -0.28062013340068964 -0.8170388229342228
330441 -0.29431545109404483 -0.818409282101156
335344 -0.30604378633553136 -0.8141478001139199
340247 -0.32020290009107694 -0.810643902243491
345150 -0.32891935017926777 -0.8067228545866487
350053 -0.34326849678428756 -0.8033097216288336
354956 -0.3493250032004322 -0.796294104040939
359859 -0.361711767460797 -0.791292584216199
364762 -0.3728227932076718 -0.7913417779329736
369665 -0.381626538792114 -0.7826153872548218
374568 -0.3903196337279422 -0.7830604187853728
379471 -0.40326516995008804 -0.7768580674152643
384374 -0.4135319893064421 -0.7787721258173599
389277 -0.41741472146811387 -0.768663671817524
394180 -0.4300205115828194 -0.7651768571956026
399083 -0.43516521904111916 -0.7597373566722838
403986 -0.44446268308055514 -0.755857443584495
408889 -0.4503250903056753 -0.7532152746010005
413792 -0.46027203452464427 -0.7451896766676214
418695 -0.46728777400638327 -0.7451413630258081
423598 -0.4748168364276253 -0.7386702365315686
428501 -0.48395736708698656 -0.7348109582824114
433404 -0.4891566196002518 -0.7315006456610519
438307 -0.49965999123337734 -0.7259412331040803
443210 -0.5024736796413091 -0.7233510646523892
448113 -0.5085067676410957 -0.7193143220843115
453016 -0.5152617719584157 -0.7156124038865316
457919 -0.5226216961472783 -0.7098980552489327
462822 -0.5289561281855001 -0.7057565369565044
467725 -0.5362509705434702 -0.6988824502854604
472628 -0.5420801349519464 -0.6981568910663822
477531 -0.548251213267201 -0.6931726754498326
482434 -0.5530001569368812 -0.686371096744287
487337 -0.5575023998755049 -0.6859584430752533
492240 -0.5642400294190856 -0.677800331616353
497143 -0.5702612451267346 -0.6765070745224367
502046 -0.573430676923188 -0.6710793072877451
506949 -0.5768569555173043 -0.6679272133021829
511852 -0.5794277202510064 -0.6630396877724402
516755 -0.5895099376665721 -0.6605902140212285
521658 -0.5968593750979696 -0.6573302454829089
526561 -0.5952536046650441 -0.649395481948191
531464 -0.6043469787510946 -0.6448751830358643
536367 -0.6079734921096437 -0.6410544305336456
541270 -0.6107593904576021 -0.6336839409722208
546173 -0.6152815609976319 -0.6333364698854521
551076 -0.6212557221402808 -0.6254760767635617
555979 -0.6227604880569524 -0.6175148254513437
560882 -0.6254229290764184 -0.6120707434709864
565785 -0.6270304578159049 -0.5996794668174757
570688 -0.6278419573135062 -0.5894409661837612
575591 -0.6231447740553213 -0.5846390951456528
580494 -0.6086612419061839 -0.5788899532141986
585397 -0.6014849389801777 -0.5864841489827707
590300 -0.5980451604203143 -0.5970780619801145
595203 -0.6059679221045302 -0.6064003552834085
600106 -0.6099209805473252 -0.6102159442287497
605009 -0.6229113642653931 -0.6164692356997599
609912 -0.6266328492489281 -0.6146663052843121
614815 -0.6351707821336079 -0.6163459211610967
619718 -0.6421116663542561 -0.6140906363703901
624621 -0.6479125262320803 -0.6103882798433765
629524 -0.655973409846725 -0.6078875988064883
634427 -0.6626837372947018 -0.6044357853611008
639330 -0.6639840595828305 -0.6017958888338593
644233 -0.6716882822673739 -0.5964166869548145
649136 -0.6712095001306319 -0.5947753497951417
654039 -0.6769476978859189 -0.587562869663769
658942 -0.6869804824196454 -0.585948752833186
663845 -0.6867975521390887 -0.5829205170849558
668748 -0.6902796829704662 -0.5779934654021186
673651 -0.692243732801789 -0.5744754985263643
678554 -0.6939912835578869 -0.5718949361419824
683457 -0.6981174090422224 -0.5711403668170009
688360 -0.7011688155223127 -0.5662524834846573
693263 -0.705370737315077 -0.5640259913148514
698166 -0.708659154140635 -0.5615290708585978
703069 -0.7102930552174245 -0.5593886442943169
707972 -0.7148569100783909 -0.5603052924326993
712875 -0.7180790172640905 -0.5537257197596088
717778 -0.7240187388879398 -0.5495141123521158
722681 -0.7229065096319349 -0.5454854904519463
727584 -0.7258385376333785 -0.5446853220798179
732487 -0.7261025201510053 -0.5417636522778151
737390 -0.7358887078381889 -0.5379487730089718
742293 -0.7352454512613225 -0.5369065752949588
747196 -0.7379110171543468 -0.5325890793833143
752099 -0.7406552845433292 -0.5297215898458632
757002 -0.73999491049893 -0.5282594261681415
761905 -0.7454274799884937 -0.5240006885138829
766808 -0.7402536545894918 -0.5242750548171874
771711 -0.7458849542814718 -0.5200255162481394
776614 -0.7484047185326401 -0.5174591317459407
781517 -0.7514555616564716 -0.5139660155320759
786420 -0.7539858923245198 -0.5135586315255175
791323 -0.7564923624500628 -0.5122040926122131
796226 -0.7583579300836338 -0.5081876530573844
801129 -0.7605155037222027 -0.5054048633296879
806032 -0.7621947649378156 -0.5003380784046403
810935 -0.7630233940734689 -0.5002580701741323
815838 -0.7639025269109305 -0.5015066785624265
820741 -0.7642578781156886 -0.49422108558594224
825644 -0.7683902307860107 -0.4929354737698344
830547 -0.7695181962023019 -0.4907169250939454
835450 -0.773121953928074 -0.48667578591615795
840353 -0.7683493761619692 -0.4876889522661413
845256 -0.7751153443969143 -0.4820145630002552
850159 -0.7786579079535518 -0.48154794105183657
855062 -0.7795889706935593 -0.48095702281763775
859965 -0.780854395467557 -0.48141207348743353
864868 -0.7823201351902298 -0.4750844907099336
869771 -0.7845451342905448 -0.47571139870810025
874674 -0.7844516772181078 -0.4709314574369671
879577 -0.7842400849346736 -0.46938231412103626
884480 -0.7844426231824787 -0.4648882061468343
889383 -0.7892417345320144 -0.46126448500755907
894286 -0.7902499875061081 -0.46082515048802103
899189 -0.794305678829349 -0.4560241564949655
904092 -0.7956132609559449 -0.4555626984362435
908995 -0.7939183012343756 -0.45098114518215604
913898 -0.7950159822412688 -0.45109306602511484
918801 -0.7985486739561641 -0.4453052207093621
923704 -0.7948589871559575 -0.44201291292390366
928607 -0.7952389690857841 -0.44093147674412425
933510 -0.7966993809073901 -0.44033328425352286
938413 -0.7934903532223951 -0.43085716343865565
943316 -0.793045458653892 -0.43356740373155733
948219 -0.7935489042281156 -0.4332679820860355
953122 -0.7929986794947109 -0.4327713689984211
958025 -0.7879377197772173 -0.4339262371996595
962928 -0.7933895896674185 -0.4354913092681697
967831 -0.7961813571376684 -0.43622901140355147
972734 -0.7965417606117972 -0.436772802254744
977637 -0.7958540375792984 -0.4393053068344811
982540 -0.8000535593050203 -0.4332995207880679
987443 -0.8044200232957099 -0.43509188108632396
992346 -0.8050858396743522 -0.4320775555053654
997249 -0.8071774138652802 -0.43295694543946645
1002152 -0.8071177368684177 -0.43076529128303476
1007055 -0.8108724609255485 -0.4291252727313334
1011958 -0.8131283351700114 -0.4314620393725088
1016861 -0.815313491390079 -0.42521291916316456
1021764 -0.8181075716932941 -0.42663103128165236
1026667 -0.8165796127453233 -0.4227738004723631
1031570 -0.8212269806044376 -0.4194525902733633
1036473 -0.8201093927497272 -0.416514121543801
1041376 -0.8235257221316882 -0.4182412962974735
1046279 -0.8217994489819672 -0.41370713836484424
1051182 -0.8249163716081344 -0.41555352585538285
1056085 -0.8307432894967093 -0.4120202048168503
1060988 -0.8267646584981034 -0.4110674480285565
1065891 -0.8301412775781957 -0.4080563425407222
1070794 -0.8288836085249779 -0.4082004366729344
1075697 -0.8307547108829203 -0.4069541649584376
1080600 -0.8323644108757274 -0.40465539568902376
1085503 -0.8317687358069306 -0.39982273992627126
1090406 -0.8344750224506823 -0.4023562986413841
1095309 -0.8365623302065449 -0.3993113087627456
1100212 -0.8371901938358872 -0.3989531634148588
1105115 -0.8380487527504967 -0.39323296868474755
1110018 -0.8364702301274243 -0.3962123876727099
1114921 -0.8390230123152218 -0.3885384037944935
1119824 -0.8413545566593457 -0.3947226118409674
1124727 -0.841331827587019 -0.3902999363254735
1129630 -0.8388127954199504 -0.3856440844230704
1134533 -0.8429379973045884 -0.38285393697368253
1139436 -0.8432599794786648 -0.38819440968112534
1144339 -0.8424283346159107 -0.38282822819140766
1149242 -0.8462454279819879 -0.38075404152944803
1154145 -0.8503698651020474 -0.3787891438651245
1159048 -0.8478189211463663 -0.3827070706508534
1163951 -0.8472328657286781 -0.37620074433432393
1168854 -0.8460326319783965 -0.37446094071304503
1173757 -0.8480408245489578 -0.373701901477916
1178660 -0.84787848031893 -0.3732898367439369
1183563 -0.8501983889355577 -0.371813468509067
1188466 -0.8509491764583585 -0.3685792372039233
1193369 -0.8529927985694747 -0.3727770484442525
1198272 -0.8525696953248137 -0.36575067103224823
1203175 -0.8524509679702372 -0.365225514111888
1208078 -0.8546274961144188 -0.3634609935210235
1212981 -0.8534704818242541 -0.3600290542648472
1217884 -0.8519178397112006 -0.3595896467517736
1222787 -0.857828440670447 -0.35664177902552907
1227690 -0.8558312486957169 -0.36003051555914206
1232593 -0.8579204198073007 -0.35650905618207185
1237496 -0.8589281577234706 -0.35837369401422275
1242399 -0.8595916251160415 -0.35448890079674966
1247302 -0.860355932497057 -0.3538504601148202
1252205 -0.8604280417041459 -0.3501777427365151
1257108 -0.8638230867697543 -0.3491640233781127
1262011 -0.861257688556507 -0.34812277975780276
1266914 -0.8618828410874653 -0.34383538656199686
1271817 -0.8607785543629969 -0.34991127322517496
1276720 -0.8611687683969081 -0.3432316689241943
1281623 -0.8607341051298583 -0.33979704255619153
1286526 -0.860123509819419 -0.3402613744740019
1291429 -0.8596570938481254 -0.3410929967031593
1296332 -0.860042307323438 -0.3340954988921677
1301235 -0.8582916673393722 -0.3389306097310671
1306138 -0.862341558652333 -0.3405518368479731
1311041 -0.8574792861252373 -0.33701178917743524
1315944 -0.8526013296072584 -0.3380240551775715
1320847 -0.8575607449253111 -0.33862974925039097
1325750 -0.8584024180062177 -0.34216038522849623
1330653 -0.8597145446149966 -0.33631457997274383
1335556 -0.8611875087859027 -0.33785532408364055
1340459 -0.8610787934578059 -0.3378974658383457
1345362 -0.8653527063716739 -0.33397997156407994
1350265 -0.8643353059828112 -0.3346948043477432
1355168 -0.8675961421991372 -0.3328666169968745
1360071 -0.8667272491000921 -0.3355619153427639
1364974 -0.8692739289644825 -0.33429025398769624
1369877 -0.8706831423863933 -0.3296226569032835
1374780 -0.8706538619388767 -0.33148248808975694
1379683 -0.8745293998308166 -0.32819548273711513
1384586 -0.8728252195523211 -0.32553859179983285
1389489 -0.8741050432260058 -0.3247687498027512
1394392 -0.8761096814473248 -0.327192200999826
1399295 -0.871372495240702 -0.3230368633807015
1404198 -0.8742107779501432 -0.3232562671664737
1409101 -0.8762875008548825 -0.3216765617194215
1414004 -0.8778233997137918 -0.3189880730662287
1418907 -0.8735438332702259 -0.32007336357676497
1423810 -0.8758887914285703 -0.3168086132248711
1428713 -0.8782269995040949 -0.31954596372036814
1433616 -0.8786978844300926 -0.31801991349696346
1438519 -0.8773103228142016 -0.31616391578310576
1443422 -0.8779953340932505 -0.31460374899365334
1448325 -0.8820274373536837 -0.31315105588586206
1453228 -0.879307469760184 -0.3105068674658573
1458131 -0.8808903945589935 -0.3115715340870485
1463034 -0.8816297729222262 -0.31061028446412864
1467937 -0.8796541444794858 -0.3065049530665119
1472840 -0.8800983762384798 -0.30610121823568737
1477743 -0.8791568231254556 -0.306934638773793
1482646 -0.8800119209261393 -0.30665996289309166
1487549 -0.8835503328088979 -0.3067989747132445
1492452 -0.8817719745431015 -0.30238784099119664
1497355 -0.884890997058733 -0.3040159015228539
1502258 -0.8831385091462838 -0.30215916343515714
1507161 -0.8837621209765892 -0.2994296883288786
1512064 -0.8833184697282416 -0.3011564530335988
1516967 -0.885888120264393 -0.2993667910777157
1521870 -0.8820456938568823 -0.2986472115149139
1526773 -0.8849268435700229 -0.2990022656974867
1531676 -0.8842485037536731 -0.2932777515966068
1536579 -0.8882203103261641 -0.29782316133532394
1541482 -0.8864650573002512 -0.29714928170932925
1546385 -0.8853701976864287 -0.29338087236619287
1551288 -0.8850941225998089 -0.29096345047304983
1556191 -0.8888302539522215 -0.29248814721253613
1561094 -0.8907665740508658 -0.2901170550311968
1565997 -0.8864623347641372 -0.28716047009372736
1570900 -0.89119419558077 -0.28842348400944334
1575803 -0.8900246596648991 -0.2874146920933933
1580706 -0.8826168614695944 -0.2875888270150382
1585609 -0.8850922603345652 -0.28472555605904903
1590512 -0.8829445426613793 -0.2843648524549486
1595415 -0.8870058946296724 -0.2858247370130259
1600318 -0.8840083281850889 -0.2862914760605494
1605221 -0.8895733831162672 -0.2884354746678062
1610124 -0.8862630345730295 -0.2851966101084418
1615027 -0.8857173356081255 -0.2806247359577435
1619930 -0.8862853299919919 -0.28387637601898313
1624833 -0.8883249683844613 -0.28216556791234404
1629736 -0.8903736265724069 -0.2826475070579367
1634639 -0.893333446626336 -0.27900148966275956
1639542 -0.8927102477070559 -0.2823581039079375
1644445 -0.8942902894566385 -0.2770419297692807
1649348 -0.895056141985006 -0.27693845223567587
1654251 -0.8922761006533755 -0.28075568386627764
1659154 -0.890875481689356 -0.27527330627768204
1664057 -0.8963625435498829 -0.27610294076561465
1668960 -0.893230061176205 -0.2756224736246598
1673863 -0.8965394568486585 -0.2770610065141083
1678766 -0.8952738547937757 -0.27393670417525223
1683669 -0.8974413858511057 -0.27636307571281754
1688572 -0.8946902353849282 -0.27423238860497673
1693475 -0.8974715511725601 -0.2664214918087246
1698378 -0.8950716651608174 -0.2725986452590722
1703281 -0.893726343265368 -0.2705570125159682
1708184 -0.8960228760827658 -0.2708292599152427
1713087 -0.8983991388221193 -0.2686810429436864
1717990 -0.896275279222386 -0.2689705997801528
1722893 -0.8978028320133653 -0.2642639211727442
1727796 -0.900139750897724 -0.2651760961314186
1732699 -0.8957158372304553 -0.2650914421840185
1737602 -0.9000079756102458 -0.26278052549982095
1742505 -0.8976097527823745 -0.26552292011149264
1747408 -0.9018703230339471 -0.2541108575909888
1752311 -0.8983066680485265 -0.2605906241107982
1757214 -0.9061609518558871 -0.2612625622589731
1762117 -0.8977170109058753 -0.26130377477141314
1767020 -0.8995742823862771 -0.2564499877243195
1771923 -0.9009738743975073 -0.2571047934507215
1776826 -0.897998215183628 -0.2597868737093662
1781729 -0.9006040061360471 -0.25530896967449573
1786632 -0.8988236390115972 -0.2523859287525665
1791535 -0.902906444674916 -0.2526314104717877
1796438 -0.8981369224553155 -0.2576853134874561
1801341 -0.8977212764651007 -0.2532654855305036
1806244 -0.8993039110759862 -0.25024751471506623
1811147 -0.8990891460621832 -0.24880065133802984
1816050 -0.8948951385533924 -0.25074525183561247
1820953 -0.8990189029684524 -0.2524759586986419
1825856 -0.8981188106335763 -0.25235481132201754
1830759 -0.8945255685551412 -0.2484404878976292
1835662 -0.898174984102845 -0.25298266707884737
1840565 -0.9014941284452 -0.24829301922402824
1845468 -0.8997866311963917 -0.24797332730750282
1850371 -0.9016545582947554 -0.24899767990347121
1855274 -0.9027731261191488 -0.24909601578871493
1860177 -0.9010715470432009 -0.2513811161772954
1865080 -0.9050120280929346 -0.24664757746536747
1869983 -0.9017874223420259 -0.25008236774930853
1874886 -0.9047050986372717 -0.2513031068061002
1879789 -0.9067330752393609 -0.24680003600993541
1884692 -0.9048634427696555 -0.24453001789147133
1889595 -0.9035225701405443 -0.24287853330339634
1894498 -0.904882267905848 -0.24012654504087771
1899401 -0.9037345685145114 -0.24302024714934994
1904304 -0.9053056742453565 -0.24070417997542454
1909207 -0.9062727929983564 -0.23733006317969804
1914110 -0.9032042575335468 -0.23583714363690408
1919013 -0.9042069964679387 -0.24104332522513255
1923916 -0.9026231090255468 -0.24015344673992886
1928819 -0.9041980225746186 -0.23948570096887206
1933722 -0.9042185169808513 -0.2364290807194715
1938625 -0.9038289868663758 -0.23474666731403687
1943528 -0.903389925295504 -0.23137736937501308
1948431 -0.9031865187637428 -0.23461299861823404
1953334 -0.9025726191215813 -0.23180722020537514
1958237 -0.9035492419656497 -0.23656775296119095
1963140 -0.9030534758643521 -0.2248917415734242
1968043 -0.9030293048836897 -0.23901700794493164
1972946 -0.8974536483202974 -0.23091451198445948
1977849 -0.905445599081045 -0.23797032540505306
1982752 -0.9034222683890613 -0.23388535192534896
1987655 -0.9063518894005893 -0.23385861510891864
1992558 -0.9081827730873162 -0.2330035023439927
1997461 -0.9084804799924484 -0.23198507468542587
2002364 -0.9062778396310591 -0.23511232595950815
2007267 -0.9057277285237528 -0.22822897922834642
2012170 -0.9089945090894689 -0.2307174930652206
2017073 -0.9055992157053226 -0.2333627370953839
2021976 -0.9066384906902439 -0.2307570507379591
2026879 -0.9111501815452975 -0.22835245952211455
2031782 -0.907633524496621 -0.22800491440854168
2036685 -0.9088471919457392 -0.2257846107330646
2041588 -0.9072746107408549 -0.22934687189553124
2046491 -0.9162812388269633 -0.22625574102545948
2051394 -0.9078773627896889 -0.2267926426713715
2056297 -0.9113497915980624 -0.22505516313674948
2061200 -0.9083709101015329 -0.22361184760365097
2066103 -0.9123453630388867 -0.22139034542295505
2071006 -0.9107334791970144 -0.22218941163835437
2075909 -0.9130029024342048 -0.22289322781110577
2080812 -0.9058998886865337 -0.22407402156596753
2085715 -0.9149513664566169 -0.2184650492180455
2090618 -0.9107857663690476 -0.22061503718124087
2095521 -0.9096215929542397 -0.2142535900058629
2100424 -0.910618395007005 -0.21940892168224582
