# HZ S RI R 50
100000 0.5316053398040107 -0.7191667154118903
104903 0.5042566184714825 -0.7365970208059294
109806 0.4736849554357619 -0.751785538671505
114709 0.445752200646703 -0.7681670028903537
119612 0.41796107514797753 -0.7803329491197423
124515 0.3927216404070287 -0.7899907489133196
129418 0.36344026815744673 -0.8018304097656186
134321 0.33665260265851077 -0.8089015320227959
139224 0.3101842454543726 -0.8203705392275635
144127 0.28268234465275255 -0.8268011810744215
149030 0.2543519391800479 -0.8320063301966361
153933 0.22693704371090673 -0.8365207268383157
158836 0.20354375545639433 -0.8424161414288083
163739 0.17488154058899794 -0.8435758973552777
168642 0.15027539770314133 -0.8441484607044915
173545 0.12489875138875725 -0.8434099860507018
178448 0.10165479845066734 -0.8419821828929638
183351 0.07765399682202374 -0.837423486800518
188254 0.05193224502495421 -0.8328457289429
193157 0.02609154657364027 -0.8234655386831606
198060 0.005554485696374462 -0.8113816580963829
202963 -0.01287209268098282 -0.7933353064601691
207866 -0.01807938706548811 -0.7714241280923771
212769 -0.011777957622361833 -0.7468235641002436
217672 0.01559171794267112 -0.7401001656480193
222575 0.04152993475433933 -0.7740345611145427
227478 0.029597868663479143 -0.8119433445239345
232381 0.0037514212552544907 -0.8320546998539566
237284 -0.022777475062454876 -0.8409353651587621
242187 -0.0492969217442108 -0.8485568945343968
247090 -0.06853889729303952 -0.8476323403134103
251993 -0.08579085108919886 -0.8540809669691718
256896 -0.10667128668612985 -0.8503352884801004
261799 -0.1277048354955788 -0.8532802459696949
266702 -0.14470572715802243 -0.8510042303569243
271605 -0.16467438020704334 -0.8467050577707919
276508 -0.1797338536885984 -0.8436251498992321
281411 -0.19561525008402358 -0.842862066857833
286314 -0.21057176724593454 -0.8395652176552209
291217 -0.22027018181998434 -0.8334013907613921
296120 -0.23742787291555237 -0.8331047254049968
301023 -0.24760125759722493 -0.8245120032263017
305926 -0.26232861421549236 -0.8225610674762721
310829 -0.26932229121379664 -0.819775267096234
315732 -0.28030677764974554 -0.8169375355099336
320635 -0.29344046498822074 -0.8153223557519045
325538 -0.3041331452283724 -0.8107792493161633
330441 -0.3179179934522365 -0.8104635639058748
335344 -0.32853871572041105 -0.8044261514582762
340247 -0.34183990140973125 -0.8028761298620148
345150 -0.35011063457039143 -0.799678855133074
350053 -0.36348453664745 -0.7938278199786811
354956 -0.36967244471987065 -0.7914091039695875
359859 -0.3834565904721803 -0.7839977295834752
364762 -0.39027226890830635 -0.783013817670945
369665 -0.3949904404946821 -0.7751774253578553
374568 -0.40630973515007823 -0.7747478049147963
379471 -0.4197359229227186 -0.767830211017139
384374 -0.42672751446091134 -0.7710516586521262
389277 -0.4315182291586709 -0.7620203689135322
394180 -0.44201506687232867 -0.7600408672762646
399083 -0.44940129274787644 -0.7552241463020607
403986 -0.4597106456996748 -0.7483072947223575
408889 -0.4615140127349473 -0.745033474172899
413792 -0.47351077050042467 -0.7385933073935327
418695 -0.48108605792227144 -0.7353215679017273
423598 -0.4877988743555788 -0.7318366404128773
428501 -0.49581460276703115 -0.728183532952423
433404 -0.5032477116443196 -0.7245114037398932
438307 -0.5100620204461462 -0.7172036834824846
443210 -0.5135232983442868 -0.7193757598616201
448113 -0.5193991503941366 -0.7125134086391005
453016 -0.5275238394612957 -0.7085532217401698
457919 -0.5320684350520443 -0.7015117058377146
462822 -0.5387102298551002 -0.6994864775542874
467725 -0.5435824555489355 -0.6942020192761518
472628 -0.5508050932496874 -0.6914029515654672
477531 -0.5562592238256967 -0.6863559949226102
482434 -0.5592959255840357 -0.6802204294680902
487337 -0.5660589555782394 -0.6811372773989665
492240 -0.5698434986886912 -0.675001679380395
497143 -0.5775107716726555 -0.6731749787850717
502046 -0.579867013578764 -0.6671594030824017
506949 -0.5850489546617813 -0.6649982860207035
511852 -0.5840200245439702 -0.6613762902560278
516755 -0.5936193556320549 -0.6537471333072162
521658 -0.5988357289354086 -0.6572174872206821
526561 -0.6033507040956643 -0.6491331737905015
531464 -0.6083380217088277 -0.6459161815434685
536367 -0.6143086225722599 -0.6430069289597127
541270 -0.61658673262646 -0.6361588375509518
546173 -0.6205440160824198 -0.6371705525025791
551076 -0.6265845846007918 -0.6284479004233847
555979 -0.6332870015992534 -0.622747034688597
560882 -0.6306158210991466 -0.6175468859031248
565785 -0.6375447465499303 -0.6100871093801806
570688 -0.6416753699800207 -0.6065221311566406
575591 -0.6409196313322514 -0.599638591620721
580494 -0.6321628768025422 -0.5924292199289212
585397 -0.6311430654834964 -0.591442667644993
590300 -0.6298983361407291 -0.5959312126526846
595203 -0.6341595213542164 -0.6006954701085641
600106 -0.6373520620736015 -0.6028244933435553
605009 -0.6482958554852738 -0.6058514118163895
609912 -0.6500005695458491 -0.6034482003398346
614815 -0.6551788003239993 -0.6036556080629492
619718 -0.6631461230133947 -0.5993509559987619
624621 -0.6670829985468951 -0.5986805802629154
629524 -0.6700792102250518 -0.5942470459265785
634427 -0.6767058762200472 -0.5900189220962351
639330 -0.6804223264523991 -0.5900444974265733
644233 -0.6846071989357498 -0.583294399818176
649136 -0.6843136913279653 -0.5840298300763085
654039 -0.6905529059107677 -0.5792592697666243
658942 -0.6969565519674064 -0.5763690588111353
663845 -0.6960014573000374 -0.5736639906780201
668748 -0.6964499034434674 -0.5673679035703559
673651 -0.7040599382719747 -0.5651322124923426
678554 -0.7049398756672384 -0.5622577154902565
683457 -0.7083058317598809 -0.5625951030307935
688360 -0.7090154817826038 -0.5569514122552851
693263 -0.7163730132756514 -0.5526026127893507
698166 -0.7189005072429675 -0.5543154974238304
703069 -0.7189566222499186 -0.5507829383131084
707972 -0.7235958505013083 -0.5496250000412529
712875 -0.7276511075159431 -0.5442453088152434
717778 -0.7316669341124981 -0.5416443262694975
722681 -0.7291911903331798 -0.5365813615840689
727584 -0.7331826234308614 -0.5359983289273696
732487 -0.7327417616525802 -0.532942323974265
737390 -0.7402734416119631 -0.5298670649142625
742293 -0.7396400505356864 -0.5259354587242515
747196 -0.7447040214819506 -0.5215667072245964
752099 -0.7450546243791254 -0.5215339510925492
757002 -0.7467339429394688 -0.5168195519155745
761905 -0.7485796101070902 -0.5179545171245412
766808 -0.7499999106239367 -0.514933097123851
771711 -0.7522960686411011 -0.5120674400932737
776614 -0.7555572067037791 -0.5090640691719706
781517 -0.7570438534443575 -0.5079057773944906
786420 -0.7613147139862244 -0.5055301337691191
791323 -0.7606254615789741 -0.506143376794521
796226 -0.7632244189410613 -0.4992025957604882
801129 -0.7658574373489897 -0.49839830932028917
806032 -0.7670567506790894 -0.4959583252480369
810935 -0.7701952943617203 -0.4922863614321064
815838 -0.7687942567887702 -0.493978392264327
820741 -0.7691020621993286 -0.4893939369635098
825644 -0.7711304243779786 -0.48872393787909624
830547 -0.7758755617672451 -0.48638525578162956
835450 -0.7776846212319103 -0.48426207455466397
840353 -0.7738378686624562 -0.48004067040114745
845256 -0.7775473800048749 -0.47793925469686055
850159 -0.7823587229968616 -0.4763898485042177
855062 -0.7819701734958555 -0.47152182295836503
859965 -0.7877549843911051 -0.4711855588091395
864868 -0.7846832150969194 -0.4711760702765234
869771 -0.7885788944911484 -0.46835357185525456
874674 -0.7908398859502294 -0.46698586861077923
879577 -0.7885506320942 -0.4648974089124455
884480 -0.7881669162320049 -0.46124878321965773
889383 -0.7919869775455044 -0.456092156000947
894286 -0.796457748110585 -0.4575355704409537
899189 -0.7955276151847944 -0.4549096895754952
904092 -0.7976948185055027 -0.44924759860026126
908995 -0.7982081756113125 -0.44945302129426923
913898 -0.8007652013620953 -0.447408492127228
918801 -0.799670916214732 -0.445164938493284
923704 -0.7993128389435094 -0.44225742475228974
928607 -0.8034463832428459 -0.4437652784457917
933510 -0.801577953798768 -0.43906689107549934
938413 -0.8032217125399251 -0.4343992893799503
943316 -0.8031976905064843 -0.43416333422338765
948219 -0.8052154450765456 -0.43409228900863506
953122 -0.8053514656326227 -0.43103192279588504
958025 -0.7991500328043074 -0.4307879491754297
962928 -0.8046369537941694 -0.42861257423155386
967831 -0.8069005855665066 -0.432896651840938
972734 -0.809294801817833 -0.4308520691213158
977637 -0.8059888916894641 -0.4297242869641583
982540 -0.808661772390244 -0.4238812033748693
987443 -0.8126154481440988 -0.43018486173040876
992346 -0.8162174548916027 -0.42747007480971716
997249 -0.8142164526009109 -0.42410164492813074
1002152 -0.8147798086575044 -0.42248193901057246
1007055 -0.8164961522449267 -0.42227063979559953
1011958 -0.8213597444997744 -0.41936372335152594
1016861 -0.821514845625912 -0.4168576073118875
1021764 -0.8212436516602881 -0.41982519726682027
1026667 -0.8206066034742863 -0.4147496390254111
1031570 -0.8247836616647821 -0.4168401214398238
1036473 -0.8241388812705086 -0.40844877265465673
1041376 -0.8277816110730017 -0.4136786534671892
1046279 -0.8270173220998174 -0.4059181904814874
1051182 -0.8304975530714808 -0.4076949516407032
1056085 -0.8317715815157368 -0.4099627194276376
1060988 -0.8285391773560379 -0.40781015441719665
1065891 -0.833485399347681 -0.40128426355707336
1070794 -0.8358534353095748 -0.4030636561932643
1075697 -0.8333450371188242 -0.39749694916244543
1080600 -0.8368294418973174 -0.39679914958680085
1085503 -0.8356540809053908 -0.39807694253377407
1090406 -0.8420422423462804 -0.39506911170032394
1095309 -0.8378176227870006 -0.3935380742648721
1100212 -0.839864644273413 -0.3949319869997606
1105115 -0.8422667851363075 -0.39128575066810767
1110018 -0.8401187473427836 -0.3900358457999719
1114921 -0.8413685050581797 -0.3862241096488329
1119824 -0.8444298531093489 -0.3871531400652385
1124727 -0.8462566942506813 -0.3861878115938024
1129630 -0.8440956808298071 -0.37988532075793
1134533 -0.8467963740150182 -0.3795038563241431
1139436 -0.8446067353719374 -0.3792719028398558
1144339 -0.8442432934181884 -0.37859322028263315
1149242 -0.8462319210786649 -0.37594058117442136
1154145 -0.8499538816562506 -0.37606874062215145
1159048 -0.8488495300440544 -0.37929192657359123
1163951 -0.8503933739329352 -0.37275388795652187
1168854 -0.8475857816931571 -0.37354836387460916
1173757 -0.8510511074891858 -0.37237670889939456
1178660 -0.8501429716100699 -0.3675045175465839
1183563 -0.8528940195083243 -0.3662751379227366
1188466 -0.8517876794032201 -0.36633697430469125
1193369 -0.854169956814776 -0.36496526584551725
1198272 -0.8543685553685192 -0.36236636530753746
1203175 -0.8568689714214504 -0.360302353816478
1208078 -0.8556477284198887 -0.36036736675216774
1212981 -0.8556987482233068 -0.3589991697014241
1217884 -0.8559546782398383 -0.3600591757199961
1222787 -0.8589535779783286 -0.3537063970118585
1227690 -0.8587470778836584 -0.356043876900766
1232593 -0.8551697007244694 -0.3555909362296288
1237496 -0.8594128387495741 -0.35428855371991985
1242399 -0.860251906437969 -0.3497672054079512
1247302 -0.8606099503557846 -0.3526858567588305
1252205 -0.8630079246773903 -0.35087264312993244
1257108 -0.864771971077933 -0.3489141436649481
1262011 -0.8615685402471315 -0.3464572654710351
1266914 -0.8657609606980251 -0.3443453940896363
1271817 -0.862433075457779 -0.34909806908089297
1276720 -0.8646537366258168 -0.3398266201763314
1281623 -0.8656167756537974 -0.3436033841821887
1286526 -0.8614179947572296 -0.3410502198826161
1291429 -0.8666202156722318 -0.3387801712823858
1296332 -0.8652354643860087 -0.3354237248080145
1301235 -0.8641847319734093 -0.336863137608026
1306138 -0.8655574208532035 -0.3382433436253546
1311041 -0.863460773597745 -0.3334806197130281
1315944 -0.8605481853853297 -0.33000812831863213
1320847 -0.8616024564303331 -0.3373194829769924
1325750 -0.8635799714155992 -0.3335095678054575
1330653 -0.8676865259493877 -0.3335607521401558
1335556 -0.86660066616002 -0.3334745018133465
1340459 -0.8701890666888986 -0.3346650509838228
1345362 -0.8677403434685449 -0.33041461718133314
1350265 -0.869754303445989 -0.33171813760721275
1355168 -0.8696971727403259 -0.32922012126693423
1360071 -0.8758366670449872 -0.3287395737705307
1364974 -0.8723088796207972 -0.32798000743668065
1369877 -0.8745562266560959 -0.32571187463198364
1374780 -0.873859378952161 -0.3288968872129459
1379683 -0.8762141519941379 -0.3237667588458396
1384586 -0.8711485729762971 -0.32047133237183545
1389489 -0.8756958076160677 -0.3223958450144494
1394392 -0.8739014756166297 -0.32300748961277487
1399295 -0.8759091182443166 -0.3205014216447765
1404198 -0.8761352061164887 -0.32137909088969374
1409101 -0.8761969008949534 -0.3165760128694606
1414004 -0.8803835838559679 -0.3200782806018094
1418907 -0.8779283769536721 -0.3147670111169437
1423810 -0.8791736968986398 -0.31504969665359234
1428713 -0.8813166047601725 -0.3163901595169196
1433616 -0.8804358382617843 -0.3185998316704248
1438519 -0.8773432572703119 -0.31255421465181504
1443422 -0.880766217889431 -0.30984543837633904
1448325 -0.8816642386940147 -0.30816730910086826
1453228 -0.8781416731572517 -0.3115238351592067
1458131 -0.8774959482647737 -0.3094207890457459
1463034 -0.8829879724927473 -0.3092622334094466
1467937 -0.876128530584594 -0.31023399397232954
1472840 -0.8810738787286135 -0.30829210472682256
1477743 -0.8822574972668193 -0.3057812938053894
1482646 -0.8858543474529903 -0.3050025192962621
1487549 -0.8822638367843344 -0.30400435310683194
1492452 -0.8859464919672853 -0.3017256927612332
1497355 -0.8848573379496992 -0.3009782058297049
1502258 -0.8853761311488828 -0.30112264125826593
1507161 -0.884447079588822 -0.3005464258949693
1512064 -0.8852226079410863 -0.3011092294714266
1516967 -0.8862024076284508 -0.29638813757392957
1521870 -0.88520518827944 -0.29638806758546854
1526773 -0.8868662050376017 -0.2970122770024143
1531676 -0.8853730315594741 -0.2947171252826309
1536579 -0.8870404644395448 -0.29634117385323655
1541482 -0.8881677419990557 -0.29757492222904436
1546385 -0.8875821702501466 -0.2930698042651932
1551288 -0.8930190164974237 -0.29089359304667095
1556191 -0.8880244263460353 -0.28651684566292057
1561094 -0.8928413645360868 -0.28969893396423213
1565997 -0.8879628533528819 -0.2885136915714769
1570900 -0.8900024171912061 -0.28957380487704
1575803 -0.8884895098715155 -0.29244004967093673
1580706 -0.8878843566582889 -0.28799946565444356
1585609 -0.8909525264572143 -0.28721649683093337
1590512 -0.8872231984400324 -0.28093006573362234
1595415 -0.8914855553172519 -0.28579561362058126
1600318 -0.8888569112283122 -0.28250274028751127
1605221 -0.8917028802014771 -0.28229964560405246
1610124 -0.8896148497893218 -0.28152153105734945
1615027 -0.8915482219149083 -0.2840961296609456
1619930 -0.8898142288846108 -0.28229370785346286
1624833 -0.8900671367393754 -0.2817663931581529
1629736 -0.8943602568935799 -0.2792224601944576
1634639 -0.8931334356038075 -0.2781050918495192
1639542 -0.8917461376752498 -0.2795844570194946
1644445 -0.895986803142317 -0.27788399861222857
1649348 -0.8923558455674234 -0.2780975193272208
1654251 -0.8948677529429656 -0.2769752862821816
1659154 -0.8947434055694781 -0.27349957164920885
1664057 -0.8969278065921196 -0.2744503369501013
1668960 -0.8974231045872719 -0.27315327775683224
1673863 -0.8987993448167796 -0.2771456406567293
1678766 -0.8942035896154538 -0.2725634839472188
1683669 -0.8964162306433276 -0.2712976903857733
1688572 -0.8959771661133477 -0.2739161547519756
1693475 -0.8987064846122849 -0.2695265346611164
1698378 -0.9009111145131192 -0.26884084201020475
1703281 -0.8954318859494761 -0.27171538530877143
1708184 -0.8953378257935191 -0.27319937296183266
1713087 -0.8966879965387712 -0.26839964013526607
1717990 -0.896437076574273 -0.2684791286490135
1722893 -0.8921457697757416 -0.264987451642795
1727796 -0.8989953070005322 -0.26174007519756354
1732699 -0.8953168002164238 -0.2657175319458444
1737602 -0.8993087393449386 -0.26668973330357193
1742505 -0.8988602730066592 -0.2639029940328566
1747408 -0.9000489904859864 -0.261298617720859
1752311 -0.8971738707934516 -0.26402430072465544
1757214 -0.9042392423180733 -0.264949807764154
1762117 -0.9037810624505888 -0.26711137335324947
1767020 -0.8985150570287582 -0.26202654661149566
1771923 -0.8999441474263349 -0.25838218124302287
1776826 -0.8992250186008557 -0.26438602761593044
1781729 -0.9049878152367259 -0.2579560682753913
1786632 -0.8984081511086517 -0.2575002497373991
1791535 -0.9035939358005388 -0.2594320939472949
1796438 -0.9028517370948529 -0.26093995674444315
1801341 -0.9025649143898584 -0.2544341725855705
1806244 -0.8997157836959531 -0.25590157317079426
1811147 -0.9033264103092834 -0.25326148901641726
1816050 -0.9016317100001405 -0.2489908674409771
1820953 -0.9030065965750492 -0.2556734817614297
1825856 -0.900924680777796 -0.2520470431584629
1830759 -0.8985721239681898 -0.2516724810353681
1835662 -0.9008802072828334 -0.25333625615867156
1840565 -0.9024032264118989 -0.2513230894676475
1845468 -0.9038079660109961 -0.25039293558224057
1850371 -0.9059149421427438 -0.25339459630232464
1855274 -0.9032131078033482 -0.25201048050481795
1860177 -0.8966699792402681 -0.24832614492825617
1865080 -0.903535205615873 -0.24821738028743312
1869983 -0.9033202080549345 -0.2532131005614785
1874886 -0.902827908227002 -0.2517846557014466
1879789 -0.9045050974387577 -0.24618056665792054
1884692 -0.9077737608854752 -0.24552626249631682
1889595 -0.9057318753562034 -0.24322440643666085
1894498 -0.9033682079838125 -0.2432890346772523
1899401 -0.9085694054901788 -0.2443170072903702
1904304 -0.9038958322880104 -0.24482182837577762
1909207 -0.904682199922096 -0.24375089965671579
1914110 -0.9047954634609952 -0.24168600262060566
1919013 -0.9073913180259385 -0.2393875531722753
1923916 -0.9070998279392637 -0.24077371006986067
1928819 -0.9090396595927364 -0.24299159463354467
1933722 -0.910081758707533 -0.24120640082692893
1938625 -0.9069443327538139 -0.2415267257279073
1943528 -0.9058461668883857 -0.2408881419081743
1948431 -0.906415280787653 -0.24150213338567866
1953334 -0.9099167032521681 -0.23752308218824716
1958237 -0.9072198172985503 -0.236122120004568
1963140 -0.9055171867906022 -0.23278318096717798
1968043 -0.9073536761092154 -0.23787074760444335
1972946 -0.9073827384116441 -0.23789824287692146
1977849 -0.9085543764116751 -0.24004511572432657
1982752 -0.9085662365753995 -0.2356929760813179
1987655 -0.9057781624038999 -0.2357733170332468
1992558 -0.9104133675012093 -0.23572088607237898
1997461 -0.9062260633271072 -0.23490286475803254
2002364 -0.9077458786979582 -0.23623530489074387
2007267 -0.9013265812105932 -0.23414472545411533
2012170 -0.9088179834749508 -0.23462233856800313
2017073 -0.907927110831173 -0.23447988575708756
2021976 -0.9081796368380822 -0.23320941244871224
2026879 -0.9085870547463867 -0.23537846299385703
2031782 -0.91013358512318 -0.23138488925430398
2036685 -0.9102392682922188 -0.2353746156365045
2041588 -0.9060769869484129 -0.229497709218581
2046491 -0.9145207792329909 -0.232687532615947
2051394 -0.9115332849082073 -0.2299885890169489
2056297 -0.9117035955863149 -0.22827597847285394
2061200 -0.9082925490501631 -0.22321102015039251
2066103 -0.9153625399105325 -0.225355257803223
2071006 -0.9111164880145229 -0.22696177758420572
2075909 -0.9115507538491294 -0.22437173987090364
2080812 -0.9100209251484793 -0.22666019568488976
2085715 -0.9134872499571823 -0.22538721629184444
2090618 -0.9127062384566392 -0.22709911648978182
2095521 -0.911107273645375 -0.22183577534739607
2100424 -0.912990122607932 -0.2264448975093067
